! Infineon Technologies  Discrete & RF Semiconductors
! BAT62-02V
! IAC = 7 mA
! One-Port S-Parameters
# Hz  S  MA  R  50
!f									S11
!Hz							Mag  Ang
309850000		0.62938	-2.3492
409800000		0.62845	-3.1097
509750000		0.62843	-3.7442
609700000		0.62743	-4.5953
709650000		0.62767	-5.1896
809600000		0.62621	-6.0581
909550000		0.62572	-6.7888
1009500000		0.62435	-7.5059
1109450000		0.62426	-8.3618
1209400000		0.62229	-9.0224
1309350000		0.62171	-9.9258
1409300000		0.62014	-10.5795
1509250000		0.61864	-11.6396
1609200000		0.61631	-12.224
1709150000		0.61459	-13.2571
1809100000		0.61255	-13.936
1909050000		0.61054	-15.0413
2009000000		0.60801	-15.5275
2108950000		0.60531	-16.6429
2208900000		0.60374	-17.2418
2308850000		0.60095	-18.5023
2408800000		0.59977	-19.107
2508750000		0.59757	-20.141
2608700000		0.59646	-20.9096
2708650000		0.59406	-21.96
2808600000		0.5926	-22.8469
2908550000		0.59045	-23.8567
3008500000		0.58883	-24.8319
3108450000		0.58578	-25.8256
3208400000		0.58437	-26.9298
3308350000		0.58215	-27.9006
3408300000		0.58014	-29.0171
3508250000		0.57699	-30.0965
3608200000		0.57459	-31.2697
3708150000		0.57163	-32.36
3808100000		0.56908	-33.5338
3908050000		0.56597	-34.6589
4008000000		0.56287	-35.7645
4107950000		0.55949	-36.882
4207900000		0.55668	-38.1042
4307850000		0.55347	-39.1222
4407800000		0.55022	-40.3855
4507750000		0.54744	-41.3264
4607700000		0.54371	-42.559
4707650000		0.54071	-43.4678
4807600000		0.53708	-44.6951
4907550000		0.53374	-45.6494
5007500000		0.53064	-46.8634
5107450000		0.52643	-47.7693
5207400000		0.52298	-48.9744
5307350000		0.51844	-50.1476
5407300000		0.51552	-51.3137
5507250000		0.51037	-52.4375
5607200000		0.50751	-53.7149
5707150000		0.50315	-55.0303
5807100000		0.50012	-56.2538
5907050000		0.4951	-57.5545
6007000000		0.49161	-58.8996
6106950000		0.48627	-60.2
6206900000		0.48112	-61.6836
6306850000		0.47633	-63.0751
6406800000		0.4714	-64.4405
6506750000		0.46636	-66.0415
6606700000		0.46154	-67.4661
6706650000		0.4569	-69.1757
6806600000		0.45185	-70.5967
!
!				Infineon Technologies AG
