! Infineon Technologies  Discrete & RF Semiconductors
! BAT62-02V
! VCA = 20 V
! One-Port S-Parameters
# Hz  S  MA  R  50
!f									S11
!Hz							Mag  Ang
309850000		1.0008	-1.9462
409800000		0.99936	-2.7293
509750000		1.0008	-3.3488
609700000		1.0012	-4.1128
709650000		1.002	-4.6578
809600000		1.001	-5.4516
909550000		1.0005	-6.1696
1009500000		1.001	-6.8369
1109450000		1.0017	-7.6135
1209400000		1.0005	-8.1922
1309350000		1.0004	-9.0372
1409300000		1.0004	-9.666
1509250000		0.99997	-10.6522
1609200000		0.99862	-11.1837
1709150000		0.99764	-12.1075
1809100000		0.9962	-12.7424
1909050000		0.99492	-13.7478
2009000000		0.99361	-14.1921
2108950000		0.99273	-15.1715
2208900000		0.99232	-15.7355
2308850000		0.99034	-16.7695
2408800000		0.99081	-17.4279
2508750000		0.99024	-18.2532
2608700000		0.99074	-18.9715
2708650000		0.99055	-19.8899
2808600000		0.99101	-20.6544
2908550000		0.99123	-21.5794
3008500000		0.99219	-22.4444
3108450000		0.99103	-23.3633
3208400000		0.99147	-24.3552
3308350000		0.99231	-25.2515
3408300000		0.99294	-26.2547
3508250000		0.99173	-27.2519
3608200000		0.99101	-28.3245
3708150000		0.98954	-29.3477
3808100000		0.98879	-30.4344
3908050000		0.98708	-31.4465
4008000000		0.98561	-32.4835
4107950000		0.98323	-33.5085
4207900000		0.98132	-34.6332
4307850000		0.97897	-35.568
4407800000		0.97655	-36.7026
4507750000		0.97443	-37.5499
4607700000		0.97196	-38.6152
4707650000		0.97013	-39.4132
4807600000		0.96792	-40.4584
4907550000		0.96611	-41.3187
5007500000		0.96451	-42.355
5107450000		0.96251	-43.1378
5207400000		0.9614	-44.1525
5307350000		0.95961	-45.1671
5407300000		0.9588	-46.2058
5507250000		0.95626	-47.1737
5607200000		0.95586	-48.301
5707150000		0.95479	-49.3649
5807100000		0.95462	-50.4283
5907050000		0.95328	-51.5038
6007000000		0.95278	-52.7199
6106950000		0.95094	-53.8525
6206900000		0.94945	-55.1014
6306850000		0.94828	-56.2823
6406800000		0.94643	-57.4969
6506750000		0.94446	-58.8937
6606700000		0.94295	-60.1368
6706650000		0.94129	-61.5852
6806600000		0.93911	-62.8213
!
!				Infineon Technologies AG
