! Infineon Technologies  Discrete & RF Semiconductors
! BAT62-02V
! IAC = 10 mA
! One-Port S-Parameters
# Hz  S  MA  R  50
!f									S11
!Hz							Mag  Ang
309850000		0.62935	-2.3508
409800000		0.62844	-3.1116
509750000		0.62841	-3.7433
609700000		0.62744	-4.5951
709650000		0.62768	-5.1885
809600000		0.62605	-6.0246
909550000		0.62574	-6.7902
1009500000		0.62434	-7.5066
1109450000		0.62423	-8.3636
1209400000		0.62229	-9.0252
1309350000		0.62168	-9.9307
1409300000		0.6201	-10.5802
1509250000		0.61864	-11.6408
1609200000		0.6163	-12.226
1709150000		0.61459	-13.2612
1809100000		0.61257	-13.9384
1909050000		0.61057	-15.0443
2009000000		0.608	-15.531
2108950000		0.60543	-16.6722
2208900000		0.60383	-17.2797
2308850000		0.60092	-18.5064
2408800000		0.59975	-19.1086
2508750000		0.59769	-20.1756
2608700000		0.59641	-20.9118
2708650000		0.59406	-21.9571
2808600000		0.59258	-22.8495
2908550000		0.59028	-23.8235
3008500000		0.58884	-24.8372
3108450000		0.58578	-25.8332
3208400000		0.58434	-26.9309
3308350000		0.58212	-27.9034
3408300000		0.58012	-29.0201
3508250000		0.57683	-30.0638
3608200000		0.57457	-31.269
3708150000		0.57157	-32.3616
3808100000		0.56904	-33.5355
3908050000		0.5658	-34.6324
4008000000		0.56283	-35.773
4107950000		0.55945	-36.8884
4207900000		0.55666	-38.1088
4307850000		0.55342	-39.1254
4407800000		0.55019	-40.3926
4507750000		0.54742	-41.3325
4607700000		0.54372	-42.5653
4707650000		0.54068	-43.4718
4807600000		0.53705	-44.7022
4907550000		0.53375	-45.6536
5007500000		0.53065	-46.868
5107450000		0.52643	-47.772
5207400000		0.52294	-48.9801
5307350000		0.51842	-50.1543
5407300000		0.5155	-51.3197
5507250000		0.51033	-52.4423
5607200000		0.50746	-53.7227
5707150000		0.50311	-55.036
5807100000		0.50011	-56.2598
5907050000		0.495	-57.5337
6007000000		0.4916	-58.9064
6106950000		0.48622	-60.2049
6206900000		0.48113	-61.6898
6306850000		0.47634	-63.0821
6406800000		0.4714	-64.4463
6506750000		0.46632	-66.0474
6606700000		0.46155	-67.4696
6706650000		0.45693	-69.1848
6806600000		0.45183	-70.6059
!
!				Infineon Technologies AG
