! Infineon Technologies  Discrete & RF Semiconductors
! BAT62-02V
! IAC = 2 mA
! One-Port S-Parameters
# Hz  S  MA  R  50
!f									S11
!Hz							Mag  Ang
309850000		0.58157	-2.318
409800000		0.58071	-3.0746
509750000		0.58067	-3.6954
609700000		0.57978	-4.5764
709650000		0.57988	-5.1261
809600000		0.57827	-5.9933
909550000		0.57785	-6.7135
1009500000		0.5764	-7.423
1109450000		0.57626	-8.2758
1209400000		0.57419	-8.9248
1309350000		0.57354	-9.8262
1409300000		0.57188	-10.4622
1509250000		0.57035	-11.522
1609200000		0.56792	-12.0917
1709150000		0.56624	-13.1283
1809100000		0.56418	-13.7941
1909050000		0.5621	-14.9073
2009000000		0.55948	-15.3722
2108950000		0.55686	-16.5255
2208900000		0.55518	-17.1202
2308850000		0.55218	-18.3563
2408800000		0.55104	-18.983
2508750000		0.5487	-20.0233
2608700000		0.54733	-20.7529
2708650000		0.54477	-21.8063
2808600000		0.54318	-22.6932
2908550000		0.54094	-23.7361
3008500000		0.53912	-24.6705
3108450000		0.53612	-25.708
3208400000		0.5344	-26.7699
3308350000		0.53197	-27.7383
3408300000		0.52984	-28.854
3508250000		0.52658	-29.9316
3608200000		0.5241	-31.1069
3708150000		0.52103	-32.1969
3808100000		0.51845	-33.3698
3908050000		0.51525	-34.4978
4008000000		0.51225	-35.6377
4107950000		0.50878	-36.7222
4207900000		0.5059	-37.9491
4307850000		0.50268	-38.9587
4407800000		0.49958	-40.2685
4507750000		0.49676	-41.1824
4607700000		0.493	-42.4207
4707650000		0.48995	-43.3245
4807600000		0.48625	-44.5792
4907550000		0.48289	-45.5242
5007500000		0.47972	-46.7537
5107450000		0.47542	-47.65
5207400000		0.47185	-48.8734
5307350000		0.46718	-50.0465
5407300000		0.46415	-51.2142
5507250000		0.45887	-52.3505
5607200000		0.45595	-53.6394
5707150000		0.45143	-54.973
5807100000		0.44832	-56.2072
5907050000		0.44292	-57.4963
6007000000		0.43941	-58.8749
6106950000		0.43398	-60.1887
6206900000		0.42866	-61.696
6306850000		0.42374	-63.1109
6406800000		0.41878	-64.5189
6506750000		0.41359	-66.1463
6606700000		0.40868	-67.5854
6706650000		0.404	-69.3361
6806600000		0.39882	-70.7722
!
!				Infineon Technologies AG
