! Infineon Technologies  Discrete & RF Semiconductors
! BAT62-02V
! VCA = 10 V
! One-Port S-Parameters
# Hz  S  MA  R  50
!f									S11
!Hz							Mag  Ang
309850000		1.0016	-2.1997
409800000		1.0002	-2.9054
509750000		1.0012	-3.5488
609700000		1.0011	-4.3594
709650000		1.0017	-4.9316
809600000		1.0012	-5.756
909550000		1.0008	-6.481
1009500000		1.0009	-7.1718
1109450000		1.0014	-7.9932
1209400000		1.0003	-8.6208
1309350000		1.0004	-9.4926
1409300000		1.0004	-10.1404
1509250000		0.99963	-11.1568
1609200000		0.99811	-11.7312
1709150000		0.9972	-12.7011
1809100000		0.99587	-13.3658
1909050000		0.9945	-14.3946
2009000000		0.99297	-14.8737
2108950000		0.99195	-15.8956
2208900000		0.99159	-16.505
2308850000		0.98978	-17.6045
2408800000		0.99003	-18.2561
2508750000		0.98956	-19.1506
2608700000		0.98982	-19.8702
2708650000		0.98967	-20.8299
2808600000		0.98999	-21.6342
2908550000		0.98989	-22.5675
3008500000		0.99103	-23.5162
3108450000		0.98999	-24.4806
3208400000		0.99028	-25.5102
3308350000		0.99097	-26.4442
3408300000		0.99131	-27.4919
3508250000		0.98988	-28.5402
3608200000		0.98912	-29.658
3708150000		0.98761	-30.721
3808100000		0.98656	-31.8437
3908050000		0.98459	-32.8973
4008000000		0.98291	-33.9835
4107950000		0.98047	-35.0554
4207900000		0.97844	-36.2215
4307850000		0.9759	-37.1933
4407800000		0.97332	-38.3651
4507750000		0.97099	-39.2528
4607700000		0.96829	-40.3715
4707650000		0.96646	-41.2117
4807600000		0.96423	-42.3027
4907550000		0.96223	-43.2004
5007500000		0.96037	-44.2809
5107450000		0.95818	-45.1206
5207400000		0.95703	-46.1947
5307350000		0.95525	-47.2627
5407300000		0.95437	-48.3445
5507250000		0.95151	-49.3634
5607200000		0.95081	-50.5465
5707150000		0.94963	-51.6853
5807100000		0.94942	-52.8054
5907050000		0.94808	-53.9447
6007000000		0.9472	-55.2059
6106950000		0.94495	-56.4079
6206900000		0.94316	-57.7385
6306850000		0.94194	-58.9985
6406800000		0.9399	-60.2735
6506750000		0.93761	-61.7274
6606700000		0.93562	-63.0394
6706650000		0.93359	-64.5662
6806600000		0.93123	-65.8856
!
!				Infineon Technologies AG
