! Infineon Technologies  Discrete & RF Semiconductors
! BAT62-02V
! IAC = 20 mA
! One-Port S-Parameters
# Hz  S  MA  R  50
!f									S11
!Hz							Mag  Ang
309850000		0.62929	-2.3519
409800000		0.6284	-3.1109
509750000		0.62839	-3.7454
609700000		0.62756	-4.6282
709650000		0.62768	-5.189
809600000		0.62614	-6.0596
909550000		0.62569	-6.7868
1009500000		0.62432	-7.5064
1109450000		0.62424	-8.3623
1209400000		0.62226	-9.0235
1309350000		0.6217	-9.9302
1409300000		0.62008	-10.5817
1509250000		0.61863	-11.6409
1609200000		0.61628	-12.2271
1709150000		0.61457	-13.2617
1809100000		0.61252	-13.939
1909050000		0.61054	-15.0452
2009000000		0.608	-15.5315
2108950000		0.60531	-16.6441
2208900000		0.60381	-17.2833
2308850000		0.60079	-18.4725
2408800000		0.59984	-19.151
2508750000		0.59767	-20.1761
2608700000		0.59627	-20.8792
2708650000		0.59399	-21.9608
2808600000		0.59242	-22.8182
2908550000		0.59038	-23.8622
3008500000		0.58879	-24.8398
3108450000		0.58588	-25.8698
3208400000		0.5842	-26.9036
3308350000		0.5821	-27.9064
3408300000		0.58009	-29.0215
3508250000		0.57696	-30.1009
3608200000		0.57453	-31.2727
3708150000		0.5717	-32.3931
3808100000		0.56905	-33.5369
3908050000		0.56582	-34.633
4008000000		0.56283	-35.7725
4107950000		0.55948	-36.8906
4207900000		0.55665	-38.1098
4307850000		0.55345	-39.1255
4407800000		0.5502	-40.3928
4507750000		0.54741	-41.3338
4607700000		0.5437	-42.5633
4707650000		0.54066	-43.4707
4807600000		0.53703	-44.701
4907550000		0.53371	-45.6534
5007500000		0.53061	-46.8678
5107450000		0.52641	-47.7733
5207400000		0.52289	-48.9817
5307350000		0.51843	-50.1551
5407300000		0.51548	-51.3187
5507250000		0.51032	-52.4456
5607200000		0.50748	-53.7234
5707150000		0.50314	-55.038
5807100000		0.50011	-56.261
5907050000		0.49496	-57.5359
6007000000		0.49157	-58.9054
6106950000		0.48621	-60.2053
6206900000		0.4811	-61.6909
6306850000		0.47629	-63.0834
6406800000		0.47137	-64.4491
6506750000		0.46634	-66.0507
6606700000		0.46155	-67.4733
6706650000		0.4569	-69.1844
6806600000		0.4518	-70.6077
!
!				Infineon Technologies AG
