! Infineon Technologies  Discrete & RF Semiconductors
! BAT62-02V
! IAC = 0.2 mA
! One-Port S-Parameters
# Hz  S  MA  R  50
!f									S11
!Hz							Mag  Ang
309850000		0.73336	-2.7028
409800000		0.73275	-3.5991
509750000		0.73236	-4.3442
609700000		0.7319	-5.3478
709650000		0.733	-6.1198
809600000		0.72976	-7.113
909550000		0.7288	-7.9801
1009500000		0.72819	-8.8818
1109450000		0.72915	-9.8924
1209400000		0.72563	-10.6656
1309350000		0.72431	-11.7041
1409300000		0.72238	-12.4994
1509250000		0.72021	-13.6852
1609200000		0.71724	-14.4066
1709150000		0.71713	-15.5829
1809100000		0.7145	-16.4162
1909050000		0.71141	-17.6264
2009000000		0.707	-18.2294
2108950000		0.70549	-19.5109
2208900000		0.70277	-20.2661
2308850000		0.69862	-21.5602
2408800000		0.69566	-22.2818
2508750000		0.695	-23.4994
2608700000		0.69339	-24.4153
2708650000		0.69043	-25.5413
2808600000		0.68887	-26.626
2908550000		0.686	-27.7092
3008500000		0.6847	-28.7769
3108450000		0.68099	-29.9565
3208400000		0.67978	-31.1927
3308350000		0.67655	-32.3232
3408300000		0.67291	-33.5108
3508250000		0.66877	-34.7115
3608200000		0.66691	-36.0718
3708150000		0.66301	-37.3011
3808100000		0.65907	-38.5553
3908050000		0.65409	-39.723
4008000000		0.65046	-40.9965
4107950000		0.64648	-42.2615
4207900000		0.64343	-43.6523
4307850000		0.63916	-44.7794
4407800000		0.63531	-46.1772
4507750000		0.6311	-47.2076
4607700000		0.62646	-48.5327
4707650000		0.62229	-49.5469
4807600000		0.61726	-50.8148
4907550000		0.61281	-51.8716
5007500000		0.60875	-53.1757
5107450000		0.60424	-54.2773
5207400000		0.60011	-55.6039
5307350000		0.59472	-56.9028
5407300000		0.59066	-58.1572
5507250000		0.58516	-59.4823
5607200000		0.58178	-60.8942
5707150000		0.57674	-62.326
5807100000		0.5727	-63.6346
5907050000		0.56714	-65.0733
6007000000		0.56289	-66.5412
6106950000		0.55672	-67.9804
6206900000		0.55095	-69.5876
6306850000		0.5459	-71.1659
6406800000		0.5401	-72.6658
6506750000		0.53461	-74.4196
6606700000		0.52887	-75.9544
6706650000		0.5237	-77.7766
6806600000		0.51765	-79.3294
!
!				Infineon Technologies AG
