! Infineon Technologies  Discrete & RF Semiconductors
! BAT62-02V
! VCA = 8 V
! One-Port S-Parameters
# Hz  S  MA  R  50
!f									S11
!Hz							Mag  Ang
309850000		1.0013	-2.217
409800000		1.0002	-2.9585
509750000		1.0012	-3.6038
609700000		1.0009	-4.4293
709650000		1.0016	-5.0166
809600000		1.0012	-5.8502
909550000		1.0007	-6.5844
1009500000		1.0008	-7.2849
1109450000		1.0013	-8.1184
1209400000		1.0002	-8.759
1309350000		1.0003	-9.6427
1409300000		1.0003	-10.3015
1509250000		0.99949	-11.3275
1609200000		0.99799	-11.9151
1709150000		0.99699	-12.8997
1809100000		0.99565	-13.5743
1909050000		0.99415	-14.5839
2009000000		0.99271	-15.1029
2108950000		0.99163	-16.1406
2208900000		0.99122	-16.7614
2308850000		0.98944	-17.872
2408800000		0.98943	-18.4952
2508750000		0.98918	-19.4447
2608700000		0.98945	-20.1771
2708650000		0.98901	-21.1157
2808600000		0.98974	-22.0014
2908550000		0.98939	-22.9115
3008500000		0.99041	-23.8779
3108450000		0.98928	-24.8558
3208400000		0.9896	-25.8966
3308350000		0.9902	-26.8474
3408300000		0.99054	-27.9066
3508250000		0.98903	-28.9702
3608200000		0.98821	-30.1085
3708150000		0.98665	-31.1849
3808100000		0.98555	-32.3185
3908050000		0.98349	-33.3881
4008000000		0.98183	-34.486
4107950000		0.97926	-35.5734
4207900000		0.97716	-36.7533
4307850000		0.97462	-37.7382
4407800000		0.97199	-38.9237
4507750000		0.96956	-39.8279
4607700000		0.9668	-40.9597
4707650000		0.96492	-41.8199
4807600000		0.9626	-42.9228
4907550000		0.96062	-43.8348
5007500000		0.95872	-44.9301
5107450000		0.95637	-45.7891
5207400000		0.95519	-46.8824
5307350000		0.95334	-47.9666
5407300000		0.95245	-49.0649
5507250000		0.94948	-50.1067
5607200000		0.94873	-51.3037
5707150000		0.94746	-52.4678
5807100000		0.94714	-53.6057
5907050000		0.94571	-54.7668
6007000000		0.94478	-56.048
6106950000		0.94246	-57.2726
6206900000		0.94052	-58.6283
6306850000		0.93913	-59.9124
6406800000		0.93706	-61.2096
6506750000		0.93464	-62.6825
6606700000		0.93249	-64.0164
6706650000		0.93038	-65.5696
6806600000		0.92791	-66.9111
!
!				Infineon Technologies AG
