! Infineon Technologies  Discrete & RF Semiconductors
! BAT62-02V
! VCA = 30 V
! One-Port S-Parameters
# Hz  S  MA  R  50
!f									S11
!Hz							Mag  Ang
309850000		1.0003	-1.7073
409800000		0.99826	-2.5829
509750000		1.0006	-3.2484
609700000		1.0019	-3.9998
709650000		1.0023	-4.4524
809600000		1.0007	-5.2367
909550000		1.0001	-5.9752
1009500000		1.0011	-6.643
1109450000		1.0022	-7.3838
1209400000		1.0008	-7.9173
1309350000		1.0003	-8.7541
1409300000		1.0003	-9.3877
1509250000		1.0003	-10.3599
1609200000		0.99905	-10.8554
1709150000		0.99788	-11.7466
1809100000		0.99627	-12.3687
1909050000		0.9951	-13.3733
2009000000		0.99402	-13.7998
2108950000		0.99331	-14.7425
2208900000		0.99278	-15.2787
2308850000		0.99082	-16.3332
2408800000		0.99099	-16.9078
2508750000		0.99106	-17.7938
2608700000		0.99147	-18.4502
2708650000		0.99102	-19.314
2808600000		0.99181	-20.1315
2908550000		0.99178	-20.9964
3008500000		0.99265	-21.8346
3108450000		0.99121	-22.695
3208400000		0.99179	-23.7044
3308350000		0.99285	-24.5787
3408300000		0.99376	-25.5475
3508250000		0.99264	-26.5052
3608200000		0.99179	-27.5489
3708150000		0.99027	-28.5551
3808100000		0.98965	-29.6269
3908050000		0.98831	-30.612
4008000000		0.98709	-31.6175
4107950000		0.98465	-32.6098
4207900000		0.98259	-33.7146
4307850000		0.98034	-34.635
4407800000		0.97821	-35.7487
4507750000		0.97632	-36.5671
4607700000		0.97379	-37.6024
4707650000		0.97186	-38.3721
4807600000		0.96962	-39.4022
4907550000		0.96805	-40.2424
5007500000		0.96666	-41.2532
5107450000		0.9647	-41.9968
5207400000		0.96351	-42.9827
5307350000		0.96173	-43.9708
5407300000		0.96103	-44.9954
5507250000		0.95873	-45.9287
5607200000		0.95855	-47.0184
5707150000		0.95733	-48.0368
5807100000		0.95694	-49.0696
5907050000		0.9557	-50.1271
6007000000		0.95549	-51.3158
6106950000		0.95394	-52.4025
6206900000		0.95238	-53.5963
6306850000		0.95103	-54.7379
6406800000		0.94916	-55.9278
6506750000		0.94752	-57.296
6606700000		0.94632	-58.4932
6706650000		0.94484	-59.8799
6806600000		0.9424	-61.07
!
!				Infineon Technologies AG
