! Infineon Technologies  Discrete & RF Semiconductors
! BAT62-02V
! VCA = 6 V
! One-Port S-Parameters
# Hz  S  MA  R  50
!f									S11
!Hz							Mag  Ang
309850000		1.0013	-2.277
409800000		1.0003	-3.0255
509750000		1.0011	-3.6833
609700000		1.0009	-4.5241
709650000		1.0015	-5.1298
809600000		1.0011	-5.9773
909550000		1.0007	-6.7264
1009500000		1.0007	-7.4394
1109450000		1.0011	-8.2889
1209400000		1.0001	-8.9483
1309350000		1.0002	-9.8471
1409300000		1.0001	-10.5192
1509250000		0.9992	-11.5607
1609200000		0.99761	-12.1669
1709150000		0.99671	-13.1624
1809100000		0.99544	-13.8607
1909050000		0.99396	-14.9152
2009000000		0.99226	-15.4194
2108950000		0.99111	-16.474
2208900000		0.99074	-17.1147
2308850000		0.98873	-18.2058
2408800000		0.98908	-18.9221
2508750000		0.98855	-19.8477
2608700000		0.98872	-20.6006
2708650000		0.98831	-21.555
2808600000		0.98902	-22.4586
2908550000		0.98876	-23.4251
3008500000		0.98956	-24.3754
3108450000		0.98847	-25.3725
3208400000		0.98868	-26.4346
3308350000		0.98919	-27.4007
3408300000		0.98938	-28.4827
3508250000		0.98777	-29.5695
3608200000		0.98691	-30.7222
3708150000		0.98527	-31.8194
3808100000		0.98412	-32.9741
3908050000		0.98193	-34.0594
4008000000		0.98006	-35.181
4107950000		0.97741	-36.2871
4207900000		0.97526	-37.4851
4307850000		0.97259	-38.4868
4407800000		0.96988	-39.6922
4507750000		0.96747	-40.6108
4607700000		0.96464	-41.7703
4707650000		0.96264	-42.6502
4807600000		0.96028	-43.779
4907550000		0.95811	-44.7086
5007500000		0.95613	-45.8276
5107450000		0.95367	-46.7101
5207400000		0.95241	-47.8233
5307350000		0.95047	-48.9353
5407300000		0.94947	-50.0579
5507250000		0.94639	-51.1223
5607200000		0.94547	-52.3463
5707150000		0.94414	-53.5405
5807100000		0.94374	-54.7058
5907050000		0.94214	-55.8946
6007000000		0.94108	-57.1996
6106950000		0.93855	-58.4564
6206900000		0.93644	-59.8451
6306850000		0.93496	-61.16
6406800000		0.93266	-62.4873
6506750000		0.9301	-63.9913
6606700000		0.92779	-65.3551
6706650000		0.92541	-66.9368
6806600000		0.92275	-68.3125
!
!				Infineon Technologies AG
