! Infineon Technologies  Discrete & RF Semiconductors
! BAT62-02V
! VCA = 3 V
! One-Port S-Parameters
# Hz  S  MA  R  50
!f									S11
!Hz							Mag  Ang
309850000		1.0014	-2.4151
409800000		1.0003	-3.2006
509750000		1.001	-3.896
609700000		1.0007	-4.7823
709650000		1.0014	-5.4348
809600000		1.001	-6.3249
909550000		1.0005	-7.1113
1009500000		1.0004	-7.8686
1109450000		1.0007	-8.763
1209400000		0.99956	-9.4662
1309350000		0.99968	-10.4086
1409300000		0.99944	-11.1239
1509250000		0.99848	-12.2126
1609200000		0.99675	-12.8632
1709150000		0.99572	-13.9052
1809100000		0.99434	-14.6476
1909050000		0.99273	-15.7484
2009000000		0.9909	-16.2978
2108950000		0.98972	-17.3991
2208900000		0.98917	-18.0854
2308850000		0.987	-19.2276
2408800000		0.98719	-19.987
2508750000		0.98655	-20.9654
2608700000		0.98657	-21.762
2708650000		0.98615	-22.8068
2808600000		0.98649	-23.726
2908550000		0.98608	-24.7442
3008500000		0.9866	-25.746
3108450000		0.98528	-26.7996
3208400000		0.98507	-27.8794
3308350000		0.98548	-28.9335
3408300000		0.98522	-30.0349
3508250000		0.98355	-31.211
3608200000		0.98222	-32.3845
3708150000		0.98046	-33.5696
3808100000		0.97897	-34.7758
3908050000		0.97648	-35.9147
4008000000		0.97429	-37.0919
4107950000		0.97133	-38.2484
4207900000		0.96882	-39.4981
4307850000		0.96592	-40.554
4407800000		0.96292	-41.8095
4507750000		0.96015	-42.7822
4607700000		0.95698	-43.9951
4707650000		0.95474	-44.9371
4807600000		0.95207	-46.1194
4907550000		0.9496	-47.109
5007500000		0.94729	-48.2832
5107450000		0.94455	-49.2281
5207400000		0.94289	-50.4083
5307350000		0.94061	-51.5927
5407300000		0.93923	-52.7735
5507250000		0.93574	-53.9143
5607200000		0.9344	-55.1997
5707150000		0.93267	-56.4704
5807100000		0.93179	-57.7052
5907050000		0.92977	-58.9758
6007000000		0.92816	-60.3527
6106950000		0.92504	-61.6864
6206900000		0.92243	-63.1566
6306850000		0.92036	-64.5568
6406800000		0.91747	-65.9589
6506750000		0.91436	-67.5455
6606700000		0.91142	-68.9862
6706650000		0.90856	-70.6477
6806600000		0.90519	-72.1085
!
!				Infineon Technologies AG
