! Infineon Technologies  Discrete & RF Semiconductors
! BAT62-02V
! IAC = 0.6 mA
! One-Port S-Parameters
# Hz  S  MA  R  50
!f									S11
!Hz							Mag  Ang
309850000		0.61834	-2.3826
409800000		0.61749	-3.1676
509750000		0.61747	-3.8205
609700000		0.61654	-4.69
709650000		0.61699	-5.3157
809600000		0.61514	-6.1772
909550000		0.61473	-6.9674
1009500000		0.61335	-7.7086
1109450000		0.61341	-8.5919
1209400000		0.61121	-9.2685
1309350000		0.61052	-10.1959
1409300000		0.60883	-10.8654
1509250000		0.60722	-11.9468
1609200000		0.60477	-12.5476
1709150000		0.60332	-13.602
1809100000		0.60127	-14.3071
1909050000		0.59911	-15.4409
2009000000		0.59616	-15.9056
2108950000		0.59389	-17.1188
2208900000		0.59213	-17.7444
2308850000		0.58902	-18.9965
2408800000		0.58759	-19.6155
2508750000		0.58569	-20.7225
2608700000		0.58437	-21.4838
2708650000		0.58188	-22.559
2808600000		0.58034	-23.4812
2908550000		0.57805	-24.5191
3008500000		0.57646	-25.4927
3108450000		0.57331	-26.518
3208400000		0.57189	-27.658
3308350000		0.56931	-28.6258
3408300000		0.56711	-29.7986
3508250000		0.56381	-30.9005
3608200000		0.56148	-32.111
3708150000		0.5583	-33.2008
3808100000		0.55562	-34.3996
3908050000		0.55218	-35.5465
4008000000		0.54929	-36.7496
4107950000		0.54592	-37.8993
4207900000		0.543	-39.1313
4307850000		0.53969	-40.1762
4407800000		0.53647	-41.4814
4507750000		0.5335	-42.4491
4607700000		0.52971	-43.7162
4707650000		0.52649	-44.6478
4807600000		0.52266	-45.9031
4907550000		0.51919	-46.8845
5007500000		0.51594	-48.1308
5107450000		0.51164	-49.084
5207400000		0.50806	-50.3331
5307350000		0.50338	-51.5461
5407300000		0.50026	-52.7396
5507250000		0.49505	-53.9225
5607200000		0.49212	-55.2453
5707150000		0.4876	-56.609
5807100000		0.48441	-57.863
5907050000		0.47912	-59.1931
6007000000		0.47557	-60.6023
6106950000		0.47011	-61.9748
6206900000		0.4648	-63.4791
6306850000		0.45997	-64.9407
6406800000		0.45485	-66.3563
6506750000		0.44973	-68.0212
6606700000		0.44478	-69.4888
6706650000		0.4401	-71.2643
6806600000		0.43488	-72.7352
!
!				Infineon Technologies AG
