! Infineon Technologies  Discrete & RF Semiconductors
! BAT62-02V
! VCA = 7 V
! One-Port S-Parameters
# Hz  S  MA  R  50
!f									S11
!Hz							Mag  Ang
309850000		1.0013	-2.2432
409800000		1.0003	-2.988
509750000		1.0011	-3.6412
609700000		1.0009	-4.4731
709650000		1.0016	-5.0678
809600000		1.0012	-5.9099
909550000		1.0008	-6.6487
1009500000		1.0007	-7.353
1109450000		1.0012	-8.1957
1209400000		1.0002	-8.8451
1309350000		1.0003	-9.7345
1409300000		1.0002	-10.3989
1509250000		0.99945	-11.4333
1609200000		0.99782	-12.0291
1709150000		0.99687	-13.0206
1809100000		0.99561	-13.7039
1909050000		0.99415	-14.7501
2009000000		0.99257	-15.2476
2108950000		0.99147	-16.2919
2208900000		0.99105	-16.9227
2308850000		0.98909	-18.0055
2408800000		0.9894	-18.71
2508750000		0.98896	-19.6281
2608700000		0.98911	-20.3693
2708650000		0.9889	-21.3494
2808600000		0.98916	-22.1746
2908550000		0.98919	-23.1656
3008500000		0.99006	-24.1035
3108450000		0.98894	-25.0916
3208400000		0.989	-26.1098
3308350000		0.98974	-27.0981
3408300000		0.98985	-28.138
3508250000		0.9885	-29.2441
3608200000		0.98746	-30.3568
3708150000		0.98603	-31.4743
3808100000		0.98497	-32.617
3908050000		0.98285	-33.6939
4008000000		0.98101	-34.8035
4107950000		0.97825	-35.8704
4207900000		0.97634	-37.0855
4307850000		0.9737	-38.0838
4407800000		0.97106	-39.2748
4507750000		0.96859	-40.1892
4607700000		0.96581	-41.3311
4707650000		0.96388	-42.199
4807600000		0.96158	-43.3098
4907550000		0.95949	-44.2341
5007500000		0.95758	-45.3389
5107450000		0.95517	-46.2063
5207400000		0.95403	-47.3116
5307350000		0.95209	-48.4091
5407300000		0.95117	-49.518
5507250000		0.94811	-50.57
5607200000		0.94729	-51.7796
5707150000		0.94599	-52.9564
5807100000		0.94562	-54.1064
5907050000		0.9442	-55.2803
6007000000		0.94321	-56.5735
6106950000		0.94074	-57.8119
6206900000		0.93872	-59.1808
6306850000		0.93725	-60.4802
6406800000		0.93515	-61.7887
6506750000		0.93268	-63.282
6606700000		0.93042	-64.6282
6706650000		0.92822	-66.1946
6806600000		0.92564	-67.5517
!
!				Infineon Technologies AG
