! Infineon Technologies  Discrete & RF Semiconductors
! BAT62-02V
! VCA = 40 V
! One-Port S-Parameters
# Hz  S  MA  R  50
!f									S11
!Hz							Mag  Ang
309850000		0.99962	-1.4381
409800000		0.99691	-2.438
509750000		1.0006	-3.1988
609700000		1.0027	-3.8728
709650000		1.0029	-4.2611
809600000		1.0003	-5.0401
909550000		0.99949	-5.8095
1009500000		1.0011	-6.4859
1109450000		1.0026	-7.1909
1209400000		1.001	-7.6823
1309350000		1.0001	-8.5143
1409300000		1.0001	-9.1619
1509250000		1.0005	-10.1266
1609200000		0.99954	-10.5867
1709150000		0.99801	-11.4466
1809100000		0.99621	-12.0598
1909050000		0.99514	-13.0721
2009000000		0.99442	-13.4857
2108950000		0.99377	-14.3961
2208900000		0.99289	-14.8674
2308850000		0.99085	-15.9506
2408800000		0.99144	-16.5678
2508750000		0.99159	-17.3965
2608700000		0.99219	-18.0292
2708650000		0.99153	-18.8663
2808600000		0.99227	-19.6697
2908550000		0.99223	-20.5298
3008500000		0.99315	-21.3594
3108450000		0.99167	-22.2058
3208400000		0.9923	-23.1998
3308350000		0.99335	-24.0497
3408300000		0.99426	-24.985
3508250000		0.99296	-25.9091
3608200000		0.99197	-26.9355
3708150000		0.99048	-27.9341
3808100000		0.99006	-28.9596
3908050000		0.98914	-29.9472
4008000000		0.98803	-30.9152
4107950000		0.98548	-31.8836
4207900000		0.98332	-32.983
4307850000		0.98125	-33.8971
4407800000		0.97945	-34.99
4507750000		0.97771	-35.7715
4607700000		0.97501	-36.7805
4707650000		0.97297	-37.5391
4807600000		0.97082	-38.5592
4907550000		0.96953	-39.3848
5007500000		0.9683	-40.3646
5107450000		0.96627	-41.0743
5207400000		0.96496	-42.0392
5307350000		0.96313	-43.0159
5407300000		0.9628	-44.0302
5507250000		0.96067	-44.9288
5607200000		0.96046	-45.9804
5707150000		0.95903	-46.9728
5807100000		0.95869	-47.9956
5907050000		0.95761	-49.0364
6007000000		0.95776	-50.1987
6106950000		0.9563	-51.2399
6206900000		0.95456	-52.3944
6306850000		0.95296	-53.514
6406800000		0.95124	-54.6959
6506750000		0.94999	-56.0379
6606700000		0.94902	-57.1887
6706650000		0.9473	-58.5249
6806600000		0.94457	-59.6887
!
!				Infineon Technologies AG
