! Infineon Technologies  Discrete & RF Semiconductors
! BAT62-02V
! VCA = 1 V
! One-Port S-Parameters
# Hz  S  MA  R  50
!f									S11
!Hz							Mag  Ang
309850000		1.0013	-2.6697
409800000		1.0003	-3.5323
509750000		1.0008	-4.3093
609700000		1.0004	-5.2756
709650000		1.001	-6.0082
809600000		1.0004	-6.9841
909550000		0.99972	-7.8497
1009500000		0.99945	-8.6898
1109450000		0.99966	-9.6672
1209400000		0.99823	-10.4545
1309350000		0.99791	-11.45
1409300000		0.9976	-12.2822
1509250000		0.99634	-13.4527
1609200000		0.99435	-14.1893
1709150000		0.99297	-15.3162
1809100000		0.99125	-16.1464
1909050000		0.98935	-17.3328
2009000000		0.98709	-17.9691
2108950000		0.9854	-19.164
2208900000		0.98439	-19.9003
2308850000		0.98213	-21.2055
2408800000		0.98169	-22.0152
2508750000		0.98063	-23.0855
2608700000		0.98022	-23.9735
2708650000		0.9791	-25.0767
2808600000		0.97906	-26.1253
2908550000		0.97811	-27.2374
3008500000		0.97803	-28.3366
3108450000		0.9761	-29.487
3208400000		0.97541	-30.6917
3308350000		0.9749	-31.8168
3408300000		0.97412	-33.0485
3508250000		0.97147	-34.2865
3608200000		0.96952	-35.5889
3708150000		0.96679	-36.8351
3808100000		0.96449	-38.1359
3908050000		0.96117	-39.3716
4008000000		0.95814	-40.6392
4107950000		0.9544	-41.8929
4207900000		0.95106	-43.2322
4307850000		0.9473	-44.3758
4407800000		0.94349	-45.7243
4507750000		0.94	-46.7843
4607700000		0.93601	-48.1003
4707650000		0.93293	-49.1297
4807600000		0.92949	-50.4188
4907550000		0.92604	-51.5029
5007500000		0.92302	-52.7784
5107450000		0.91925	-53.8352
5207400000		0.91671	-55.1267
5307350000		0.91335	-56.4286
5407300000		0.91096	-57.7181
5507250000		0.90642	-58.9763
5607200000		0.904	-60.3678
5707150000		0.90115	-61.7675
5807100000		0.89913	-63.1155
5907050000		0.89587	-64.5233
6007000000		0.89303	-66.0089
6106950000		0.88858	-67.4732
6206900000		0.88462	-69.0753
6306850000		0.88115	-70.6066
6406800000		0.87692	-72.1352
6506750000		0.87248	-73.8442
6606700000		0.86812	-75.4108
6706650000		0.86395	-77.1938
6806600000		0.8592	-78.7795
!
!				Infineon Technologies AG
