! Infineon Technologies  Discrete & RF Semiconductors
! BAT62-02V
! VCA = 9 V
! One-Port S-Parameters
# Hz  S  MA  R  50
!f									S11
!Hz							Mag  Ang
309850000		1.0013	-2.1884
409800000		1.0002	-2.93
509750000		1.0009	-3.5444
609700000		1.001	-4.3961
709650000		1.0017	-4.973
809600000		1.0012	-5.8011
909550000		1.0007	-6.5306
1009500000		1.0008	-7.2256
1109450000		1.0013	-8.0522
1209400000		1.0003	-8.6843
1309350000		1.0004	-9.5634
1409300000		1.0003	-10.2146
1509250000		0.99956	-11.2368
1609200000		0.998	-11.8192
1709150000		0.99707	-12.7945
1809100000		0.99578	-13.4649
1909050000		0.99438	-14.4976
2009000000		0.99282	-14.9804
2108950000		0.99175	-16.0105
2208900000		0.9914	-16.6232
2308850000		0.98958	-17.7278
2408800000		0.98981	-18.3875
2508750000		0.98942	-19.2888
2608700000		0.98963	-20.0136
2708650000		0.98919	-20.9429
2808600000		0.98998	-21.8251
2908550000		0.98988	-22.7658
3008500000		0.9907	-23.6854
3108450000		0.98965	-24.6576
3208400000		0.98992	-25.6903
3308350000		0.99061	-26.6333
3408300000		0.99097	-27.6867
3508250000		0.98945	-28.7411
3608200000		0.98865	-29.8675
3708150000		0.98711	-30.9371
3808100000		0.98607	-32.0646
3908050000		0.98408	-33.1244
4008000000		0.98238	-34.2205
4107950000		0.97989	-35.299
4207900000		0.97786	-36.4675
4307850000		0.97529	-37.4473
4407800000		0.97267	-38.6281
4507750000		0.97031	-39.5236
4607700000		0.96761	-40.647
4707650000		0.96572	-41.4964
4807600000		0.96343	-42.592
4907550000		0.96141	-43.4962
5007500000		0.95962	-44.5855
5107450000		0.95733	-45.433
5207400000		0.95616	-46.5157
5307350000		0.95438	-47.592
5407300000		0.95346	-48.6833
5507250000		0.95053	-49.7098
5607200000		0.94983	-50.9008
5707150000		0.94864	-52.0479
5807100000		0.94843	-53.1791
5907050000		0.94696	-54.3291
6007000000		0.94611	-55.5983
6106950000		0.94382	-56.8133
6206900000		0.94196	-58.1564
6306850000		0.94065	-59.4238
6406800000		0.93858	-60.7119
6506750000		0.93624	-62.1748
6606700000		0.93416	-63.496
6706650000		0.93209	-65.0343
6806600000		0.92967	-66.367
!
!				Infineon Technologies AG
