! Infineon Technologies  Discrete & RF Semiconductors
! BAT62-02V
! IAC = 0.4 mA
! One-Port S-Parameters
# Hz  S  MA  R  50
!f									S11
!Hz							Mag  Ang
309850000		0.65279	-2.4609
409800000		0.65194	-3.2761
509750000		0.65188	-3.9608
609700000		0.65123	-4.8828
709650000		0.65172	-5.5196
809600000		0.64969	-6.4374
909550000		0.64909	-7.2364
1009500000		0.64789	-8.0109
1109450000		0.64811	-8.9242
1209400000		0.64567	-9.6299
1309350000		0.64486	-10.5843
1409300000		0.64319	-11.2883
1509250000		0.64149	-12.3962
1609200000		0.63893	-13.0288
1709150000		0.6378	-14.1118
1809100000		0.63566	-14.8502
1909050000		0.63333	-16.0065
2009000000		0.6302	-16.5366
2108950000		0.6279	-17.7159
2208900000		0.62609	-18.3986
2308850000		0.6227	-19.6399
2408800000		0.62113	-20.3515
2508750000		0.61955	-21.4538
2608700000		0.61819	-22.252
2708650000		0.61556	-23.3165
2808600000		0.61411	-24.304
2908550000		0.61174	-25.3642
3008500000		0.6103	-26.3593
3108450000		0.60715	-27.4446
3208400000		0.60578	-28.5929
3308350000		0.60303	-29.5873
3408300000		0.60056	-30.7758
3508250000		0.59697	-31.8734
3608200000		0.59498	-33.1559
3708150000		0.59175	-34.3091
3808100000		0.58875	-35.5257
3908050000		0.58496	-36.6611
4008000000		0.58193	-37.8901
4107950000		0.57835	-39.0451
4207900000		0.57556	-40.3397
4307850000		0.57202	-41.4121
4407800000		0.56868	-42.7445
4507750000		0.56548	-43.7338
4607700000		0.56147	-45.0167
4707650000		0.55809	-45.976
4807600000		0.55396	-47.2363
4907550000		0.55032	-48.243
5007500000		0.5469	-49.5067
5107450000		0.54261	-50.5039
5207400000		0.53894	-51.7781
5307350000		0.53413	-53.0188
5407300000		0.5308	-54.2347
5507250000		0.52556	-55.459
5607200000		0.52254	-56.8077
5707150000		0.51797	-58.1923
5807100000		0.51457	-59.4672
5907050000		0.50929	-60.8266
6007000000		0.50561	-62.2567
6106950000		0.49995	-63.631
6206900000		0.49464	-65.1857
6306850000		0.48982	-66.6845
6406800000		0.48457	-68.1294
6506750000		0.47939	-69.8196
6606700000		0.47427	-71.3097
6706650000		0.46949	-73.0988
6806600000		0.46407	-74.5972
!
!				Infineon Technologies AG
