! Infineon Technologies  Discrete & RF Semiconductors
! BAT62-02V
! IAC = 3 mA
! One-Port S-Parameters
# Hz  S  MA  R  50
!f									S11
!Hz							Mag  Ang
309850000		0.60005	-2.3292
409800000		0.59918	-3.0844
509750000		0.59912	-3.7077
609700000		0.5983	-4.5899
709650000		0.59836	-5.1418
809600000		0.59681	-6.0108
909550000		0.59647	-6.7603
1009500000		0.59496	-7.4421
1109450000		0.59484	-8.2941
1209400000		0.59279	-8.9456
1309350000		0.59219	-9.8481
1409300000		0.59056	-10.491
1509250000		0.58904	-11.5487
1609200000		0.5867	-12.1228
1709150000		0.58495	-13.1566
1809100000		0.58292	-13.8253
1909050000		0.58089	-14.9382
2009000000		0.5782	-15.3753
2108950000		0.57567	-16.5554
2208900000		0.57391	-17.1172
2308850000		0.57106	-18.3823
2408800000		0.56985	-18.9772
2508750000		0.56769	-20.0463
2608700000		0.56639	-20.7781
2708650000		0.5638	-21.7963
2808600000		0.56235	-22.7154
2908550000		0.55999	-23.6875
3008500000		0.55843	-24.6957
3108450000		0.55545	-25.7248
3208400000		0.5538	-26.7894
3308350000		0.55147	-27.757
3408300000		0.54947	-28.8995
3508250000		0.54612	-29.9448
3608200000		0.5438	-31.1448
3708150000		0.54065	-32.2043
3808100000		0.53809	-33.3774
3908050000		0.53481	-34.4708
4008000000		0.53183	-35.607
4107950000		0.52848	-36.7218
4207900000		0.52563	-37.9437
4307850000		0.52243	-38.9566
4407800000		0.51922	-40.2261
4507750000		0.51648	-41.1659
4607700000		0.51276	-42.4034
4707650000		0.5097	-43.3074
4807600000		0.50606	-44.5449
4907550000		0.50271	-45.4921
5007500000		0.49951	-46.7116
5107450000		0.49528	-47.6145
5207400000		0.49172	-48.8248
5307350000		0.48717	-49.9969
5407300000		0.48415	-51.1602
5507250000		0.47893	-52.2885
5607200000		0.47607	-53.5715
5707150000		0.47156	-54.8964
5807100000		0.4685	-56.1234
5907050000		0.4634	-57.432
6007000000		0.45981	-58.7801
6106950000		0.45446	-60.1068
6206900000		0.44915	-61.5733
6306850000		0.44425	-62.9756
6406800000		0.4393	-64.3428
6506750000		0.43415	-65.9611
6606700000		0.42931	-67.3879
6706650000		0.42461	-69.1241
6806600000		0.41951	-70.5451
!
!				Infineon Technologies AG
