! Infineon Technologies  Discrete & RF Semiconductors
! BAT62-02V
! IAC = 0.8 mA
! One-Port S-Parameters
# Hz  S  MA  R  50
!f									S11
!Hz							Mag  Ang
309850000		0.59999	-2.3521
409800000		0.59911	-3.1277
509750000		0.59915	-3.7636
609700000		0.59818	-4.6235
709650000		0.59854	-5.2336
809600000		0.59688	-6.1155
909550000		0.59638	-6.8578
1009500000		0.59497	-7.5862
1109450000		0.59492	-8.4545
1209400000		0.59277	-9.1215
1309350000		0.59212	-10.037
1409300000		0.59043	-10.6923
1509250000		0.58889	-11.7652
1609200000		0.58648	-12.3525
1709150000		0.58487	-13.3979
1809100000		0.58277	-14.084
1909050000		0.58073	-15.2115
2009000000		0.57804	-15.6952
2108950000		0.57535	-16.8309
2208900000		0.57373	-17.4767
2308850000		0.57072	-18.725
2408800000		0.56955	-19.3661
2508750000		0.56732	-20.4235
2608700000		0.56599	-21.1703
2708650000		0.56359	-22.2729
2808600000		0.56192	-23.1468
2908550000		0.55948	-24.1349
3008500000		0.55791	-25.1445
3108450000		0.55491	-26.1959
3208400000		0.55329	-27.2842
3308350000		0.55087	-28.2709
3408300000		0.54857	-29.4004
3508250000		0.54529	-30.4912
3608200000		0.54305	-31.7166
3708150000		0.53986	-32.7961
3808100000		0.53722	-33.9884
3908050000		0.53384	-35.0937
4008000000		0.53082	-36.2531
4107950000		0.52744	-37.3926
4207900000		0.52463	-38.6413
4307850000		0.52135	-39.6711
4407800000		0.5181	-40.9695
4507750000		0.51533	-41.9259
4607700000		0.51153	-43.1876
4707650000		0.5084	-44.1009
4807600000		0.50469	-45.3624
4907550000		0.50124	-46.3281
5007500000		0.49803	-47.5679
5107450000		0.4938	-48.5007
5207400000		0.4902	-49.7419
5307350000		0.48553	-50.9378
5407300000		0.48245	-52.1233
5507250000		0.47722	-53.288
5607200000		0.47428	-54.6001
5707150000		0.46974	-55.9551
5807100000		0.4666	-57.202
5907050000		0.46131	-58.519
6007000000		0.45773	-59.9181
6106950000		0.45227	-61.2482
6206900000		0.44702	-62.7798
6306850000		0.44215	-64.2254
6406800000		0.43703	-65.6255
6506750000		0.43191	-67.2795
6606700000		0.42701	-68.7394
6706650000		0.42228	-70.5097
6806600000		0.41713	-71.9675
!
!				Infineon Technologies AG
