! Infineon Technologies  Discrete & RF Semiconductors
! BAT62-02V
! IAC = 8 mA
! One-Port S-Parameters
# Hz  S  MA  R  50
!f									S11
!Hz							Mag  Ang
309850000		0.62932	-2.3502
409800000		0.62843	-3.1087
509750000		0.62841	-3.7431
609700000		0.62761	-4.6253
709650000		0.6277	-5.1879
809600000		0.62619	-6.0578
909550000		0.62574	-6.7866
1009500000		0.62433	-7.5047
1109450000		0.62424	-8.3607
1209400000		0.62226	-9.0213
1309350000		0.62169	-9.9283
1409300000		0.62012	-10.5808
1509250000		0.61861	-11.6412
1609200000		0.61633	-12.2242
1709150000		0.61459	-13.2586
1809100000		0.61253	-13.9359
1909050000		0.61056	-15.0441
2009000000		0.60802	-15.5291
2108950000		0.60542	-16.6709
2208900000		0.60381	-17.2778
2308850000		0.60081	-18.4698
2408800000		0.59973	-19.1103
2508750000		0.59751	-20.1439
2608700000		0.59641	-20.9086
2708650000		0.59405	-21.9596
2808600000		0.59258	-22.848
2908550000		0.59027	-23.8209
3008500000		0.5888	-24.8345
3108450000		0.58579	-25.832
3208400000		0.58434	-26.9316
3308350000		0.58215	-27.9018
3408300000		0.58011	-29.0192
3508250000		0.57697	-30.0978
3608200000		0.5746	-31.2672
3708150000		0.5716	-32.3614
3808100000		0.56909	-33.5344
3908050000		0.56593	-34.6597
4008000000		0.56296	-35.7974
4107950000		0.55945	-36.8866
4207900000		0.55677	-38.1351
4307850000		0.55345	-39.1208
4407800000		0.55009	-40.3548
4507750000		0.5474	-41.3308
4607700000		0.54369	-42.5643
4707650000		0.54069	-43.4684
4807600000		0.53707	-44.6978
4907550000		0.53374	-45.6502
5007500000		0.5306	-46.8616
5107450000		0.52644	-47.7708
5207400000		0.52293	-48.977
5307350000		0.51839	-50.1509
5407300000		0.51548	-51.3158
5507250000		0.51036	-52.4425
5607200000		0.50751	-53.7197
5707150000		0.50313	-55.0343
5807100000		0.50012	-56.2589
5907050000		0.495	-57.5331
6007000000		0.49158	-58.9027
6106950000		0.48622	-60.2008
6206900000		0.48111	-61.687
6306850000		0.47632	-63.0796
6406800000		0.47139	-64.4444
6506750000		0.46634	-66.046
6606700000		0.46155	-67.4687
6706650000		0.45689	-69.1807
6806600000		0.45183	-70.6034
!
!				Infineon Technologies AG
