! Infineon Technologies  Discrete & RF Semiconductors
! BAT62-02V
! IAC = 1 mA
! One-Port S-Parameters
# Hz  S  MA  R  50
!f									S11
!Hz							Mag  Ang
309850000		0.58946	-2.3389
409800000		0.58856	-3.1071
509750000		0.58852	-3.7396
609700000		0.58771	-4.6307
709650000		0.58799	-5.2242
809600000		0.58635	-6.1008
909550000		0.58576	-6.806
1009500000		0.58432	-7.5254
1109450000		0.5842	-8.3903
1209400000		0.58212	-9.0519
1309350000		0.58143	-9.9637
1409300000		0.57977	-10.6128
1509250000		0.57822	-11.68
1609200000		0.57584	-12.2601
1709150000		0.57412	-13.3044
1809100000		0.57209	-13.986
1909050000		0.57015	-15.1375
2009000000		0.56724	-15.5501
2108950000		0.56462	-16.7165
2208900000		0.56299	-17.3579
2308850000		0.56001	-18.6002
2408800000		0.55874	-19.2006
2508750000		0.55656	-20.2906
2608700000		0.55522	-21.0359
2708650000		0.55258	-22.0638
2808600000		0.55109	-22.999
2908550000		0.54872	-24.0202
3008500000		0.54702	-24.9908
3108450000		0.54389	-26.0012
3208400000		0.54231	-27.118
3308350000		0.53991	-28.0996
3408300000		0.53777	-29.257
3508250000		0.53436	-30.3122
3608200000		0.53193	-31.504
3708150000		0.52887	-32.6047
3808100000		0.52626	-33.7907
3908050000		0.52302	-34.9286
4008000000		0.51996	-36.0813
4107950000		0.5165	-37.1829
4207900000		0.51362	-38.4248
4307850000		0.51041	-39.4475
4407800000		0.50716	-40.7423
4507750000		0.50438	-41.6957
4607700000		0.50059	-42.9476
4707650000		0.49761	-43.8949
4807600000		0.49378	-45.1227
4907550000		0.49038	-46.0792
5007500000		0.48717	-47.3245
5107450000		0.48287	-48.2447
5207400000		0.47928	-49.4795
5307350000		0.4746	-50.6721
5407300000		0.47152	-51.8521
5507250000		0.4663	-53.011
5607200000		0.46335	-54.3148
5707150000		0.45886	-55.6942
5807100000		0.45564	-56.9099
5907050000		0.4503	-58.2209
6007000000		0.44671	-59.6216
6106950000		0.44127	-60.9459
6206900000		0.43598	-62.4727
6306850000		0.4311	-63.9101
6406800000		0.42597	-65.3072
6506750000		0.42079	-66.9576
6606700000		0.41589	-68.4118
6706650000		0.41115	-70.1857
6806600000		0.406	-71.6372
!
!				Infineon Technologies AG
