! Infineon Technologies  Discrete & RF Semiconductors
! BAT62-02V
! VCA = 5 V
! One-Port S-Parameters
# Hz  S  MA  R  50
!f									S11
!Hz							Mag  Ang
309850000		1.0016	-2.3441
409800000		1.0004	-3.0678
509750000		1.0009	-3.7027
609700000		1.0008	-4.5897
709650000		1.0015	-5.2052
809600000		1.0011	-6.0634
909550000		1.0007	-6.8206
1009500000		1.0006	-7.5454
1109450000		1.0011	-8.4082
1209400000		1	-9.0768
1309350000		1.0001	-9.9864
1409300000		0.99989	-10.668
1509250000		0.9991	-11.7223
1609200000		0.99746	-12.3386
1709150000		0.99651	-13.3452
1809100000		0.99521	-14.0531
1909050000		0.99366	-15.1201
2009000000		0.99194	-15.6344
2108950000		0.99087	-16.701
2208900000		0.99045	-17.3515
2308850000		0.98852	-18.4929
2408800000		0.98869	-19.1838
2508750000		0.98817	-20.1224
2608700000		0.98829	-20.8829
2708650000		0.98799	-21.8862
2808600000		0.98849	-22.7683
2908550000		0.98803	-23.7136
3008500000		0.98896	-24.7127
3108450000		0.98752	-25.6885
3208400000		0.98795	-26.7962
3308350000		0.98817	-27.7441
3408300000		0.98856	-28.8731
3508250000		0.98691	-29.9719
3608200000		0.98593	-31.138
3708150000		0.98424	-32.2481
3808100000		0.983	-33.4184
3908050000		0.98076	-34.5165
4008000000		0.97882	-35.6529
4107950000		0.97614	-36.7723
4207900000		0.97384	-37.9805
4307850000		0.97115	-38.9976
4407800000		0.96841	-40.2137
4507750000		0.96587	-41.1487
4607700000		0.96298	-42.3176
4707650000		0.96094	-43.2183
4807600000		0.95849	-44.3547
4907550000		0.95627	-45.3028
5007500000		0.95421	-46.4346
5107450000		0.95169	-47.331
5207400000		0.95033	-48.4609
5307350000		0.94837	-49.5909
5407300000		0.94728	-50.729
5507250000		0.94408	-51.8097
5607200000		0.94312	-53.0534
5707150000		0.94168	-54.2654
5807100000		0.94116	-55.4471
5907050000		0.93948	-56.6586
6007000000		0.93825	-57.9802
6106950000		0.93562	-59.256
6206900000		0.93338	-60.6643
6306850000		0.93178	-62.0008
6406800000		0.92936	-63.3471
6506750000		0.92668	-64.8735
6606700000		0.9242	-66.2579
6706650000		0.92177	-67.8578
6806600000		0.91893	-69.2567
!
!				Infineon Technologies AG
