! Infineon Technologies  Discrete & RF Semiconductors
! BAT62-02V
! IAC = 0.1 mA
! One-Port S-Parameters
# Hz  S  MA  R  50
!f									S11
!Hz							Mag  Ang
309850000		0.8243	-3.0029
409800000		0.82364	-3.9693
509750000		0.82318	-4.8501
609700000		0.82279	-5.9484
709650000		0.82409	-6.8351
809600000		0.81974	-7.9239
909550000		0.81855	-8.9304
1009500000		0.81815	-9.9055
1109450000		0.81951	-11.0228
1209400000		0.81495	-11.8882
1309350000		0.81298	-13.0226
1409300000		0.81061	-13.9279
1509250000		0.8078	-15.2042
1609200000		0.80416	-16.0309
1709150000		0.80471	-17.3052
1809100000		0.80138	-18.2432
1909050000		0.79711	-19.4988
2009000000		0.79149	-20.2216
2108950000		0.79027	-21.6027
2208900000		0.78645	-22.444
2308850000		0.78134	-23.8089
2408800000		0.77682	-24.6024
2508750000		0.77666	-25.917
2608700000		0.77431	-26.8833
2708650000		0.77087	-28.124
2808600000		0.76898	-29.3073
2908550000		0.76536	-30.4999
3008500000		0.76389	-31.6522
3108450000		0.75898	-32.8712
3208400000		0.75783	-34.2367
3308350000		0.75327	-35.3813
3408300000		0.74859	-36.6694
3508250000		0.74319	-37.9104
3608200000		0.74132	-39.4004
3708150000		0.73627	-40.7007
3808100000		0.73105	-42.0047
3908050000		0.72453	-43.2259
4008000000		0.72	-44.5654
4107950000		0.71506	-45.8987
4207900000		0.71142	-47.3578
4307850000		0.70605	-48.5503
4407800000		0.70132	-49.9923
4507750000		0.69583	-51.0684
4607700000		0.69017	-52.4342
4707650000		0.6851	-53.5141
4807600000		0.67883	-54.8013
4907550000		0.67334	-55.9121
5007500000		0.66836	-57.2431
5107450000		0.66334	-58.4283
5207400000		0.65836	-59.7934
5307350000		0.6522	-61.1526
5407300000		0.64712	-62.4517
5507250000		0.64112	-63.8496
5607200000		0.63702	-65.304
5707150000		0.63145	-66.7899
5807100000		0.62649	-68.1359
5907050000		0.62037	-69.6293
6007000000		0.61528	-71.1392
6106950000		0.6083	-72.6393
6206900000		0.60188	-74.2929
6306850000		0.59634	-75.9166
6406800000		0.58975	-77.4676
6506750000		0.58361	-79.2677
6606700000		0.57705	-80.8422
6706650000		0.57121	-82.6872
6806600000		0.56435	-84.281
!
!				Infineon Technologies AG
