! Infineon Technologies  Discrete & RF Semiconductors
! BAT62-02V
! VCA = 4 V
! One-Port S-Parameters
# Hz  S  MA  R  50
!f									S11
!Hz							Mag  Ang
309850000		1.0014	-2.3578
409800000		1.0003	-3.1233
509750000		1.001	-3.8041
609700000		1.0008	-4.6697
709650000		1.0014	-5.3028
809600000		1.001	-6.1746
909550000		1.0006	-6.9423
1009500000		1.0005	-7.6813
1109450000		1.0009	-8.5562
1209400000		0.99975	-9.2396
1309350000		0.99992	-10.1642
1409300000		0.99973	-10.86
1509250000		0.99885	-11.9266
1609200000		0.99722	-12.5591
1709150000		0.99617	-13.578
1809100000		0.99484	-14.3038
1909050000		0.9933	-15.3856
2009000000		0.99148	-15.9148
2108950000		0.99021	-16.9616
2208900000		0.9899	-17.6584
2308850000		0.98783	-18.7826
2408800000		0.988	-19.5215
2508750000		0.98753	-20.4778
2608700000		0.98764	-21.2524
2708650000		0.98725	-22.2751
2808600000		0.98747	-23.1359
2908550000		0.98743	-24.17
3008500000		0.98806	-25.1456
3108450000		0.98684	-26.1766
3208400000		0.98686	-27.2655
3308350000		0.98723	-28.2649
3408300000		0.98735	-29.3749
3508250000		0.98562	-30.4912
3608200000		0.98456	-31.6759
3708150000		0.98274	-32.8049
3808100000		0.98136	-33.987
3908050000		0.97907	-35.1042
4008000000		0.97706	-36.2574
4107950000		0.97431	-37.3931
4207900000		0.97183	-38.6163
4307850000		0.96903	-39.651
4407800000		0.96629	-40.8868
4507750000		0.96359	-41.8355
4607700000		0.96065	-43.024
4707650000		0.95844	-43.9401
4807600000		0.95595	-45.0971
4907550000		0.95365	-46.0631
5007500000		0.95146	-47.2092
5107450000		0.94887	-48.1294
5207400000		0.9474	-49.2829
5307350000		0.94532	-50.4335
5407300000		0.94414	-51.5896
5507250000		0.94077	-52.6998
5607200000		0.93963	-53.9576
5707150000		0.93812	-55.1949
5807100000		0.93746	-56.3998
5907050000		0.9357	-57.6387
6007000000		0.9343	-58.9799
6106950000		0.93154	-60.2829
6206900000		0.92908	-61.7178
6306850000		0.92727	-63.0825
6406800000		0.92469	-64.4518
6506750000		0.92183	-66.0041
6606700000		0.91913	-67.4104
6706650000		0.91655	-69.0384
6806600000		0.91352	-70.4644
!
!				Infineon Technologies AG
