! Infineon Technologies  Discrete & RF Semiconductors
! BAT62-02V
! IAC = 4 mA
! One-Port S-Parameters
# Hz  S  MA  R  50
!f									S11
!Hz							Mag  Ang
309850000		0.62838	-2.3493
409800000		0.6275	-3.1074
509750000		0.62719	-3.6742
609700000		0.62653	-4.5956
709650000		0.62675	-5.1886
809600000		0.62524	-6.0584
909550000		0.62482	-6.7862
1009500000		0.6234	-7.5042
1109450000		0.62333	-8.3604
1209400000		0.62135	-9.0192
1309350000		0.62079	-9.9237
1409300000		0.61916	-10.5745
1509250000		0.61767	-11.6362
1609200000		0.61532	-12.2191
1709150000		0.61364	-13.2551
1809100000		0.61162	-13.9324
1909050000		0.60961	-15.0365
2009000000		0.60707	-15.5224
2108950000		0.60448	-16.6672
2208900000		0.60288	-17.2752
2308850000		0.59984	-18.4633
2408800000		0.59877	-19.1025
2508750000		0.59659	-20.1397
2608700000		0.59545	-20.9066
2708650000		0.59295	-21.9187
2808600000		0.59163	-22.8428
2908550000		0.58943	-23.8553
3008500000		0.58788	-24.8263
3108450000		0.58486	-25.8245
3208400000		0.58336	-26.9247
3308350000		0.58117	-27.896
3408300000		0.57915	-29.0117
3508250000		0.57602	-30.0908
3608200000		0.57358	-31.2623
3708150000		0.57061	-32.3518
3808100000		0.56807	-33.5249
3908050000		0.56493	-34.6509
4008000000		0.56183	-35.7614
4107950000		0.55849	-36.878
4207900000		0.55567	-38.0938
4307850000		0.55245	-39.1153
4407800000		0.5492	-40.3811
4507750000		0.54643	-41.3255
4607700000		0.5427	-42.5564
4707650000		0.53965	-43.4579
4807600000		0.53605	-44.6864
4907550000		0.53274	-45.6405
5007500000		0.52962	-46.8571
5107450000		0.52543	-47.7603
5207400000		0.52195	-48.9661
5307350000		0.51744	-50.1417
5407300000		0.5145	-51.306
5507250000		0.50931	-52.4308
5607200000		0.50646	-53.7097
5707150000		0.50209	-55.0283
5807100000		0.49909	-56.249
5907050000		0.49399	-57.5264
6007000000		0.49053	-58.8938
6106950000		0.48528	-60.2201
6206900000		0.48009	-61.6773
6306850000		0.47525	-63.0707
6406800000		0.47036	-64.4389
6506750000		0.46529	-66.0377
6606700000		0.46049	-67.4614
6706650000		0.45586	-69.1737
6806600000		0.45077	-70.5992
!
!				Infineon Technologies AG
