! Infineon Technologies  Discrete & RF Semiconductors
! BAT62-02V
! IAC = 0.9 mA
! One-Port S-Parameters
# Hz  S  MA  R  50
!f									S11
!Hz							Mag  Ang
309850000		0.59405	-2.3438
409800000		0.59316	-3.1153
509750000		0.59314	-3.7503
609700000		0.59234	-4.6389
709650000		0.59251	-5.2109
809600000		0.59083	-6.0888
909550000		0.59048	-6.8548
1009500000		0.58891	-7.5517
1109450000		0.58883	-8.4173
1209400000		0.58676	-9.0798
1309350000		0.58609	-9.995
1409300000		0.58439	-10.6447
1509250000		0.58285	-11.7152
1609200000		0.58045	-12.2982
1709150000		0.57879	-13.3448
1809100000		0.57674	-14.0274
1909050000		0.57464	-15.1478
2009000000		0.57185	-15.5992
2108950000		0.56939	-16.7966
2208900000		0.56766	-17.4055
2308850000		0.56444	-18.5812
2408800000		0.56362	-19.3295
2508750000		0.56123	-20.3466
2608700000		0.55988	-21.0918
2708650000		0.55738	-22.1543
2808600000		0.55578	-23.06
2908550000		0.55345	-24.0841
3008500000		0.55173	-25.0532
3108450000		0.54862	-26.0688
3208400000		0.54709	-27.185
3308350000		0.54455	-28.1348
3408300000		0.54252	-29.3279
3508250000		0.53915	-30.386
3608200000		0.53672	-31.5806
3708150000		0.53367	-32.6826
3808100000		0.53098	-33.8378
3908050000		0.52765	-34.9766
4008000000		0.52461	-36.132
4107950000		0.52139	-37.3
4207900000		0.51834	-38.4823
4307850000		0.51517	-39.5403
4407800000		0.51194	-40.8366
4507750000		0.50914	-41.7879
4607700000		0.50536	-43.0451
4707650000		0.50227	-43.9606
4807600000		0.49853	-45.2174
4907550000		0.49513	-46.178
5007500000		0.49193	-47.4252
5107450000		0.48764	-48.3501
5207400000		0.48403	-49.5852
5307350000		0.47934	-50.7826
5407300000		0.4763	-51.9617
5507250000		0.47103	-53.1243
5607200000		0.4681	-54.4321
5707150000		0.46362	-55.7863
5807100000		0.46044	-57.029
5907050000		0.4552	-58.3698
6007000000		0.45157	-59.7419
6106950000		0.44614	-61.1008
6206900000		0.44082	-62.5935
6306850000		0.43592	-64.038
6406800000		0.43091	-65.4626
6506750000		0.42566	-67.0859
6606700000		0.42082	-68.5739
6706650000		0.41606	-70.3171
6806600000		0.41087	-71.7706
!
!				Infineon Technologies AG
