! Infineon Technologies  Discrete & RF Semiconductors
! BAT62-02V
! IAC = 0.3 mA
! One-Port S-Parameters
# Hz  S  MA  R  50
!f									S11
!Hz							Mag  Ang
309850000		0.68331	-2.5441
409800000		0.68254	-3.3909
509750000		0.68227	-4.0756
609700000		0.68169	-5.0292
709650000		0.68253	-5.7341
809600000		0.68011	-6.6815
909550000		0.67938	-7.5137
1009500000		0.67832	-8.3228
1109450000		0.67884	-9.2715
1209400000		0.67599	-10.0022
1309350000		0.67495	-10.9555
1409300000		0.67331	-11.725
1509250000		0.67145	-12.8596
1609200000		0.66879	-13.5249
1709150000		0.66797	-14.6391
1809100000		0.6657	-15.4131
1909050000		0.66318	-16.5884
2009000000		0.65963	-17.1492
2108950000		0.65771	-18.3901
2208900000		0.65537	-19.0404
2308850000		0.65186	-20.3347
2408800000		0.64991	-21.0651
2508750000		0.64853	-22.1764
2608700000		0.64718	-23.0356
2708650000		0.64449	-24.122
2808600000		0.64305	-25.147
2908550000		0.64057	-26.2272
3008500000		0.6392	-27.246
3108450000		0.63582	-28.3549
3208400000		0.63461	-29.5466
3308350000		0.6316	-30.5713
3408300000		0.62881	-31.7723
3508250000		0.62515	-32.9282
3608200000		0.62312	-34.2198
3708150000		0.61973	-35.4006
3808100000		0.61641	-36.6323
3908050000		0.61232	-37.8115
4008000000		0.60895	-39.007
4107950000		0.60542	-40.255
4207900000		0.60245	-41.5603
4307850000		0.59866	-42.6504
4407800000		0.5952	-44.0102
4507750000		0.59166	-45.0181
4607700000		0.58743	-46.3189
4707650000		0.58376	-47.2983
4807600000		0.57934	-48.5626
4907550000		0.5754	-49.5874
5007500000		0.57179	-50.8696
5107450000		0.56745	-51.9084
5207400000		0.56364	-53.2056
5307350000		0.55863	-54.4684
5407300000		0.55506	-55.6995
5507250000		0.54976	-56.9669
5607200000		0.54667	-58.3404
5707150000		0.5419	-59.7407
5807100000		0.53831	-61.0294
5907050000		0.53298	-62.4222
6007000000		0.52906	-63.8679
6106950000		0.52329	-65.2656
6206900000		0.51779	-66.8432
6306850000		0.51296	-68.3766
6406800000		0.50749	-69.8423
6506750000		0.50224	-71.559
6606700000		0.4969	-73.0696
6706650000		0.49196	-74.8718
6806600000		0.48637	-76.394
!
!				Infineon Technologies AG
