! Infineon Technologies  Discrete & RF Semiconductors
! BAT62-02V
! IAC = 0.5 mA
! One-Port S-Parameters
# Hz  S  MA  R  50
!f									S11
!Hz							Mag  Ang
309850000		0.63258	-2.412
409800000		0.63171	-3.2086
509750000		0.63171	-3.8764
609700000		0.63084	-4.7509
709650000		0.63135	-5.3927
809600000		0.62951	-6.2941
909550000		0.62896	-7.0694
1009500000		0.62769	-7.825
1109450000		0.62777	-8.718
1209400000		0.62551	-9.4065
1309350000		0.62477	-10.3433
1409300000		0.62305	-11.0272
1509250000		0.62146	-12.1205
1609200000		0.61899	-12.7353
1709150000		0.61763	-13.7991
1809100000		0.61552	-14.5156
1909050000		0.61333	-15.6557
2009000000		0.61042	-16.1691
2108950000		0.60787	-17.2974
2208900000		0.60639	-18.0259
2308850000		0.60299	-19.2256
2408800000		0.60169	-19.9243
2508750000		0.5997	-20.9711
2608700000		0.59848	-21.7794
2708650000		0.59599	-22.8663
2808600000		0.59429	-23.7625
2908550000		0.59204	-24.8031
3008500000		0.59061	-25.8265
3108450000		0.5876	-26.8962
3208400000		0.58597	-27.9892
3308350000		0.58358	-29.0312
3408300000		0.58115	-30.1696
3508250000		0.5778	-31.286
3608200000		0.57557	-32.5132
3708150000		0.57244	-33.645
3808100000		0.56966	-34.8517
3908050000		0.56588	-35.9452
4008000000		0.56295	-37.1585
4107950000		0.55955	-38.325
4207900000		0.55675	-39.6013
4307850000		0.55336	-40.6503
4407800000		0.55009	-41.9681
4507750000		0.54708	-42.9457
4607700000		0.54314	-44.2177
4707650000		0.53987	-45.1622
4807600000		0.53598	-46.4188
4907550000		0.53245	-47.4089
5007500000		0.52915	-48.6648
5107450000		0.52484	-49.6363
5207400000		0.52124	-50.8941
5307350000		0.51654	-52.1158
5407300000		0.51334	-53.3191
5507250000		0.50813	-54.5194
5607200000		0.50518	-55.8551
5707150000		0.50066	-57.2254
5807100000		0.49736	-58.4839
5907050000		0.4921	-59.8268
6007000000		0.48849	-61.2467
6106950000		0.48301	-62.632
6206900000		0.47766	-64.1437
6306850000		0.47289	-65.62
6406800000		0.46771	-67.047
6506750000		0.46257	-68.7213
6606700000		0.45755	-70.1994
6706650000		0.45283	-71.978
6806600000		0.44755	-73.4612
!
!				Infineon Technologies AG
