! Infineon Technologies  Discrete & RF Semiconductors
! BAT62-02V
! IAC = 0.7 mA
! One-Port S-Parameters
# Hz  S  MA  R  50
!f									S11
!Hz							Mag  Ang
309850000		0.60791	-2.3631
409800000		0.60698	-3.1416
509750000		0.60698	-3.7851
609700000		0.60608	-4.6489
709650000		0.60649	-5.2657
809600000		0.60474	-6.1509
909550000		0.60424	-6.8995
1009500000		0.60289	-7.6358
1109450000		0.60284	-8.5082
1209400000		0.60059	-9.148
1309350000		0.60001	-10.0993
1409300000		0.59833	-10.7639
1509250000		0.59677	-11.8366
1609200000		0.59432	-12.4309
1709150000		0.59278	-13.4771
1809100000		0.59074	-14.1734
1909050000		0.58862	-15.3034
2009000000		0.58595	-15.8228
2108950000		0.58329	-16.9356
2208900000		0.58178	-17.6132
2308850000		0.57849	-18.8
2408800000		0.57748	-19.5149
2508750000		0.57515	-20.5061
2608700000		0.57381	-21.2593
2708650000		0.57143	-22.3654
2808600000		0.56971	-23.2434
2908550000		0.56757	-24.3073
3008500000		0.56576	-25.2502
3108450000		0.56294	-26.3365
3208400000		0.56134	-27.4333
3308350000		0.55887	-28.4247
3408300000		0.55659	-29.5557
3508250000		0.55332	-30.65
3608200000		0.55096	-31.8556
3708150000		0.54789	-32.9666
3808100000		0.54524	-34.1588
3908050000		0.54181	-35.2702
4008000000		0.5389	-36.4686
4107950000		0.53541	-37.5793
4207900000		0.5326	-38.8319
4307850000		0.52932	-39.8652
4407800000		0.52611	-41.17
4507750000		0.52326	-42.1301
4607700000		0.51945	-43.3904
4707650000		0.51629	-44.3172
4807600000		0.5125	-45.5722
4907550000		0.50908	-46.5435
5007500000		0.50588	-47.7885
5107450000		0.50157	-48.7284
5207400000		0.49798	-49.9727
5307350000		0.49332	-51.1765
5407300000		0.49024	-52.3623
5507250000		0.48504	-53.5386
5607200000		0.48211	-54.8524
5707150000		0.47759	-56.2109
5807100000		0.47441	-57.4601
5907050000		0.46912	-58.7824
6007000000		0.46558	-60.1882
6106950000		0.46008	-61.5223
6206900000		0.45482	-63.0511
6306850000		0.44999	-64.5044
6406800000		0.44489	-65.9111
6506750000		0.43979	-67.5677
6606700000		0.43482	-69.0305
6706650000		0.43015	-70.8018
6806600000		0.42497	-72.2656
!
!				Infineon Technologies AG
