! Infineon Technologies  Discrete & RF Semiconductors
! BAT62-02V
! VCA = 2 V
! One-Port S-Parameters
# Hz  S  MA  R  50
!f									S11
!Hz							Mag  Ang
309850000		1.0015	-2.539
409800000		1.0003	-3.3171
509750000		1.001	-4.0405
609700000		1.0006	-4.9553
709650000		1.0012	-5.6327
809600000		1.0008	-6.5526
909550000		1.0002	-7.3674
1009500000		1.0001	-8.1555
1109450000		1.0004	-9.0779
1209400000		0.99923	-9.8095
1309350000		0.99922	-10.7826
1409300000		0.99888	-11.5265
1509250000		0.99787	-12.6431
1609200000		0.99603	-13.3245
1709150000		0.99489	-14.3967
1809100000		0.99338	-15.1676
1909050000		0.99176	-16.3004
2009000000		0.98977	-16.881
2108950000		0.98823	-17.9821
2208900000		0.98776	-18.7327
2308850000		0.98546	-19.9046
2408800000		0.98529	-20.6584
2508750000		0.98479	-21.7079
2608700000		0.98469	-22.5371
2708650000		0.98405	-23.6121
2808600000		0.98425	-24.5666
2908550000		0.98373	-25.6185
3008500000		0.98383	-26.6224
3108450000		0.98256	-27.7434
3208400000		0.98234	-28.8874
3308350000		0.98231	-29.9487
3408300000		0.98189	-31.0828
3508250000		0.97998	-32.2921
3608200000		0.97849	-33.5352
3708150000		0.97636	-34.7218
3808100000		0.97459	-35.9586
3908050000		0.97183	-37.135
4008000000		0.96943	-38.3429
4107950000		0.9662	-39.538
4207900000		0.96346	-40.8167
4307850000		0.96028	-41.9074
4407800000		0.95709	-43.1962
4507750000		0.95401	-44.2029
4607700000		0.95064	-45.4526
4707650000		0.9482	-46.4235
4807600000		0.94519	-47.646
4907550000		0.94245	-48.6681
5007500000		0.93994	-49.8818
5107450000		0.9368	-50.8689
5207400000		0.93488	-52.0901
5307350000		0.9323	-53.3158
5407300000		0.93059	-54.5393
5507250000		0.92676	-55.7231
5607200000		0.92508	-57.0512
5707150000		0.92307	-58.3677
5807100000		0.92176	-59.6442
5907050000		0.91933	-60.9675
6007000000		0.91737	-62.3865
6106950000		0.91385	-63.768
6206900000		0.9108	-65.29
6306850000		0.9082	-66.7363
6406800000		0.90492	-68.1911
6506750000		0.90137	-69.8254
6606700000		0.89798	-71.3135
6706650000		0.89468	-73.0233
6806600000		0.89088	-74.5301
!
!				Infineon Technologies AG
