! Infineon Technologies  Discrete & RF Semiconductors
! BAT62-02V
! IAC = 6 mA
! One-Port S-Parameters
# Hz  S  MA  R  50
!f									S11
!Hz							Mag  Ang
309850000		0.62938	-2.3507
409800000		0.62848	-3.1092
509750000		0.62817	-3.6744
609700000		0.62749	-4.5959
709650000		0.62772	-5.1896
809600000		0.62624	-6.0589
909550000		0.62577	-6.7873
1009500000		0.62438	-7.5061
1109450000		0.62427	-8.3613
1209400000		0.62233	-9.0221
1309350000		0.62175	-9.9281
1409300000		0.62018	-10.5788
1509250000		0.61868	-11.6389
1609200000		0.61632	-12.2227
1709150000		0.61464	-13.2561
1809100000		0.6126	-13.9374
1909050000		0.61071	-15.0688
2009000000		0.60806	-15.5285
2108950000		0.60537	-16.6425
2208900000		0.60404	-17.3095
2308850000		0.60096	-18.5013
2408800000		0.59991	-19.1443
2508750000		0.59752	-20.1083
2608700000		0.59649	-20.9106
2708650000		0.59408	-21.9572
2808600000		0.59264	-22.8477
2908550000		0.59043	-23.8563
3008500000		0.58888	-24.8322
3108450000		0.58596	-25.8632
3208400000		0.58439	-26.9286
3308350000		0.58207	-27.8642
3408300000		0.58018	-29.0185
3508250000		0.5769	-30.0616
3608200000		0.5746	-31.2676
3708150000		0.57162	-32.3607
3808100000		0.5691	-33.5323
3908050000		0.56597	-34.6585
4008000000		0.56285	-35.7648
4107950000		0.55963	-36.9101
4207900000		0.55673	-38.1009
4307850000		0.55351	-39.12
4407800000		0.55025	-40.3841
4507750000		0.54747	-41.3273
4607700000		0.54375	-42.5583
4707650000		0.54074	-43.4637
4807600000		0.53709	-44.6942
4907550000		0.5338	-45.6469
5007500000		0.53066	-46.8619
5107450000		0.52646	-47.7656
5207400000		0.52297	-48.9718
5307350000		0.51845	-50.1486
5407300000		0.51553	-51.3135
5507250000		0.51037	-52.4374
5607200000		0.50749	-53.7137
5707150000		0.50314	-55.0306
5807100000		0.50013	-56.2538
5907050000		0.49502	-57.5258
6007000000		0.49161	-58.8983
6106950000		0.48635	-60.2271
6206900000		0.48112	-61.6807
6306850000		0.47636	-63.072
6406800000		0.47142	-64.4391
6506750000		0.46636	-66.0399
6606700000		0.46158	-67.4641
6706650000		0.45693	-69.1755
6806600000		0.45184	-70.5971
!
!				Infineon Technologies AG
