! Infineon Technologies  Discrete & RF Semiconductors
! BAT62-02V
! IAC = 9 mA
! One-Port S-Parameters
# Hz  S  MA  R  50
!f									S11
!Hz							Mag  Ang
309850000		0.62931	-2.3523
409800000		0.62841	-3.1106
509750000		0.6284	-3.744
609700000		0.62743	-4.5949
709650000		0.62769	-5.1924
809600000		0.62618	-6.0616
909550000		0.6257	-6.7886
1009500000		0.62432	-7.5074
1109450000		0.62425	-8.3624
1209400000		0.62227	-9.023
1309350000		0.62172	-9.9301
1409300000		0.62016	-10.5813
1509250000		0.61864	-11.6411
1609200000		0.61629	-12.226
1709150000		0.61459	-13.2613
1809100000		0.61253	-13.9378
1909050000		0.61056	-15.0454
2009000000		0.60802	-15.5307
2108950000		0.6054	-16.6719
2208900000		0.60382	-17.278
2308850000		0.60094	-18.5082
2408800000		0.59985	-19.1456
2508750000		0.59754	-20.1413
2608700000		0.59644	-20.9129
2708650000		0.59406	-21.9625
2808600000		0.59258	-22.85
2908550000		0.59028	-23.8222
3008500000		0.58884	-24.8355
3108450000		0.58578	-25.8321
3208400000		0.58446	-26.9572
3308350000		0.58201	-27.868
3408300000		0.58013	-29.0199
3508250000		0.57683	-30.0645
3608200000		0.57466	-31.3007
3708150000		0.57159	-32.3629
3808100000		0.56896	-33.5057
3908050000		0.56595	-34.6628
4008000000		0.56281	-35.7675
4107950000		0.55945	-36.8884
4207900000		0.55663	-38.1076
4307850000		0.55346	-39.1262
4407800000		0.55023	-40.3898
4507750000		0.54741	-41.3315
4607700000		0.54369	-42.5626
4707650000		0.5407	-43.4697
4807600000		0.53707	-44.7023
4907550000		0.53374	-45.6536
5007500000		0.53059	-46.8651
5107450000		0.52644	-47.7717
5207400000		0.52296	-48.9781
5307350000		0.51843	-50.1527
5407300000		0.51549	-51.3169
5507250000		0.51036	-52.4434
5607200000		0.50749	-53.7206
5707150000		0.50315	-55.0351
5807100000		0.50012	-56.257
5907050000		0.49501	-57.5326
6007000000		0.49159	-58.9028
6106950000		0.48625	-60.2026
6206900000		0.48112	-61.6887
6306850000		0.47633	-63.0826
6406800000		0.47139	-64.4455
6506750000		0.46636	-66.0474
6606700000		0.46154	-67.4728
6706650000		0.45693	-69.1829
6806600000		0.45186	-70.6056
!
!				Infineon Technologies AG
