! Infineon Technologies  Discrete & RF Semiconductors
! BAT62-02V
! IAC = 5 mA
! One-Port S-Parameters
# Hz  S  MA  R  50
!f									S11
!Hz							Mag  Ang
309850000		0.62936	-2.351
409800000		0.6284	-3.1095
509750000		0.62841	-3.7425
609700000		0.62759	-4.6261
709650000		0.62768	-5.1865
809600000		0.62621	-6.0572
909550000		0.62573	-6.7854
1009500000		0.6244	-7.5069
1109450000		0.62428	-8.3598
1209400000		0.62233	-9.0207
1309350000		0.62173	-9.9268
1409300000		0.62016	-10.5768
1509250000		0.61867	-11.6394
1609200000		0.61634	-12.2228
1709150000		0.6146	-13.2552
1809100000		0.61259	-13.9349
1909050000		0.6106	-15.0418
2009000000		0.60816	-15.557
2108950000		0.60535	-16.6389
2208900000		0.60389	-17.2743
2308850000		0.60081	-18.4699
2408800000		0.59987	-19.1444
2508750000		0.59758	-20.1403
2608700000		0.59645	-20.9084
2708650000		0.59403	-21.9552
2808600000		0.59261	-22.8451
2908550000		0.59043	-23.8538
3008500000		0.58884	-24.8269
3108450000		0.58598	-25.8642
3208400000		0.58439	-26.9282
3308350000		0.58215	-27.8992
3408300000		0.58003	-28.9823
3508250000		0.577	-30.0932
3608200000		0.57461	-31.2645
3708150000		0.57162	-32.3581
3808100000		0.56922	-33.5586
3908050000		0.56582	-34.6249
4008000000		0.56289	-35.763
4107950000		0.55952	-36.8819
4207900000		0.55669	-38.1022
4307850000		0.5535	-39.1174
4407800000		0.55027	-40.3831
4507750000		0.54743	-41.3251
4607700000		0.54372	-42.5566
4707650000		0.54072	-43.4637
4807600000		0.53709	-44.6933
4907550000		0.53378	-45.645
5007500000		0.53067	-46.8597
5107450000		0.52645	-47.7658
5207400000		0.52296	-48.9727
5307350000		0.51845	-50.1444
5407300000		0.51552	-51.3109
5507250000		0.51034	-52.4361
5607200000		0.50751	-53.7145
5707150000		0.50317	-55.027
5807100000		0.50013	-56.2514
5907050000		0.49502	-57.5268
6007000000		0.49161	-58.8967
6106950000		0.48628	-60.1967
6206900000		0.48113	-61.682
6306850000		0.47636	-63.0734
6406800000		0.47141	-64.44
6506750000		0.46637	-66.0405
6606700000		0.46157	-67.4626
6706650000		0.45694	-69.1751
6806600000		0.45186	-70.5974
!
!				Infineon Technologies AG
