! Infineon Technologies  Discrete & RF Semiconductors
! BAT15-02ELS
! IAC = 20 mA
! One-Port S-Parameters
# Hz  S  MA  R  50
!f									S11
!Hz							Mag  Ang
309850000		0.73427	178.8762
334837500		0.73403	178.83
359825000		0.73365	178.7684
384812500		0.7336	178.6504
409800000		0.73342	178.5702
434787500		0.73339	178.5301
459775000		0.73367	178.4615
484762500		0.73319	178.4122
509750000		0.73311	178.3078
534737500		0.73313	178.2362
559725000		0.73292	178.188
584712500		0.7327	178.1272
609700000		0.73277	178.0585
634687500		0.73217	177.9409
659675000		0.73221	177.8658
684662500		0.73205	177.8107
709650000		0.73189	177.7559
734637500		0.73196	177.6975
759625000		0.73186	177.6186
784612500		0.73183	177.5521
809600000		0.73192	177.4879
834587500		0.73206	177.4165
859575000		0.73203	177.3412
884562500		0.73182	177.265
909550000		0.73169	177.1934
934537500		0.73147	177.1121
959525000		0.7313	177.0379
984512500		0.73118	176.9698
1009500000		0.73101	176.8929
1034487500		0.73077	176.8311
1059475000		0.73073	176.7598
1084462500		0.73051	176.6969
1109450000		0.73061	176.647
1134437500		0.73084	176.5849
1159425000		0.73087	176.5441
1184412500		0.73094	176.4368
1209400000		0.73099	176.3525
1234387500		0.73095	176.2571
1259375000		0.73079	176.1805
1284362500		0.73062	176.1354
1309350000		0.73055	176.0758
1334337500		0.73031	175.9921
1359325000		0.7301	175.9118
1384312500		0.73019	175.8318
1409300000		0.72989	175.7629
1434287500		0.72972	175.7332
1459275000		0.72963	175.6692
1484262500		0.72946	175.6005
1509250000		0.7298	175.5363
1534237500		0.73024	175.461
1559225000		0.73035	175.3967
1584212500		0.73046	175.3293
1609200000		0.73051	175.2241
1634187500		0.73017	175.1133
1659175000		0.72989	175.0602
1684162500		0.73001	175.0164
1709150000		0.72977	174.9451
1734137500		0.72931	174.8744
1759125000		0.72922	174.796
1784112500		0.72903	174.7058
1809100000		0.72869	174.6541
1834087500		0.72868	174.6201
1859075000		0.7286	174.5271
1884062500		0.72851	174.4984
1909050000		0.72882	174.4376
1934037500		0.7293	174.3666
1959025000		0.72952	174.2915
1984012500		0.72956	174.2287
2009000000		0.7297	174.1439
2033987500		0.72942	174.0425
2058975000		0.72905	174.0025
2083962500		0.7293	173.9144
2108950000		0.72918	173.802
2133937500		0.72854	173.774
2158925000		0.72845	173.7114
2183912500		0.72831	173.6385
2208900000		0.72822	173.4997
2233887500		0.72821	173.4872
2258875000		0.728	173.4593
2283862500		0.72779	173.4093
2308850000		0.72828	173.2793
2333837500		0.7284	173.2214
2358825000		0.72844	173.1662
2383812500		0.72848	173.1438
2408800000		0.72835	173.0685
2433787500		0.72822	172.9234
2458775000		0.72804	172.8759
2483762500		0.72815	172.7955
2508750000		0.72805	172.731
2533737500		0.72783	172.6754
2558725000		0.72762	172.6013
2583712500		0.72747	172.5329
2608700000		0.72765	172.377
2633687500		0.72758	172.3555
2658675000		0.72732	172.3172
2683662500		0.72709	172.268
2708650000		0.72704	172.1773
2733637500		0.72689	172.1081
2758625000		0.72713	172.0498
2783612500		0.72722	172.004
2808600000		0.72714	171.9228
2833587500		0.7269	171.9087
2858575000		0.72701	171.7865
2883562500		0.72714	171.7205
2908550000		0.72701	171.6971
2933537500		0.72714	171.5726
2958525000		0.72686	171.5245
2983512500		0.72697	171.4223
3008500000		0.72689	171.3522
3033487500		0.72678	171.3364
3058475000		0.72688	171.2458
3083462500		0.7267	171.1625
3108450000		0.7266	171.0704
3133437500		0.72651	171.0027
3158425000		0.72663	170.9595
3183412500		0.72666	170.8926
3208400000		0.72637	170.8205
3233387500		0.72623	170.7487
3258375000		0.72642	170.6707
3283362500		0.72632	170.6145
3308350000		0.72611	170.5921
3333337500		0.726	170.4861
3358325000		0.72598	170.4128
3383312500		0.72608	170.3506
3408300000		0.72616	170.2877
3433287500		0.72586	170.2621
3458275000		0.72578	170.202
3483262500		0.72605	170.0894
3508250000		0.72607	170.0124
3533237500		0.72612	169.9252
3558225000		0.72606	169.8941
3583212500		0.72598	169.8137
3608200000		0.72562	169.7671
3633187500		0.72575	169.673
3658175000		0.72595	169.6081
3683162500		0.72569	169.5373
3708150000		0.72557	169.4489
3733137500		0.72554	169.4095
3758125000		0.72554	169.3222
3783112500		0.72534	169.2731
3808100000		0.7253	169.2264
3833087500		0.72538	169.1532
3858075000		0.72529	169.0907
3883062500		0.7253	169.0301
3908050000		0.7254	168.9668
3933037500		0.72529	168.9067
3958025000		0.72538	168.844
3983012500		0.72544	168.7634
4008000000		0.7253	168.6943
4032987500		0.7252	168.6447
4057975000		0.72535	168.5657
4082962500		0.72523	168.4736
4107950000		0.72506	168.4137
4132937500		0.72514	168.358
4157925000		0.72513	168.2792
4182912500		0.72485	168.2104
4207900000		0.72481	168.1537
4232887500		0.72497	168.0917
4257875000		0.72482	168.0273
4282862500		0.7246	167.9769
4307850000		0.72464	167.913
4332837500		0.72461	167.8281
4357825000		0.72453	167.7715
4382812500		0.72469	167.7238
4407800000		0.72463	167.6515
4432787500		0.72439	167.5807
4457775000		0.72449	167.5129
4482762500		0.72457	167.442
4507750000		0.72456	167.3928
4532737500		0.72458	167.339
4557725000		0.72448	167.2525
4582712500		0.72424	167.1844
4607700000		0.72438	167.1483
4632687500		0.7246	167.0935
4657675000		0.72433	167.0239
4682662500		0.72401	166.9531
4707650000		0.72401	166.8749
4732637500		0.72415	166.8001
4757625000		0.72419	166.7448
4782612500		0.72393	166.693
4807600000		0.72379	166.6236
4832587500		0.72391	166.5319
4857575000		0.72389	166.462
4882562500		0.72406	166.4308
4907550000		0.72413	166.3858
4932537500		0.72395	166.3074
4957525000		0.72367	166.2407
4982512500		0.72392	166.1879
5007500000		0.72417	166.1384
5032487500		0.72402	166.0795
5057475000		0.72374	166.0109
5082462500		0.72371	165.9385
5107450000		0.72387	165.8551
5132437500		0.72386	165.7906
5157425000		0.72368	165.7476
5182412500		0.7237	165.6832
5207400000		0.7236	165.5905
5232387500		0.72347	165.519
5257375000		0.72354	165.4722
5282362500		0.72362	165.4213
5307350000		0.72357	165.3537
5332337500		0.72347	165.2848
5357325000		0.72349	165.2254
5382312500		0.72355	165.1702
5407300000		0.72356	165.1167
5432287500		0.72343	165.0586
5457275000		0.72335	164.9974
5482262500		0.72344	164.9343
5507250000		0.72358	164.8609
5532237500		0.72336	164.7876
5557225000		0.72316	164.7372
5582212500		0.72344	164.6799
5607200000		0.72348	164.5953
5632187500		0.72308	164.5275
5657175000		0.723	164.4805
5682162500		0.72334	164.4005
5707150000		0.72338	164.3204
5732137500		0.72321	164.2895
5757125000		0.7233	164.2586
5782112500		0.72336	164.1796
5807100000		0.72321	164.0954
5832087500		0.72332	164.0431
5857075000		0.72352	163.9989
5882062500		0.72348	163.9422
5907050000		0.72304	163.8688
5932037500		0.72293	163.7946
5957025000		0.72311	163.7134
5982012500		0.72313	163.6435
6007000000		0.72295	163.5951
6031987500		0.72291	163.5259
6056975000		0.72289	163.4211
6081962500		0.72305	163.3558
6106950000		0.72338	163.3204
6131937500		0.72336	163.2962
6156925000		0.72318	163.2572
6181912500		0.72322	163.1727
6206900000		0.72305	163.086
6231887500		0.72304	163.0602
6256875000		0.72329	163.0366
6281862500		0.72305	162.9408
6306850000		0.72244	162.8473
6331837500		0.72248	162.7822
6356825000		0.72296	162.696
6381812500		0.72281	162.6252
6406800000		0.72248	162.5863
6431787500		0.72265	162.5083
6456775000		0.72282	162.4097
6481762500		0.72287	162.3639
6506750000		0.7231	162.3407
6531737500		0.72311	162.2938
6556725000		0.7229	162.2404
6581712500		0.72297	162.1789
6606700000		0.72298	162.1195
6631687500		0.7229	162.0804
6656675000		0.72271	162.0235
6681662500		0.72265	161.9455
6706650000		0.72269	161.8681
6731637500		0.72287	161.8012
6756625000		0.72279	161.7233
6781612500		0.72252	161.6558
6806600000		0.72254	161.5874
6831587500		0.72289	161.5129
6856575000		0.72304	161.4479
6881562500		0.72289	161.4018
6906550000		0.72272	161.3592
6931537500		0.7228	161.3105
6956525000		0.72299	161.2488
6981512500		0.72305	161.205
7006500000		0.72302	161.1769
7031487500		0.72294	161.122
7056475000		0.72278	161.0382
7081462500		0.72274	160.97
7106450000		0.72278	160.9074
7131437500		0.72263	160.8469
7156425000		0.72249	160.7677
7181412500		0.72231	160.6732
7206400000		0.7224	160.6036
7231387500		0.72286	160.5424
7256375000		0.72292	160.4668
7281362500		0.72276	160.4126
7306350000		0.72302	160.3733
7331337500		0.72327	160.3079
7356325000		0.7232	160.2777
7381312500		0.72334	160.2603
7406300000		0.72335	160.1901
7431287500		0.72305	160.1261
7456275000		0.72297	160.083
7481262500		0.72298	160.0108
7506250000		0.72271	159.9204
7531237500		0.72266	159.8392
7556225000		0.72283	159.7482
7581212500		0.72275	159.6732
7606200000		0.72287	159.6226
7631187500		0.72304	159.5464
7656175000		0.72302	159.4689
7681162500		0.72328	159.4325
7706150000		0.72364	159.4243
7731137500		0.72376	159.4012
7756125000		0.72337	159.3448
7781112500		0.72309	159.2861
7806100000		0.72328	159.2276
7831087500		0.72333	159.1607
7856075000		0.72276	159.1194
7881062500		0.72261	159.0612
7906050000		0.72264	158.9292
7931037500		0.72266	158.8209
7956025000		0.72306	158.7691
7981012500		0.72321	158.7108
8006000000		0.72278	158.6394
8030987500		0.7227	158.5669
8055975000		0.72334	158.4935
8080962500		0.72386	158.454
8105950000		0.7237	158.4593
8130937500		0.72331	158.4515
8155925000		0.72303	158.3872
8180912500		0.72309	158.2902
8205900000		0.72321	158.2378
8230887500		0.72326	158.2085
8255875000		0.72286	158.1444
8280862500		0.72238	158.0451
8305850000		0.72254	157.9331
8330837500		0.72291	157.835
8355825000		0.72282	157.79
8380812500		0.72276	157.7531
8405800000		0.72281	157.6625
8430787500		0.7228	157.574
8455775000		0.7233	157.559
8480762500		0.72385	157.5467
8505750000		0.72353	157.5194
8530737500		0.72308	157.4913
8555725000		0.72321	157.4242
8580712500		0.72345	157.3402
8605700000		0.72337	157.2987
8630687500		0.72319	157.2629
8655675000		0.72294	157.1826
8680662500		0.72282	157.0741
8705650000		0.72281	156.9673
8730637500		0.72305	156.8812
8755625000		0.72312	156.8079
8780612500		0.72306	156.7452
8805600000		0.72326	156.6972
8830587500		0.72362	156.6513
8855575000		0.72376	156.6168
8880562500		0.72378	156.5917
8905550000		0.72384	156.5662
8930537500		0.72374	156.5273
8955525000		0.72366	156.4742
8980512500		0.72355	156.4063
9005500000		0.72342	156.3197
9030487500		0.72328	156.2322
9055475000		0.72317	156.1605
9080462500		0.72321	156.0751
9105450000		0.72309	155.9602
9130437500		0.72298	155.861
9155425000		0.72338	155.7915
9180412500		0.72393	155.7478
9205400000		0.72394	155.7256
9230387500		0.72375	155.6955
9255375000		0.72376	155.6351
9280362500		0.72386	155.5802
9305350000		0.72407	155.5697
9330337500		0.72425	155.5625
9355325000		0.72394	155.5059
9380312500		0.72334	155.417
9405300000		0.72338	155.3313
9430287500		0.72376	155.2622
9455275000		0.72385	155.194
9480262500		0.7234	155.1191
9505250000		0.72315	155.0163
9530237500		0.72329	154.8928
9555225000		0.72358	154.826
9580212500		0.72402	154.8023
9605200000		0.7241	154.742
9630187500		0.7236	154.6716
9655175000		0.7239	154.6428
9680162500		0.72483	154.5912
9705150000		0.72468	154.555
9730137500		0.72417	154.5649
9755125000		0.72421	154.5027
9780112500		0.72424	154.387
9805100000		0.72398	154.3307
9830087500		0.72417	154.2921
9855075000		0.72392	154.2098
9880062500		0.72344	154.0863
9905050000		0.72351	153.9789
9930037500		0.72407	153.9131
9955025000		0.72422	153.8659
9980012500		0.72393	153.8122
10005000000		0.72391	153.7486
10029987500		0.72435	153.6851
10054975000		0.72451	153.6567
10079962500		0.72444	153.6629
10104950000		0.72432	153.6301
10129937500		0.72402	153.5417
10154925000		0.72413	153.4815
10179912500		0.72442	153.444
10204900000		0.72413	153.4088
10229887500		0.72363	153.3508
10254875000		0.72378	153.2179
10279862500		0.72405	153.075
10304850000		0.72439	153.045
10329837500		0.72483	153.0507
10354825000		0.72459	152.967
10379812500		0.72418	152.856
10404800000		0.72476	152.8019
10429787500		0.7256	152.7858
10454775000		0.72557	152.8044
10479762500		0.725	152.7798
10504750000		0.72477	152.6875
10529737500		0.72517	152.5903
10554725000		0.72548	152.558
10579712500		0.72548	152.5675
10604700000		0.725	152.5062
10629687500		0.72436	152.363
10654675000		0.72461	152.2397
10679662500		0.72548	152.1805
10704650000		0.72563	152.1693
10729637500		0.72527	152.1216
10754625000		0.72503	151.9926
10779612500		0.72535	151.883
10804600000		0.72639	151.8855
10829587500		0.7271	151.9013
10854575000		0.72646	151.896
10879562500		0.72577	151.8527
10904550000		0.72631	151.7567
10929537500		0.7267	151.6659
10954525000		0.72654	151.6583
10979512500		0.72616	151.6484
11004500000		0.72565	151.5232
11029487500		0.72546	151.366
11054475000		0.72607	151.2766
11079462500		0.72662	151.2247
11104450000		0.7264	151.194
11129437500		0.72625	151.1348
11154425000		0.72672	151.0426
11179412500		0.72732	150.9954
11204400000		0.72753	151.0121
11229387500		0.7275	151.0276
11254375000		0.72709	150.9728
11279362500		0.72683	150.9039
11304350000		0.72715	150.8381
11329337500		0.72738	150.753
11354325000		0.72684	150.7031
11379312500		0.72692	150.6513
11404300000		0.7273	150.5105
11429287500		0.72699	150.4005
11454275000		0.72705	150.3784
11479262500		0.72776	150.3287
11504250000		0.7276	150.2411
11529237500		0.72743	150.2188
11554225000		0.72804	150.2128
11579212500		0.72826	150.1362
11604200000		0.72773	150.0764
11629187500		0.72785	150.0624
11654175000		0.72809	150.0429
11679162500		0.72791	149.9214
11704150000		0.72736	149.8793
11729137500		0.72778	149.7942
11754125000		0.72805	149.6456
11779112500		0.72792	149.6369
11804100000		0.72826	149.61
11829087500		0.72801	149.5057
11854075000		0.72742	149.4201
11879062500		0.72806	149.3697
11904050000		0.72882	149.3025
11929037500		0.7283	149.2986
11954025000		0.72802	149.347
11979012500		0.72836	149.214
!
!				Infineon Technologies AG
