! Infineon Technologies  Discrete & RF Semiconductors
! BAT15-02ELS
! IAC = 80 mA
! One-Port S-Parameters
# Hz  S  MA  R  50
!f									S11
!Hz							Mag  Ang
309850000		0.6078	178.4528
334837500		0.60728	178.4282
359825000		0.60668	178.384
384812500		0.60635	178.2857
409800000		0.60605	178.2265
434787500		0.60585	178.2058
459775000		0.60584	178.1572
484762500		0.60546	178.0943
509750000		0.60499	178.075
534737500		0.60497	177.9874
559725000		0.60487	177.9255
584712500		0.60454	177.8832
609700000		0.60441	177.8333
634687500		0.60396	177.7326
659675000		0.60377	177.6916
684662500		0.60351	177.661
709650000		0.60353	177.5861
734637500		0.60335	177.571
759625000		0.60309	177.5377
784612500		0.60314	177.4506
809600000		0.60335	177.3665
834587500		0.6033	177.3379
859575000		0.6032	177.2745
884562500		0.60303	177.2095
909550000		0.60287	177.1463
934537500		0.60267	177.0802
959525000		0.6025	177.0149
984512500		0.60234	176.9565
1009500000		0.60215	176.8935
1034487500		0.60199	176.8361
1059475000		0.60187	176.7757
1084462500		0.60176	176.7223
1109450000		0.60179	176.6761
1134437500		0.60195	176.626
1159425000		0.60209	176.5671
1184412500		0.60207	176.4977
1209400000		0.60201	176.422
1234387500		0.60199	176.3357
1259375000		0.60174	176.3024
1284362500		0.60175	176.2316
1309350000		0.60164	176.1829
1334337500		0.60143	176.1098
1359325000		0.60125	176.0355
1384312500		0.60127	175.9654
1409300000		0.60116	175.905
1434287500		0.60095	175.8785
1459275000		0.60084	175.8249
1484262500		0.60072	175.762
1509250000		0.60097	175.7012
1534237500		0.60133	175.6367
1559225000		0.6015	175.5861
1584212500		0.60151	175.5197
1609200000		0.60148	175.4263
1634187500		0.60128	175.3293
1659175000		0.60111	175.2773
1684162500		0.60115	175.2461
1709150000		0.60087	175.1911
1734137500		0.60055	175.127
1759125000		0.60045	175.0499
1784112500		0.60032	174.9703
1809100000		0.6001	174.9269
1834087500		0.60009	174.897
1859075000		0.59999	174.8136
1884062500		0.60004	174.7516
1909050000		0.60016	174.7286
1934037500		0.60044	174.7035
1959025000		0.60087	174.6012
1984012500		0.60092	174.5455
2009000000		0.60108	174.4384
2033987500		0.60089	174.3488
2058975000		0.60059	174.3132
2083962500		0.60077	174.2268
2108950000		0.60047	174.1942
2133937500		0.60019	174.109
2158925000		0.60006	174.0496
2183912500		0.6	173.9508
2208900000		0.59991	173.8561
2233887500		0.59969	173.9127
2258875000		0.59981	173.8252
2283862500		0.5998	173.7484
2308850000		0.60004	173.6561
2333837500		0.59995	173.6761
2358825000		0.6003	173.5559
2383812500		0.60043	173.5046
2408800000		0.60026	173.4557
2433787500		0.59999	173.3743
2458775000		0.59989	173.2934
2483762500		0.60002	173.2269
2508750000		0.59984	173.2054
2533737500		0.59968	173.1561
2558725000		0.59951	173.0823
2583712500		0.59942	172.9852
2608700000		0.59952	172.8779
2633687500		0.59954	172.8565
2658675000		0.59937	172.828
2683662500		0.59918	172.7834
2708650000		0.59909	172.6976
2733637500		0.59908	172.6355
2758625000		0.59934	172.5772
2783612500		0.5994	172.5424
2808600000		0.59937	172.4735
2833587500		0.59911	172.4586
2858575000		0.59911	172.3807
2883562500		0.59939	172.2831
2908550000		0.59941	172.239
2933537500		0.5994	172.1524
2958525000		0.59905	172.1438
2983512500		0.59922	172.0109
3008500000		0.59927	171.9495
3033487500		0.59931	171.9112
3058475000		0.59925	171.859
3083462500		0.59909	171.7829
3108450000		0.5991	171.6916
3133437500		0.59915	171.6279
3158425000		0.59919	171.593
3183412500		0.59919	171.5379
3208400000		0.59902	171.4714
3233387500		0.5989	171.4
3258375000		0.5991	171.3267
3283362500		0.59903	171.2818
3308350000		0.59896	171.234
3333337500		0.59879	171.1703
3358325000		0.59871	171.1
3383312500		0.59883	171.0442
3408300000		0.59892	170.9881
3433287500		0.59881	170.9357
3458275000		0.5988	170.8816
3483262500		0.59893	170.8066
3508250000		0.59886	170.7685
3533237500		0.59907	170.6552
3558225000		0.59911	170.5992
3583212500		0.59899	170.5575
3608200000		0.59888	170.483
3633187500		0.59885	170.4249
3658175000		0.59905	170.3401
3683162500		0.59882	170.312
3708150000		0.59874	170.223
3733137500		0.59873	170.1881
3758125000		0.59878	170.1076
3783112500		0.59865	170.0672
3808100000		0.59865	170.0215
3833087500		0.5987	169.9575
3858075000		0.59866	169.9001
3883062500		0.59871	169.8423
3908050000		0.59891	169.7577
3933037500		0.59873	169.7344
3958025000		0.59893	169.6483
3983012500		0.59892	169.6067
4008000000		0.59882	169.5345
4032987500		0.59878	169.4953
4057975000		0.59886	169.4223
4082962500		0.59884	169.3421
4107950000		0.59875	169.282
4132937500		0.59881	169.2318
4157925000		0.59874	169.165
4182912500		0.59859	169.0981
4207900000		0.59862	169.043
4232887500		0.59876	168.99
4257875000		0.59871	168.9372
4282862500		0.59855	168.8887
4307850000		0.59855	168.8271
4332837500		0.59856	168.7517
4357825000		0.59859	168.7013
4382812500		0.5987	168.6566
4407800000		0.59865	168.594
4432787500		0.59845	168.5303
4457775000		0.59859	168.4626
4482762500		0.59872	168.3956
4507750000		0.59871	168.3522
4532737500		0.59874	168.3047
4557725000		0.5987	168.2268
4582712500		0.59857	168.1597
4607700000		0.59874	168.1265
4632687500		0.59891	168.0822
4657675000		0.59867	168.0251
4682662500		0.59842	167.9577
4707650000		0.59842	167.8817
4732637500		0.59862	167.8139
4757625000		0.59867	167.7686
4782612500		0.5985	167.7202
4807600000		0.59834	167.6553
4832587500		0.59843	167.5705
4857575000		0.59855	167.5041
4882562500		0.59873	167.4751
4907550000		0.59878	167.4376
4932537500		0.59862	167.3724
4957525000		0.5985	167.3053
4982512500		0.59867	167.2517
5007500000		0.59888	167.2101
5032487500		0.59881	167.1635
5057475000		0.59861	167.1013
5082462500		0.59858	167.0301
5107450000		0.5987	166.9507
5132437500		0.59877	166.8948
5157425000		0.59869	166.8553
5182412500		0.59864	166.796
5207400000		0.59858	166.7111
5232387500		0.59859	166.6442
5257375000		0.59868	166.596
5282362500		0.59872	166.5503
5307350000		0.59866	166.4911
5332337500		0.59863	166.4288
5357325000		0.59877	166.3702
5382312500		0.59884	166.3208
5407300000		0.59885	166.2774
5432287500		0.59881	166.2218
5457275000		0.5987	166.1624
5482262500		0.59875	166.1061
5507250000		0.59888	166.0451
5532237500		0.59877	165.9784
5557225000		0.59864	165.9269
5582212500		0.59879	165.8721
5607200000		0.59885	165.8011
5632187500		0.59855	165.7373
5657175000		0.59854	165.6882
5682162500		0.59879	165.6111
5707150000		0.5989	165.5429
5732137500		0.59887	165.5124
5757125000		0.59891	165.4825
5782112500		0.59893	165.412
5807100000		0.5989	165.3351
5832087500		0.59903	165.283
5857075000		0.59924	165.2408
5882062500		0.59918	165.1978
5907050000		0.59882	165.1291
5932037500		0.59874	165.0528
5957025000		0.59887	164.9747
5982012500		0.59894	164.9155
6007000000		0.59884	164.8725
6031987500		0.59883	164.8021
6056975000		0.59881	164.6981
6081962500		0.59899	164.6382
6106950000		0.59939	164.6073
6131937500		0.59944	164.5887
6156925000		0.59928	164.556
6181912500		0.59926	164.4803
6206900000		0.59924	164.3976
6231887500		0.59927	164.3694
6256875000		0.59938	164.3523
6281862500		0.59916	164.2746
6306850000		0.59868	164.184
6331837500		0.59873	164.1091
6356825000		0.59907	164.0286
6381812500		0.59898	163.9697
6406800000		0.59881	163.9285
6431787500		0.59895	163.8491
6456775000		0.59908	163.7558
6481762500		0.59926	163.717
6506750000		0.59954	163.6938
6531737500		0.59952	163.6542
6556725000		0.59936	163.6079
6581712500		0.59947	163.5547
6606700000		0.59952	163.498
6631687500		0.59943	163.459
6656675000		0.59922	163.4109
6681662500		0.59915	163.3364
6706650000		0.59925	163.2583
6731637500		0.59937	163.1933
6756625000		0.59933	163.1233
6781612500		0.59917	163.0604
6806600000		0.59924	162.9846
6831587500		0.59949	162.9122
6856575000		0.59968	162.8581
6881562500		0.59967	162.8177
6906550000		0.59954	162.7763
6931537500		0.59961	162.728
6956525000		0.59982	162.6754
6981512500		0.59996	162.6371
7006500000		0.59993	162.6146
7031487500		0.59984	162.5603
7056475000		0.5997	162.485
7081462500		0.59971	162.4189
7106450000		0.59975	162.3582
7131437500		0.59958	162.3023
7156425000		0.59946	162.2304
7181412500		0.59938	162.1325
7206400000		0.59951	162.0672
7231387500		0.59991	162.0002
7256375000		0.60006	161.9388
7281362500		0.59997	161.8842
7306350000		0.60015	161.8446
7331337500		0.60042	161.7875
7356325000		0.60046	161.7625
7381312500		0.60065	161.7437
7406300000		0.60059	161.6857
7431287500		0.60032	161.6291
7456275000		0.60024	161.5861
7481262500		0.60025	161.5151
7506250000		0.6	161.4285
7531237500		0.60002	161.3497
7556225000		0.60018	161.2598
7581212500		0.60026	161.1846
7606200000		0.60031	161.1329
7631187500		0.60046	161.0621
7656175000		0.60059	160.9888
7681162500		0.60094	160.9511
7706150000		0.60122	160.9442
7731137500		0.60133	160.9331
7756125000		0.60103	160.8908
7781112500		0.60083	160.8257
7806100000		0.60095	160.7707
7831087500		0.601	160.7175
7856075000		0.60059	160.6794
7881062500		0.60033	160.6147
7906050000		0.60029	160.4859
7931037500		0.60043	160.381
7956025000		0.60083	160.326
7981012500		0.60097	160.2705
8006000000		0.60069	160.2074
8030987500		0.6007	160.131
8055975000		0.60125	160.0553
8080962500		0.60177	160.0243
8105950000		0.60173	160.04
8130937500		0.60139	160.0414
8155925000		0.60113	159.9726
8180912500		0.60111	159.8795
8205900000		0.60126	159.8306
8230887500		0.60133	159.8101
8255875000		0.60095	159.7498
8280862500		0.60049	159.6515
8305850000		0.6006	159.5421
8330837500		0.60097	159.444
8355825000		0.60108	159.3981
8380812500		0.60103	159.3608
8405800000		0.60104	159.2749
8430787500		0.60117	159.1914
8455775000		0.60171	159.1665
8480762500		0.60223	159.1603
8505750000		0.60199	159.147
8530737500		0.60165	159.1208
8555725000		0.6017	159.0484
8580712500		0.60187	158.9736
8605700000		0.60194	158.9399
8630687500		0.60177	158.9028
8655675000		0.60148	158.8241
8680662500		0.60127	158.719
8705650000		0.60137	158.6132
8730637500		0.60163	158.5223
8755625000		0.60176	158.454
8780612500		0.60178	158.3894
8805600000		0.60202	158.3411
8830587500		0.60237	158.3018
8855575000		0.60252	158.2662
8880562500		0.6026	158.2501
8905550000		0.60269	158.2274
8930537500		0.60265	158.193
8955525000		0.60253	158.1419
8980512500		0.60233	158.0795
9005500000		0.60216	157.9984
9030487500		0.60201	157.913
9055475000		0.60197	157.8349
9080462500		0.60199	157.751
9105450000		0.60193	157.6455
9130437500		0.60196	157.5394
9155425000		0.60239	157.4621
9180412500		0.60297	157.4225
9205400000		0.60316	157.411
9230387500		0.60307	157.3791
9255375000		0.60305	157.3255
9280362500		0.60319	157.2748
9305350000		0.6035	157.263
9330337500		0.60363	157.2652
9355325000		0.60326	157.2237
9380312500		0.60279	157.1358
9405300000		0.60285	157.0468
9430287500		0.60319	156.9727
9455275000		0.60327	156.9111
9480262500		0.60288	156.8438
9505250000		0.60266	156.741
9530237500		0.60283	156.6083
9555225000		0.60322	156.5386
9580212500		0.60369	156.5203
9605200000		0.60375	156.4663
9630187500		0.60337	156.4014
9655175000		0.60369	156.3643
9680162500		0.60449	156.3193
9705150000		0.60452	156.2942
9730137500		0.60408	156.305
9755125000		0.60403	156.2477
9780112500		0.60406	156.1396
9805100000		0.60394	156.081
9830087500		0.60405	156.0447
9855075000		0.60376	155.9683
9880062500		0.60341	155.845
9905050000		0.60352	155.7327
9930037500		0.604	155.6593
9955025000		0.60425	155.6195
9980012500		0.6041	155.5723
10005000000		0.60411	155.5087
10029987500		0.60454	155.4438
10054975000		0.60478	155.4259
10079962500		0.60479	155.4378
10104950000		0.60465	155.4051
10129937500		0.6044	155.3259
10154925000		0.60454	155.2692
10179912500		0.60485	155.2348
10204900000		0.60462	155.2033
10229887500		0.60415	155.143
10254875000		0.60423	155.0084
10279862500		0.60461	154.866
10304850000		0.60504	154.8275
10329837500		0.60543	154.838
10354825000		0.60522	154.7636
10379812500		0.60496	154.6486
10404800000		0.60551	154.588
10429787500		0.60629	154.5827
10454775000		0.60639	154.6121
10479762500		0.6059	154.5924
10504750000		0.60564	154.4991
10529737500		0.606	154.3993
10554725000		0.60635	154.3722
10579712500		0.60637	154.3903
10604700000		0.60594	154.3102
10629687500		0.60533	154.1925
10654675000		0.60559	154.0612
10679662500		0.6065	153.9955
10704650000		0.60684	153.9645
10729637500		0.60638	153.9522
10754625000		0.60618	153.8205
10779612500		0.60658	153.7087
10804600000		0.60759	153.7004
10829587500		0.6083	153.7353
10854575000		0.60777	153.7408
10879562500		0.60714	153.693
10904550000		0.60749	153.5982
10929537500		0.60792	153.5176
10954525000		0.60796	153.5168
10979512500		0.60756	153.5066
11004500000		0.60697	153.3864
11029487500		0.60676	153.2282
11054475000		0.60742	153.131
11079462500		0.60803	153.0837
11104450000		0.60789	153.0583
11129437500		0.6078	152.9978
11154425000		0.60825	152.9046
11179412500		0.60884	152.8528
11204400000		0.60913	152.8836
11229387500		0.60904	152.939
11254375000		0.6088	152.8613
11279362500		0.60854	152.7916
11304350000		0.60882	152.722
11329337500		0.60902	152.644
11354325000		0.60864	152.5998
11379312500		0.60865	152.543
11404300000		0.60886	152.4075
11429287500		0.60883	152.3035
11454275000		0.60897	152.2721
11479262500		0.60954	152.2238
11504250000		0.60949	152.1531
11529237500		0.6095	152.1285
11554225000		0.60996	152.1196
11579212500		0.61018	152.0559
11604200000		0.60985	152.005
11629187500		0.60998	151.9867
11654175000		0.61025	151.935
11679162500		0.61005	151.8326
11704150000		0.60953	151.821
11729137500		0.60993	151.7378
11754125000		0.6102	151.5912
11779112500		0.61016	151.5831
11804100000		0.61041	151.5612
11829087500		0.6102	151.4645
11854075000		0.60978	151.3786
11879062500		0.61042	151.3228
11904050000		0.61111	151.2627
11929037500		0.61081	151.2672
11954025000		0.61055	151.316
11979012500		0.61076	151.1885
!
!				Infineon Technologies AG
