! Infineon Technologies  Discrete & RF Semiconductors
! BAT15-02ELS
! IAC = 3 mA
! One-Port S-Parameters
# Hz  S  MA  R  50
!f									S11
!Hz							Mag  Ang
309850000		0.54273	178.8965
334837500		0.54254	178.8704
359825000		0.54216	178.8188
384812500		0.54261	178.7034
409800000		0.54243	178.6198
434787500		0.542	178.584
459775000		0.54246	178.5278
484762500		0.54239	178.4537
509750000		0.54216	178.3958
534737500		0.54235	178.3021
559725000		0.54228	178.2515
584712500		0.54191	178.2019
609700000		0.54164	178.1394
634687500		0.54173	178.0323
659675000		0.54119	177.9907
684662500		0.54074	177.9272
709650000		0.54096	177.8853
734637500		0.54087	177.8739
759625000		0.54077	177.7735
784612500		0.54089	177.7446
809600000		0.54079	177.6931
834587500		0.54118	177.6353
859575000		0.54127	177.5834
884562500		0.54087	177.512
909550000		0.54104	177.4489
934537500		0.54067	177.3785
959525000		0.54028	177.3058
984512500		0.54066	177.2454
1009500000		0.54043	177.1509
1034487500		0.53995	177.1262
1059475000		0.54042	177.0398
1084462500		0.5399	177.0111
1109450000		0.53986	176.9658
1134437500		0.54044	176.9099
1159425000		0.54047	176.8521
1184412500		0.54034	176.7822
1209400000		0.54069	176.6989
1234387500		0.54058	176.6216
1259375000		0.54044	176.5489
1284362500		0.54025	176.5091
1309350000		0.54019	176.4607
1334337500		0.54002	176.3839
1359325000		0.53971	176.3101
1384312500		0.53975	176.2348
1409300000		0.53978	176.173
1434287500		0.53977	176.1512
1459275000		0.53946	176.096
1484262500		0.5394	176.034
1509250000		0.54	175.9635
1534237500		0.54017	175.9
1559225000		0.54041	175.8452
1584212500		0.54071	175.7782
1609200000		0.54041	175.6809
1634187500		0.54032	175.5834
1659175000		0.53992	175.5273
1684162500		0.54	175.4944
1709150000		0.54011	175.4361
1734137500		0.53929	175.3432
1759125000		0.53906	175.3035
1784112500		0.53965	175.2169
1809100000		0.53907	175.1367
1834087500		0.5389	175.1395
1859075000		0.53927	175.0625
1884062500		0.53885	175.0366
1909050000		0.53905	174.9817
1934037500		0.54001	174.8847
1959025000		0.54013	174.8211
1984012500		0.53999	174.7942
2009000000		0.54008	174.7299
2033987500		0.53979	174.6268
2058975000		0.53959	174.5369
2083962500		0.53969	174.5182
2108950000		0.53979	174.4128
2133937500		0.53897	174.3644
2158925000		0.53888	174.3057
2183912500		0.53916	174.2052
2208900000		0.53891	174.1076
2233887500		0.53889	174.097
2258875000		0.53905	174.0552
2283862500		0.53899	174.0107
2308850000		0.53898	173.922
2333837500		0.53905	173.8685
2358825000		0.53959	173.8523
2383812500		0.53943	173.8095
2408800000		0.53867	173.7356
2433787500		0.53908	173.6178
2458775000		0.53884	173.644
2483762500		0.53858	173.5044
2508750000		0.53853	173.4798
2533737500		0.53853	173.4026
2558725000		0.53817	173.3648
2583712500		0.53819	173.2721
2608700000		0.53854	173.1252
2633687500		0.53854	173.1396
2658675000		0.53817	173.0859
2683662500		0.53799	173.0443
2708650000		0.53817	172.9506
2733637500		0.53792	172.8979
2758625000		0.53808	172.8741
2783612500		0.53819	172.8467
2808600000		0.53799	172.7469
2833587500		0.53829	172.6941
2858575000		0.53825	172.6088
2883562500		0.53794	172.619
2908550000		0.53814	172.5433
2933537500		0.53831	172.428
2958525000		0.53825	172.4194
2983512500		0.53808	172.3552
3008500000		0.53801	172.1958
3033487500		0.53844	172.156
3058475000		0.53833	172.0752
3083462500		0.53796	172.0066
3108450000		0.53803	171.9465
3133437500		0.53823	171.8521
3158425000		0.53789	171.8598
3183412500		0.53789	171.8053
3208400000		0.53789	171.7383
3233387500		0.5379	171.6672
3258375000		0.53782	171.6004
3283362500		0.5378	171.5639
3308350000		0.53789	171.5232
3333337500		0.53774	171.4982
3358325000		0.53776	171.3855
3383312500		0.53776	171.3317
3408300000		0.53814	171.2814
3433287500		0.53811	171.1982
3458275000		0.53761	171.1526
3483262500		0.53802	171.1021
3508250000		0.53806	171.0617
3533237500		0.53804	170.9227
3558225000		0.5381	170.9206
3583212500		0.53797	170.8804
3608200000		0.5379	170.7788
3633187500		0.53812	170.7206
3658175000		0.538	170.6717
3683162500		0.53791	170.6103
3708150000		0.53807	170.4944
3733137500		0.53795	170.4509
3758125000		0.53794	170.4071
3783112500		0.53773	170.3708
3808100000		0.53777	170.3047
3833087500		0.53789	170.2754
3858075000		0.53751	170.2203
3883062500		0.53781	170.1287
3908050000		0.53826	170.0673
3933037500		0.53785	170.022
3958025000		0.53769	169.9676
3983012500		0.53837	169.8891
4008000000		0.53841	169.8248
4032987500		0.53777	169.8265
4057975000		0.53818	169.7191
4082962500		0.53845	169.629
4107950000		0.53798	169.5862
4132937500		0.53787	169.5436
4157925000		0.53804	169.5094
4182912500		0.53781	169.4172
4207900000		0.53756	169.395
4232887500		0.53763	169.3404
4257875000		0.53781	169.2567
4282862500		0.53777	169.2416
4307850000		0.53753	169.1824
4332837500		0.53752	169.1063
4357825000		0.53774	169.0571
4382812500		0.53765	169.0227
4407800000		0.53792	168.9538
4432787500		0.53779	168.8929
4457775000		0.53746	168.8239
4482762500		0.53793	168.7562
4507750000		0.53798	168.7279
4532737500		0.53741	168.7175
4557725000		0.53787	168.604
4582712500		0.53797	168.5375
4607700000		0.53779	168.4818
4632687500		0.53795	168.4658
4657675000		0.53817	168.3801
4682662500		0.5378	168.3439
4707650000		0.53764	168.2683
4732637500		0.53785	168.2031
4757625000		0.5382	168.1544
4782612500		0.53812	168.1127
4807600000		0.53774	168.0508
4832587500		0.53784	167.9629
4857575000		0.53802	167.9026
4882562500		0.53812	167.8746
4907550000		0.5381	167.8497
4932537500		0.53817	167.7759
4957525000		0.53806	167.7126
4982512500		0.53795	167.6676
5007500000		0.53822	167.6231
5032487500		0.5384	167.5798
5057475000		0.53824	167.5188
5082462500		0.53824	167.4509
5107450000		0.53819	167.3777
5132437500		0.53841	167.3126
5157425000		0.53843	167.2861
5182412500		0.53806	167.2307
5207400000		0.53815	167.1451
5232387500		0.53809	167.084
5257375000		0.53796	167.0447
5282362500		0.53829	167.0024
5307350000		0.53813	166.9427
5332337500		0.53814	166.8782
5357325000		0.5384	166.8234
5382312500		0.53833	166.7779
5407300000		0.53842	166.7367
5432287500		0.53856	166.6841
5457275000		0.53851	166.6279
5482262500		0.53849	166.5796
5507250000		0.5385	166.5179
5532237500		0.53869	166.447
5557225000		0.53866	166.402
5582212500		0.53832	166.3579
5607200000		0.5386	166.2828
5632187500		0.53859	166.223
5657175000		0.53823	166.181
5682162500		0.53852	166.1055
5707150000		0.53899	166.0281
5732137500		0.53908	166.0061
5757125000		0.53879	165.9894
5782112500		0.53903	165.8798
5807100000		0.53909	165.835
5832087500		0.53906	165.7851
5857075000		0.53949	165.7489
5882062500		0.53943	165.7127
5907050000		0.53878	165.6488
5932037500		0.53885	165.5799
5957025000		0.5391	165.4938
5982012500		0.53905	165.4373
6007000000		0.53903	165.3747
6031987500		0.53892	165.3274
6056975000		0.53906	165.2274
6081962500		0.53922	165.1643
6106950000		0.5396	165.1402
6131937500		0.53997	165.1233
6156925000		0.53985	165.0584
6181912500		0.53945	165.0279
6206900000		0.53979	164.9342
6231887500		0.53985	164.9113
6256875000		0.53959	164.9189
6281862500		0.5394	164.8363
6306850000		0.53896	164.75
6331837500		0.53895	164.6745
6356825000		0.53938	164.5931
6381812500		0.53933	164.5387
6406800000		0.53921	164.499
6431787500		0.53928	164.4263
6456775000		0.53955	164.328
6481762500		0.5398	164.2883
6506750000		0.5401	164.2749
6531737500		0.54032	164.2339
6556725000		0.54014	164.184
6581712500		0.54007	164.1411
6606700000		0.54022	164.0852
6631687500		0.54015	164.0584
6656675000		0.53987	164.018
6681662500		0.5397	163.9443
6706650000		0.53974	163.871
6731637500		0.54004	163.7994
6756625000		0.53993	163.7344
6781612500		0.53978	163.6718
6806600000		0.53998	163.5995
6831587500		0.54015	163.5378
6856575000		0.54033	163.4815
6881562500		0.54059	163.4428
6906550000		0.5406	163.4079
6931537500		0.54069	163.3538
6956525000		0.5406	163.3139
6981512500		0.54068	163.2826
7006500000		0.54079	163.2668
7031487500		0.54056	163.2199
7056475000		0.54045	163.1494
7081462500		0.54033	163.0891
7106450000		0.54032	163.0325
7131437500		0.54034	162.9758
7156425000		0.54007	162.9084
7181412500		0.54026	162.8077
7206400000		0.5406	162.7397
7231387500		0.54082	162.6827
7256375000		0.54118	162.6103
7281362500		0.54119	162.56
7306350000		0.54126	162.5296
7331337500		0.54154	162.475
7356325000		0.54142	162.4621
7381312500		0.5416	162.4503
7406300000		0.54189	162.3872
7431287500		0.54139	162.3445
7456275000		0.54113	162.3097
7481262500		0.54119	162.2455
7506250000		0.54094	162.1624
7531237500		0.54096	162.0763
7556225000		0.54125	161.9851
7581212500		0.54146	161.9165
7606200000		0.54151	161.8739
7631187500		0.54159	161.8022
7656175000		0.54174	161.7244
7681162500		0.54215	161.6929
7706150000		0.54272	161.6911
7731137500		0.5426	161.6981
7756125000		0.54196	161.6644
7781112500		0.54195	161.6015
7806100000		0.54203	161.5472
7831087500		0.54206	161.5032
7856075000		0.54176	161.4753
7881062500		0.54136	161.3938
7906050000		0.54144	161.2856
7931037500		0.54173	161.1693
7956025000		0.54206	161.1221
7981012500		0.54251	161.0726
8006000000		0.54216	161.0103
8030987500		0.54192	160.9402
8055975000		0.54277	160.8564
8080962500		0.54334	160.8402
8105950000		0.54314	160.875
8130937500		0.54276	160.8808
8155925000		0.54238	160.8236
8180912500		0.54259	160.7182
8205900000		0.54288	160.6744
8230887500		0.54265	160.6736
8255875000		0.54236	160.6199
8280862500		0.5421	160.5157
8305850000		0.54219	160.3978
8330837500		0.54262	160.2993
8355825000		0.54283	160.2638
8380812500		0.54285	160.2389
8405800000		0.54269	160.1517
8430787500		0.54293	160.063
8455775000		0.54366	160.0436
8480762500		0.54416	160.0494
8505750000		0.54388	160.0498
8530737500		0.54328	160.0314
8555725000		0.54342	159.961
8580712500		0.54376	159.8798
8605700000		0.54375	159.8569
8630687500		0.54367	159.8312
8655675000		0.54332	159.759
8680662500		0.54304	159.654
8705650000		0.54332	159.5403
8730637500		0.54368	159.4532
8755625000		0.54374	159.395
8780612500		0.54378	159.3275
8805600000		0.54373	159.2954
8830587500		0.54426	159.2474
8855575000		0.54485	159.2166
8880562500		0.5447	159.2151
8905550000		0.54457	159.2027
8930537500		0.54475	159.1706
8955525000		0.54469	159.1218
8980512500		0.5445	159.0656
9005500000		0.5444	158.9868
9030487500		0.5444	158.8938
9055475000		0.54429	158.8377
9080462500		0.54408	158.758
9105450000		0.54438	158.6372
9130437500		0.54447	158.5293
9155425000		0.54464	158.4684
9180412500		0.54522	158.4344
9205400000		0.54556	158.4201
9230387500		0.5453	158.4043
9255375000		0.54542	158.3447
9280362500		0.54568	158.2934
9305350000		0.54577	158.3002
9330337500		0.54588	158.3139
9355325000		0.54595	158.2598
9380312500		0.54537	158.1757
9405300000		0.54508	158.1001
9430287500		0.54559	158.0337
9455275000		0.54575	157.9822
9480262500		0.54508	157.9256
9505250000		0.54516	157.8088
9530237500		0.54544	157.6763
9555225000		0.54544	157.6226
9580212500		0.54575	157.6132
9605200000		0.54631	157.5519
9630187500		0.54624	157.4741
9655175000		0.5462	157.4558
9680162500		0.54709	157.4163
9705150000		0.54745	157.3906
9730137500		0.54664	157.4198
9755125000		0.54649	157.3656
9780112500		0.54699	157.2425
9805100000		0.54661	157.2055
9830087500		0.54629	157.2039
9855075000		0.54633	157.1178
9880062500		0.54591	156.9887
9905050000		0.54592	156.8754
9930037500		0.54658	156.8063
9955025000		0.54663	156.7846
9980012500		0.54639	156.7427
10005000000		0.54677	156.6654
10029987500		0.5475	156.5907
10054975000		0.54777	156.5805
10079962500		0.54759	156.6167
10104950000		0.54774	156.5803
10129937500		0.54751	156.4967
10154925000		0.5473	156.4504
10179912500		0.54788	156.4231
10204900000		0.54776	156.4076
10229887500		0.54681	156.3677
10254875000		0.54681	156.227
10279862500		0.5477	156.0579
10304850000		0.5481	156.0358
10329837500		0.54799	156.0562
10354825000		0.54808	155.9952
10379812500		0.54805	155.8692
10404800000		0.54844	155.8073
10429787500		0.5495	155.7958
10454775000		0.54952	155.8505
10479762500		0.54878	155.8502
10504750000		0.54873	155.7428
10529737500		0.54922	155.639
10554725000		0.54958	155.6213
10579712500		0.54938	155.666
10604700000		0.54871	155.6296
10629687500		0.54832	155.4738
10654675000		0.5486	155.3336
10679662500		0.54956	155.2716
10704650000		0.55002	155.2538
10729637500		0.54932	155.2547
10754625000		0.54913	155.1094
10779612500		0.54986	154.9777
10804600000		0.55089	154.9778
10829587500		0.55154	155.0291
10854575000		0.55109	155.0499
10879562500		0.55032	155.01
10904550000		0.55071	154.9119
10929537500		0.55126	154.8283
10954525000		0.55118	154.8509
10979512500		0.55057	154.8623
11004500000		0.54996	154.7372
11029487500		0.54977	154.5714
11054475000		0.55054	154.4695
11079462500		0.55138	154.4251
11104450000		0.55125	154.411
11129437500		0.55102	154.3471
11154425000		0.55182	154.2323
11179412500		0.55255	154.1862
11204400000		0.55262	154.2348
11229387500		0.55264	154.2749
11254375000		0.55238	154.2258
11279362500		0.55205	154.1663
11304350000		0.55226	154.0999
11329337500		0.55262	154.0251
11354325000		0.55223	153.9664
11379312500		0.55172	153.9504
11404300000		0.55236	153.8041
11429287500		0.55255	153.6902
11454275000		0.55227	153.6814
11479262500		0.55306	153.6072
11504250000		0.55319	153.5513
11529237500		0.55294	153.5459
11554225000		0.55356	153.5369
11579212500		0.55421	153.4616
11604200000		0.55368	153.4229
11629187500		0.55349	153.4106
11654175000		0.55398	153.3657
11679162500		0.55386	153.2952
11704150000		0.55313	153.2688
11729137500		0.55347	153.1798
11754125000		0.55416	153.0219
11779112500		0.55398	153.025
11804100000		0.55394	153.028
11829087500		0.55429	152.8772
11854075000		0.5537	152.8369
11879062500		0.55396	152.7915
11904050000		0.55507	152.7235
11929037500		0.55493	152.7309
11954025000		0.55442	152.7692
11979012500		0.55469	152.6608
!
!				Infineon Technologies AG
