! Infineon Technologies  Discrete & RF Semiconductors
! BAT15-02ELS
! IAC = 100 mA
! One-Port S-Parameters
# Hz  S  MA  R  50
!f									S11
!Hz							Mag  Ang
309850000		0.53881	177.5597
334837500		0.5379	177.6345
359825000		0.53702	177.6863
384812500		0.53646	177.6717
409800000		0.53599	177.6926
434787500		0.53567	177.7423
459775000		0.53551	177.7706
484762500		0.53506	177.7767
509750000		0.53472	177.7826
534737500		0.53469	177.7576
559725000		0.53442	177.7863
584712500		0.5342	177.8019
609700000		0.53407	177.7992
634687500		0.53373	177.7521
659675000		0.53361	177.7489
684662500		0.53361	177.7337
709650000		0.53347	177.7664
734637500		0.53357	177.7229
759625000		0.53331	177.7646
784612500		0.53347	177.7135
809600000		0.53376	177.6591
834587500		0.53394	177.6358
859575000		0.53396	177.6084
884562500		0.53375	177.6076
909550000		0.53368	177.5716
934537500		0.53364	177.5372
959525000		0.5336	177.4988
984512500		0.53358	177.4692
1009500000		0.53358	177.4296
1034487500		0.53353	177.3974
1059475000		0.53356	177.3639
1084462500		0.53356	177.3306
1109450000		0.53374	177.3048
1134437500		0.53398	177.277
1159425000		0.53421	177.2382
1184412500		0.53433	177.1916
1209400000		0.5344	177.1352
1234387500		0.53448	177.0701
1259375000		0.53453	177.0251
1284362500		0.53458	177.004
1309350000		0.53455	176.977
1334337500		0.53439	176.9245
1359325000		0.53441	176.8633
1384312500		0.53455	176.8109
1409300000		0.53455	176.7701
1434287500		0.53452	176.7604
1459275000		0.53449	176.7223
1484262500		0.5345	176.6726
1509250000		0.53481	176.6245
1534237500		0.53528	176.574
1559225000		0.5354	176.5716
1584212500		0.53572	176.4591
1609200000		0.53569	176.4129
1634187500		0.53564	176.3307
1659175000		0.53561	176.2906
1684162500		0.53574	176.2749
1709150000		0.53567	176.2394
1734137500		0.53544	176.1872
1759125000		0.53557	176.0938
1784112500		0.5356	176.027
1809100000		0.53544	176.026
1834087500		0.53555	175.9754
1859075000		0.53561	175.9051
1884062500		0.53565	175.8814
1909050000		0.53597	175.834
1934037500		0.53645	175.7892
1959025000		0.53685	175.7343
1984012500		0.53687	175.7227
2009000000		0.53706	175.6286
2033987500		0.53701	175.5489
2058975000		0.53695	175.4931
2083962500		0.53708	175.448
2108950000		0.53704	175.3989
2133937500		0.53677	175.3578
2158925000		0.53671	175.3084
2183912500		0.53664	175.2525
2208900000		0.53677	175.1325
2233887500		0.53692	175.1319
2258875000		0.53702	175.0915
2283862500		0.53691	175.0885
2308850000		0.53728	174.9731
2333837500		0.53756	174.932
2358825000		0.53767	174.9327
2383812500		0.53796	174.8522
2408800000		0.53787	174.8161
2433787500		0.53771	174.7408
2458775000		0.53768	174.6714
2483762500		0.5379	174.61
2508750000		0.53787	174.6026
2533737500		0.53789	174.5323
2558725000		0.5377	174.504
2583712500		0.53778	174.3771
2608700000		0.53802	174.2764
2633687500		0.53804	174.3052
2658675000		0.53808	174.2502
2683662500		0.53791	174.2153
2708650000		0.53776	174.2047
2733637500		0.53805	174.0793
2758625000		0.53828	174.0682
2783612500		0.53854	174.0102
2808600000		0.53836	174.0148
2833587500		0.53844	173.9413
2858575000		0.53848	173.8648
2883562500		0.53871	173.8145
2908550000		0.53885	173.7785
2933537500		0.53887	173.7036
2958525000		0.53859	173.7056
2983512500		0.53882	173.5758
3008500000		0.53913	173.4942
3033487500		0.53927	173.4595
3058475000		0.53904	173.4835
3083462500		0.53906	173.3843
3108450000		0.53916	173.2982
3133437500		0.5393	173.2386
3158425000		0.53941	173.2148
3183412500		0.53957	173.1409
3208400000		0.53939	173.1143
3233387500		0.5393	173.0838
3258375000		0.5396	172.9788
3283362500		0.53978	172.9145
3308350000		0.53968	172.9068
3333337500		0.53954	172.851
3358325000		0.53959	172.7849
3383312500		0.53974	172.7374
3408300000		0.54005	172.6583
3433287500		0.54004	172.6145
3458275000		0.53997	172.599
3483262500		0.54022	172.499
3508250000		0.54027	172.47
3533237500		0.54059	172.3666
3558225000		0.54058	172.3439
3583212500		0.54057	172.3142
3608200000		0.54059	172.2147
3633187500		0.54067	172.1631
3658175000		0.54072	172.1488
3683162500		0.54069	172.1008
3708150000		0.54063	172.0538
3733137500		0.54074	171.9853
3758125000		0.54085	171.9138
3783112500		0.54098	171.849
3808100000		0.541	171.8115
3833087500		0.5411	171.7564
3858075000		0.54104	171.7359
3883062500		0.54132	171.6582
3908050000		0.54143	171.6056
3933037500		0.54139	171.5909
3958025000		0.54162	171.5119
3983012500		0.54177	171.4459
4008000000		0.54178	171.3805
4032987500		0.54166	171.3814
4057975000		0.54183	171.3177
4082962500		0.54184	171.2454
4107950000		0.54193	171.1537
4132937500		0.54195	171.1475
4157925000		0.54201	171.0893
4182912500		0.54204	170.9979
4207900000		0.5421	170.9459
4232887500		0.5423	170.9001
4257875000		0.54224	170.888
4282862500		0.54229	170.8146
4307850000		0.54225	170.7893
4332837500		0.54232	170.7202
4357825000		0.5424	170.6769
4382812500		0.54257	170.638
4407800000		0.54258	170.5846
4432787500		0.54246	170.5282
4457775000		0.54268	170.4633
4482762500		0.54287	170.4034
4507750000		0.54304	170.3374
4532737500		0.543	170.325
4557725000		0.54303	170.2551
4582712500		0.54301	170.1942
4607700000		0.54325	170.1638
4632687500		0.54345	170.1284
4657675000		0.5433	170.082
4682662500		0.54314	170.0174
4707650000		0.5432	169.9451
4732637500		0.54343	169.8845
4757625000		0.54361	169.8473
4782612500		0.54348	169.8071
4807600000		0.54334	169.7487
4832587500		0.54349	169.6663
4857575000		0.5437	169.6058
4882562500		0.54395	169.5787
4907550000		0.54406	169.5523
4932537500		0.54398	169.4943
4957525000		0.54397	169.4291
4982512500		0.54419	169.3801
5007500000		0.54441	169.3442
5032487500		0.54442	169.3076
5057475000		0.54427	169.2505
5082462500		0.54428	169.1835
5107450000		0.54447	169.112
5132437500		0.54465	169.0629
5157425000		0.54462	169.025
5182412500		0.54461	168.9735
5207400000		0.5446	168.8972
5232387500		0.54469	168.8354
5257375000		0.54485	168.7915
5282362500		0.54497	168.7511
5307350000		0.54495	168.7
5332337500		0.54502	168.6398
5357325000		0.54514	168.5838
5382312500		0.54534	168.543
5407300000		0.54539	168.5051
5432287500		0.54545	168.4558
5457275000		0.54543	168.4011
5482262500		0.54551	168.3494
5507250000		0.54564	168.2965
5532237500		0.54562	168.2352
5557225000		0.54557	168.1855
5582212500		0.54576	168.1381
5607200000		0.54585	168.0736
5632187500		0.5457	168.0177
5657175000		0.54568	167.9667
5682162500		0.54597	167.8941
5707150000		0.54619	167.8333
5732137500		0.54624	167.8041
5757125000		0.5463	167.7794
5782112500		0.54642	167.6879
5807100000		0.54638	167.6436
5832087500		0.54662	167.5952
5857075000		0.54679	167.5613
5882062500		0.54681	167.5267
5907050000		0.54655	167.4681
5932037500		0.54652	167.3941
5957025000		0.54667	167.3171
5982012500		0.54682	167.2632
6007000000		0.54679	167.2282
6031987500		0.5468	167.1601
6056975000		0.54684	167.0582
6081962500		0.54712	166.9987
6106950000		0.54757	166.9752
6131937500		0.54765	166.9598
6156925000		0.54756	166.9359
6181912500		0.5476	166.8666
6206900000		0.54766	166.7891
6231887500		0.54776	166.7628
6256875000		0.5479	166.7527
6281862500		0.54771	166.6853
6306850000		0.54731	166.5964
6331837500		0.54739	166.5201
6356825000		0.54776	166.4467
6381812500		0.54779	166.393
6406800000		0.5477	166.3583
6431787500		0.54781	166.278
6456775000		0.54803	166.1894
6481762500		0.54832	166.1522
6506750000		0.54866	166.134
6531737500		0.54868	166.0977
6556725000		0.54856	166.0595
6581712500		0.5487	166.0084
6606700000		0.54884	165.9572
6631687500		0.54881	165.9248
6656675000		0.54867	165.8847
6681662500		0.54866	165.8153
6706650000		0.54876	165.7362
6731637500		0.54892	165.6755
6756625000		0.54899	165.5876
6781612500		0.54885	165.5514
6806600000		0.54893	165.48
6831587500		0.54927	165.4103
6856575000		0.54947	165.36
6881562500		0.54957	165.3242
6906550000		0.54954	165.2887
6931537500		0.5496	165.2448
6956525000		0.54987	165.1959
6981512500		0.5501	165.1627
7006500000		0.5501	165.1406
7031487500		0.55003	165.0956
7056475000		0.54995	165.0263
7081462500		0.55003	164.9609
7106450000		0.55009	164.9077
7131437500		0.54999	164.8536
7156425000		0.54992	164.7889
7181412500		0.54987	164.6952
7206400000		0.55004	164.6218
7231387500		0.55042	164.5649
7256375000		0.55065	164.5018
7281362500		0.55068	164.4494
7306350000		0.55091	164.4096
7331337500		0.55119	164.3572
7356325000		0.55132	164.3401
7381312500		0.55151	164.3251
7406300000		0.55152	164.2703
7431287500		0.55138	164.2206
7456275000		0.55134	164.1813
7481262500		0.55146	164.0905
7506250000		0.55113	164.034
7531237500		0.55116	163.9547
7556225000		0.55139	163.8673
7581212500		0.55151	163.7953
7606200000		0.55158	163.7411
7631187500		0.55182	163.6756
7656175000		0.55202	163.6057
7681162500		0.55243	163.5665
7706150000		0.55276	163.5631
7731137500		0.55292	163.56
7756125000		0.5527	163.5218
7781112500		0.55251	163.4629
7806100000		0.55268	163.4096
7831087500		0.55277	163.3624
7856075000		0.55247	163.3281
7881062500		0.55222	163.2689
7906050000		0.55221	163.1414
7931037500		0.5524	163.0381
7956025000		0.55284	162.98
7981012500		0.55302	162.9321
8006000000		0.55285	162.8724
8030987500		0.5529	162.7956
8055975000		0.55349	162.7183
8080962500		0.55403	162.6892
8105950000		0.55409	162.712
8130937500		0.55382	162.7216
8155925000		0.55358	162.6582
8180912500		0.5536	162.5651
8205900000		0.5538	162.5177
8230887500		0.55391	162.502
8255875000		0.55363	162.4474
8280862500		0.55319	162.3528
8305850000		0.55334	162.242
8330837500		0.55377	162.1483
8355825000		0.55394	162.1034
8380812500		0.55392	162.0695
8405800000		0.55398	161.9857
8430787500		0.55421	161.9013
8455775000		0.55482	161.8728
8480762500		0.55532	161.8715
8505750000		0.55522	161.8663
8530737500		0.55493	161.843
8555725000		0.55496	161.776
8580712500		0.55517	161.7016
8605700000		0.55525	161.673
8630687500		0.55518	161.6405
8655675000		0.55492	161.5647
8680662500		0.55477	161.4615
8705650000		0.55487	161.3579
8730637500		0.55515	161.2666
8755625000		0.55533	161.1938
8780612500		0.55543	161.1345
8805600000		0.55575	161.0876
8830587500		0.55615	161.0447
8855575000		0.55635	161.013
8880562500		0.5565	160.998
8905550000		0.55666	160.981
8930537500		0.55667	160.9495
8955525000		0.55658	160.9042
8980512500		0.55645	160.849
9005500000		0.55634	160.7695
9030487500		0.5563	160.6771
9055475000		0.55629	160.608
9080462500		0.55631	160.5292
9105450000		0.55628	160.4178
9130437500		0.55636	160.3087
9155425000		0.5568	160.2278
9180412500		0.55739	160.1947
9205400000		0.55763	160.1861
9230387500		0.55757	160.1612
9255375000		0.55757	160.1021
9280362500		0.5578	160.051
9305350000		0.55818	160.0454
9330337500		0.55835	160.0524
9355325000		0.55801	160.0173
9380312500		0.55756	159.9372
9405300000		0.55766	159.8442
9430287500		0.55802	159.7688
9455275000		0.55817	159.7158
9480262500		0.55783	159.6536
9505250000		0.55766	159.5463
9530237500		0.55783	159.4166
9555225000		0.55827	159.34
9580212500		0.55879	159.3234
9605200000		0.55889	159.2777
9630187500		0.55857	159.2071
9655175000		0.55892	159.1712
9680162500		0.55977	159.1278
9705150000		0.5599	159.1055
9730137500		0.55958	159.1193
9755125000		0.55949	159.067
9780112500		0.55953	158.9646
9805100000		0.55949	158.9052
9830087500		0.55962	158.8722
9855075000		0.55948	158.7728
9880062500		0.55917	158.6498
9905050000		0.55931	158.5615
9930037500		0.5598	158.4913
9955025000		0.56004	158.4549
9980012500		0.56001	158.4105
10005000000		0.5601	158.3442
10029987500		0.5605	158.2813
10054975000		0.56089	158.2649
10079962500		0.56095	158.2802
10104950000		0.56082	158.2528
10129937500		0.56063	158.1749
10154925000		0.56076	158.1178
10179912500		0.56115	158.0858
10204900000		0.56098	158.0589
10229887500		0.56058	158.0037
10254875000		0.56067	157.866
10279862500		0.56112	157.7189
10304850000		0.56161	157.6789
10329837500		0.56201	157.6922
10354825000		0.56187	157.6257
10379812500		0.56168	157.5083
10404800000		0.56228	157.438
10429787500		0.56308	157.4348
10454775000		0.56338	157.4435
10479762500		0.56284	157.4601
10504750000		0.56259	157.3678
10529737500		0.563	157.2667
10554725000		0.56346	157.2427
10579712500		0.56354	157.2633
10604700000		0.56303	157.2161
10629687500		0.56252	157.0751
10654675000		0.56288	156.9381
10679662500		0.56377	156.874
10704650000		0.56421	156.8451
10729637500		0.56377	156.8356
10754625000		0.56356	156.7048
10779612500		0.56405	156.5793
10804600000		0.5651	156.5719
10829587500		0.56584	156.6119
10854575000		0.56546	156.6276
10879562500		0.56487	156.5803
10904550000		0.56518	156.4837
10929537500		0.56569	156.4086
10954525000		0.56582	156.4118
10979512500		0.56543	156.4098
11004500000		0.56489	156.2931
11029487500		0.56472	156.1329
11054475000		0.56541	156.0304
11079462500		0.56603	155.9816
11104450000		0.56599	155.9629
11129437500		0.56592	155.9025
11154425000		0.56642	155.8024
11179412500		0.5671	155.752
11204400000		0.56742	155.7826
11229387500		0.56751	155.8156
11254375000		0.56722	155.7775
11279362500		0.56687	155.7489
11304350000		0.56729	155.6396
11329337500		0.56755	155.566
11354325000		0.56726	155.5237
11379312500		0.56724	155.464
11404300000		0.56752	155.3365
11429287500		0.56755	155.23
11454275000		0.56778	155.1944
11479262500		0.56831	155.1521
11504250000		0.5683	155.1181
11529237500		0.56843	155.0574
11554225000		0.56891	155.046
11579212500		0.56911	154.9897
11604200000		0.56899	154.9128
11629187500		0.56911	154.9211
11654175000		0.56938	154.8749
11679162500		0.56913	154.8105
11704150000		0.5688	154.7671
11729137500		0.56916	154.6801
11754125000		0.56951	154.5364
11779112500		0.56955	154.5298
11804100000		0.56989	154.5122
11829087500		0.56973	154.4222
11854075000		0.56935	154.3308
11879062500		0.56999	154.2701
11904050000		0.57068	154.2232
11929037500		0.57058	154.229
11954025000		0.57043	154.2414
11979012500		0.57042	154.1885
!
!				Infineon Technologies AG
