! Infineon Technologies  Discrete & RF Semiconductors
! BAT15-02ELS
! IAC = 60 mA
! One-Port S-Parameters
# Hz  S  MA  R  50
!f									S11
!Hz							Mag  Ang
309850000		0.67503	178.7839
334837500		0.67465	178.7354
359825000		0.67422	178.6751
384812500		0.67403	178.5571
409800000		0.67382	178.4835
434787500		0.67376	178.4424
459775000		0.67389	178.3757
484762500		0.67357	178.2943
509750000		0.67329	178.2272
534737500		0.67341	178.1283
559725000		0.67316	178.0821
584712500		0.67291	178.0273
609700000		0.67268	177.9952
634687500		0.67235	177.8484
659675000		0.67201	177.8323
684662500		0.67194	177.7531
709650000		0.67184	177.6988
734637500		0.67181	177.6436
759625000		0.67171	177.568
784612500		0.67167	177.5017
809600000		0.67175	177.4401
834587500		0.6717	177.4033
859575000		0.67178	177.2969
884562500		0.67154	177.2231
909550000		0.67138	177.1518
934537500		0.67119	177.0785
959525000		0.67099	177.0051
984512500		0.67086	176.9365
1009500000		0.67066	176.8653
1034487500		0.67047	176.8042
1059475000		0.67033	176.7354
1084462500		0.6702	176.6748
1109450000		0.67021	176.6243
1134437500		0.6704	176.5651
1159425000		0.67055	176.4978
1184412500		0.67051	176.424
1209400000		0.67049	176.3416
1234387500		0.67044	176.2505
1259375000		0.67031	176.1754
1284362500		0.67015	176.1306
1309350000		0.67003	176.0766
1334337500		0.66979	175.9939
1359325000		0.66962	175.9145
1384312500		0.66963	175.8363
1409300000		0.66946	175.7717
1434287500		0.66921	175.7427
1459275000		0.66912	175.6793
1484262500		0.66896	175.6139
1509250000		0.66923	175.5513
1534237500		0.66963	175.4783
1559225000		0.66971	175.417
1584212500		0.6698	175.3517
1609200000		0.6698	175.2483
1634187500		0.66951	175.1441
1659175000		0.66931	175.089
1684162500		0.66934	175.0487
1709150000		0.66913	174.9834
1734137500		0.66868	174.9157
1759125000		0.66857	174.837
1784112500		0.66845	174.7489
1809100000		0.66816	174.6991
1834087500		0.66807	174.665
1859075000		0.66802	174.5792
1884062500		0.66789	174.5465
1909050000		0.66818	174.4888
1934037500		0.66865	174.4218
1959025000		0.66898	174.3147
1984012500		0.66895	174.2867
2009000000		0.66896	174.2066
2033987500		0.66876	174.1074
2058975000		0.66857	174.0384
2083962500		0.66873	173.9501
2108950000		0.66837	173.908
2133937500		0.66792	173.8482
2158925000		0.66779	173.788
2183912500		0.66777	173.6834
2208900000		0.66768	173.5488
2233887500		0.66745	173.6055
2258875000		0.6676	173.511
2283862500		0.66754	173.4307
2308850000		0.66756	173.4003
2333837500		0.66778	173.3116
2358825000		0.66802	173.2239
2383812500		0.66795	173.2034
2408800000		0.66782	173.1397
2433787500		0.66748	173.0585
2458775000		0.66739	172.9772
2483762500		0.66749	172.8991
2508750000		0.6674	172.8387
2533737500		0.66722	172.7845
2558725000		0.66692	172.7455
2583712500		0.66697	172.609
2608700000		0.66714	172.4646
2633687500		0.66696	172.4729
2658675000		0.66663	172.4691
2683662500		0.66637	172.4211
2708650000		0.66648	172.2967
2733637500		0.66652	172.1961
2758625000		0.66661	172.1749
2783612500		0.66671	172.1345
2808600000		0.66669	172.034
2833587500		0.66652	172.0085
2858575000		0.66632	171.9597
2883562500		0.66645	171.8921
2908550000		0.66665	171.8051
2933537500		0.66658	171.7133
2958525000		0.66631	171.671
2983512500		0.66624	171.6055
3008500000		0.66638	171.5029
3033487500		0.66643	171.4562
3058475000		0.66632	171.3992
3083462500		0.66603	171.3576
3108450000		0.66612	171.2282
3133437500		0.66612	171.1616
3158425000		0.66623	171.1222
3183412500		0.66608	171.0883
3208400000		0.66592	170.9896
3233387500		0.66583	170.919
3258375000		0.66583	170.8744
3283362500		0.66594	170.7869
3308350000		0.66579	170.7374
3333337500		0.6656	170.6662
3358325000		0.66551	170.5944
3383312500		0.66559	170.5326
3408300000		0.66566	170.4726
3433287500		0.66559	170.4178
3458275000		0.66557	170.3597
3483262500		0.66561	170.2814
3508250000		0.66553	170.2375
3533237500		0.66574	170.1199
3558225000		0.66568	170.0914
3583212500		0.66563	170.0145
3608200000		0.66549	169.9362
3633187500		0.66545	169.8782
3658175000		0.66556	169.8149
3683162500		0.66537	169.7515
3708150000		0.66526	169.6609
3733137500		0.66523	169.6222
3758125000		0.66526	169.5386
3783112500		0.6651	169.4894
3808100000		0.66506	169.445
3833087500		0.66509	169.3776
3858075000		0.66502	169.3151
3883062500		0.66507	169.2546
3908050000		0.66511	169.1959
3933037500		0.66499	169.1394
3958025000		0.66512	169.0778
3983012500		0.66525	169.001
4008000000		0.66516	168.928
4032987500		0.66503	168.8827
4057975000		0.66511	168.8074
4082962500		0.66503	168.7195
4107950000		0.66488	168.6597
4132937500		0.66482	168.6361
4157925000		0.6649	168.5306
4182912500		0.66469	168.4652
4207900000		0.66466	168.4048
4232887500		0.66479	168.3472
4257875000		0.66471	168.2876
4282862500		0.66451	168.2397
4307850000		0.66451	168.1772
4332837500		0.6645	168.0935
4357825000		0.66446	168.0403
4382812500		0.66458	167.994
4407800000		0.66449	167.9258
4432787500		0.66427	167.862
4457775000		0.66438	167.7893
4482762500		0.66451	167.7177
4507750000		0.66451	167.674
4532737500		0.66454	167.619
4557725000		0.66441	167.5374
4582712500		0.66427	167.4709
4607700000		0.66443	167.4343
4632687500		0.66461	167.3842
4657675000		0.66435	167.3201
4682662500		0.66403	167.25
4707650000		0.66405	167.1707
4732637500		0.66418	167.1003
4757625000		0.6642	167.0511
4782612500		0.66403	166.9998
4807600000		0.66386	166.9309
4832587500		0.6639	166.8421
4857575000		0.66399	166.7724
4882562500		0.66416	166.7425
4907550000		0.66423	166.7002
4932537500		0.66406	166.6267
4957525000		0.66386	166.5579
4982512500		0.66405	166.5065
5007500000		0.66425	166.4585
5032487500		0.66411	166.4064
5057475000		0.66391	166.3391
5082462500		0.66382	166.2668
5107450000		0.664	166.1864
5132437500		0.66405	166.1253
5157425000		0.66391	166.08
5182412500		0.66386	166.0213
5207400000		0.66378	165.9314
5232387500		0.66373	165.8607
5257375000		0.66383	165.8135
5282362500		0.66386	165.7649
5307350000		0.66376	165.6998
5332337500		0.66368	165.6338
5357325000		0.66375	165.5746
5382312500		0.66383	165.5212
5407300000		0.66381	165.4735
5432287500		0.66374	165.4153
5457275000		0.66364	165.3546
5482262500		0.66373	165.2919
5507250000		0.66384	165.2242
5532237500		0.66368	165.1521
5557225000		0.66354	165.1007
5582212500		0.66369	165.047
5607200000		0.66372	164.9661
5632187500		0.6634	164.9015
5657175000		0.66334	164.8529
5682162500		0.66364	164.7731
5707150000		0.66368	164.7004
5732137500		0.66361	164.6682
5757125000		0.66368	164.6363
5782112500		0.66372	164.5596
5807100000		0.66359	164.4794
5832087500		0.66374	164.4282
5857075000		0.66389	164.3845
5882062500		0.66386	164.3338
5907050000		0.66347	164.2619
5932037500		0.66338	164.1869
5957025000		0.66353	164.1055
5982012500		0.66358	164.0409
6007000000		0.6634	163.9954
6031987500		0.66338	163.9239
6056975000		0.66334	163.8194
6081962500		0.66354	163.7557
6106950000		0.66385	163.7241
6131937500		0.66384	163.7012
6156925000		0.6637	163.6656
6181912500		0.66369	163.586
6206900000		0.66362	163.4988
6231887500		0.6636	163.4708
6256875000		0.66379	163.4498
6281862500		0.66352	163.3626
6306850000		0.66295	163.27
6331837500		0.66304	163.1964
6356825000		0.66344	163.1157
6381812500		0.6633	163.0488
6406800000		0.66305	163.0086
6431787500		0.66318	162.9297
6456775000		0.66333	162.834
6481762500		0.66347	162.7906
6506750000		0.66372	162.7654
6531737500		0.66371	162.7226
6556725000		0.66347	162.6698
6581712500		0.66355	162.6141
6606700000		0.66364	162.5541
6631687500		0.66353	162.5137
6656675000		0.66339	162.4623
6681662500		0.66324	162.3854
6706650000		0.66332	162.3048
6731637500		0.66348	162.2392
6756625000		0.66339	162.166
6781612500		0.66319	162.1
6806600000		0.66322	162.0298
6831587500		0.66353	161.9564
6856575000		0.6637	161.8937
6881562500		0.66358	161.8503
6906550000		0.66341	161.8092
6931537500		0.66353	161.7595
6956525000		0.66373	161.7009
6981512500		0.66379	161.661
7006500000		0.66373	161.6326
7031487500		0.66363	161.5791
7056475000		0.6635	161.5018
7081462500		0.66349	161.4301
7106450000		0.66353	161.3693
7131437500		0.66338	161.3078
7156425000		0.66321	161.2329
7181412500		0.6631	161.1385
7206400000		0.66317	161.0684
7231387500		0.66358	161.0042
7256375000		0.66374	160.9325
7281362500		0.66358	160.88
7306350000		0.66384	160.839
7331337500		0.66402	160.7752
7356325000		0.664	160.7504
7381312500		0.66419	160.7294
7406300000		0.66418	160.6656
7431287500		0.66388	160.6064
7456275000		0.66378	160.5609
7481262500		0.66382	160.486
7506250000		0.66354	160.3988
7531237500		0.66351	160.3198
7556225000		0.66368	160.228
7581212500		0.66368	160.1526
7606200000		0.66378	160.0987
7631187500		0.66392	160.0262
7656175000		0.66399	159.9501
7681162500		0.66424	159.9141
7706150000		0.6646	159.9035
7731137500		0.6647	159.8856
7756125000		0.66434	159.8349
7781112500		0.66406	159.7748
7806100000		0.66424	159.7177
7831087500		0.6643	159.6555
7856075000		0.66383	159.6162
7881062500		0.66362	159.5518
7906050000		0.66357	159.4243
7931037500		0.66362	159.317
7956025000		0.664	159.2629
7981012500		0.6642	159.204
8006000000		0.66383	159.137
8030987500		0.66377	159.0629
8055975000		0.66434	158.9893
8080962500		0.66485	158.9535
8105950000		0.66474	158.9615
8130937500		0.66439	158.9558
8155925000		0.66416	158.8895
8180912500		0.66414	158.7959
8205900000		0.66428	158.7431
8230887500		0.6643	158.7161
8255875000		0.66393	158.6544
8280862500		0.66345	158.5541
8305850000		0.66355	158.4446
8330837500		0.66396	158.347
8355825000		0.66397	158.2998
8380812500		0.6639	158.2638
8405800000		0.6639	158.1758
8430787500		0.66394	158.0892
8455775000		0.66449	158.0676
8480762500		0.66499	158.056
8505750000		0.66474	158.0359
8530737500		0.66433	158.0082
8555725000		0.66439	157.939
8580712500		0.66456	157.8602
8605700000		0.66455	157.8201
8630687500		0.6644	157.7827
8655675000		0.66414	157.7013
8680662500		0.66399	157.5947
8705650000		0.66399	157.4894
8730637500		0.66425	157.4024
8755625000		0.66433	157.3296
8780612500		0.66433	157.2654
8805600000		0.66456	157.2164
8830587500		0.6649	157.1724
8855575000		0.66503	157.1376
8880562500		0.66506	157.1164
8905550000		0.66514	157.0898
8930537500		0.66506	157.0536
8955525000		0.66501	157.0034
8980512500		0.66481	156.9388
9005500000		0.6647	156.8519
9030487500		0.66456	156.7594
9055475000		0.66447	156.6903
9080462500		0.66448	156.6065
9105450000		0.66439	156.4916
9130437500		0.66434	156.3897
9155425000		0.66475	156.3165
9180412500		0.66529	156.2757
9205400000		0.66535	156.2574
9230387500		0.66521	156.2275
9255375000		0.66521	156.169
9280362500		0.6653	156.1131
9305350000		0.66557	156.107
9330337500		0.66571	156.1005
9355325000		0.66535	156.0486
9380312500		0.66479	155.9623
9405300000		0.66485	155.8726
9430287500		0.66521	155.7997
9455275000		0.66526	155.7365
9480262500		0.66486	155.6652
9505250000		0.66464	155.5588
9530237500		0.66476	155.4347
9555225000		0.66508	155.363
9580212500		0.66557	155.3416
9605200000		0.66561	155.2841
9630187500		0.66513	155.2165
9655175000		0.66546	155.184
9680162500		0.6663	155.1329
9705150000		0.66627	155.0981
9730137500		0.66581	155.1113
9755125000		0.66583	155.0511
9780112500		0.66577	154.9359
9805100000		0.66559	154.8791
9830087500		0.66576	154.843
9855075000		0.66548	154.7638
9880062500		0.66508	154.6397
9905050000		0.6652	154.5311
9930037500		0.66565	154.4598
9955025000		0.66583	154.4159
9980012500		0.66563	154.3682
10005000000		0.66564	154.3053
10029987500		0.66602	154.2395
10054975000		0.66625	154.2167
10079962500		0.66622	154.2239
10104950000		0.66605	154.189
10129937500		0.66575	154.1018
10154925000		0.66587	154.0472
10179912500		0.66619	154.007
10204900000		0.66591	153.9754
10229887500		0.66545	153.9158
10254875000		0.66556	153.7822
10279862500		0.66588	153.6393
10304850000		0.66623	153.6059
10329837500		0.66664	153.6112
10354825000		0.66645	153.5321
10379812500		0.66613	153.4195
10404800000		0.66669	153.359
10429787500		0.66747	153.3483
10454775000		0.66749	153.373
10479762500		0.66697	153.3501
10504750000		0.6667	153.2572
10529737500		0.66709	153.1609
10554725000		0.66742	153.128
10579712500		0.66744	153.1412
10604700000		0.66693	153.0796
10629687500		0.66634	152.9386
10654675000		0.66658	152.8132
10679662500		0.66745	152.7541
10704650000		0.66782	152.7139
10729637500		0.66732	152.6984
10754625000		0.66706	152.57
10779612500		0.66739	152.4627
10804600000		0.66842	152.4561
10829587500		0.66913	152.479
10854575000		0.66856	152.4798
10879562500		0.66788	152.4327
10904550000		0.66833	152.3386
10929537500		0.66873	152.2499
10954525000		0.66866	152.2478
10979512500		0.66831	152.234
11004500000		0.6677	152.1424
11029487500		0.66754	151.9533
11054475000		0.6682	151.8608
11079462500		0.66872	151.8111
11104450000		0.66856	151.7813
11129437500		0.66842	151.7238
11154425000		0.6689	151.632
11179412500		0.66949	151.5829
11204400000		0.66969	151.604
11229387500		0.66972	151.6221
11254375000		0.66936	151.5706
11279362500		0.66904	151.502
11304350000		0.66933	151.4343
11329337500		0.66954	151.3503
11354325000		0.66912	151.3033
11379312500		0.66913	151.2464
11404300000		0.66944	151.1118
11429287500		0.66928	151.0051
11454275000		0.6694	150.9784
11479262500		0.67	150.9272
11504250000		0.66992	150.8492
11529237500		0.6698	150.8265
11554225000		0.67034	150.8139
11579212500		0.67053	150.746
11604200000		0.67016	150.6893
11629187500		0.67026	150.6729
11654175000		0.67059	150.619
11679162500		0.67024	150.541
11704150000		0.66979	150.4959
11729137500		0.67015	150.4101
11754125000		0.6704	150.2641
11779112500		0.67031	150.2565
11804100000		0.67063	150.2308
11829087500		0.67045	150.1289
11854075000		0.66978	150.078
11879062500		0.67051	149.9891
11904050000		0.67119	149.9268
11929037500		0.67071	149.9632
11954025000		0.67068	149.9397
11979012500		0.67084	149.8449
!
!				Infineon Technologies AG
