! Infineon Technologies  Discrete & RF Semiconductors
! BAT17
! IAC = 9 mA
! One-Port S-Parameters
# Hz  S  MA  R  50
!f									S11
!Hz							Mag  Ang
309850000		0.7925	173.7659
409800000		0.79159	171.8848
509750000		0.79066	169.99
609700000		0.7903	168.0603
709650000		0.78976	166.2224
809600000		0.78934	164.3513
909550000		0.78903	162.5468
1009500000		0.78909	160.6476
1109450000		0.78932	158.9123
1209400000		0.78931	157.0676
1309350000		0.78979	155.2957
1409300000		0.79051	153.4742
1509250000		0.79126	151.7494
1609200000		0.79195	149.9302
1709150000		0.7933	148.1851
1809100000		0.79429	146.4123
1909050000		0.79563	144.6768
2009000000		0.79677	142.8991
2108950000		0.79812	141.2129
2208900000		0.79909	139.5168
2308850000		0.80032	137.7885
2408800000		0.80157	136.1371
2508750000		0.80256	134.4358
2608700000		0.80369	132.8233
2708650000		0.80465	131.1584
2808600000		0.80575	129.6233
2908550000		0.80622	128.0385
3008500000		0.80773	126.5032
3108450000		0.80842	124.992
3208400000		0.80976	123.5519
3308350000		0.81098	122.0991
3408300000		0.81251	120.7318
3508250000		0.81397	119.3547
3608200000		0.81596	117.9616
3708150000		0.81809	116.6489
3808100000		0.82027	115.3246
3908050000		0.82209	114.0124
4008000000		0.82459	112.7007
4107950000		0.82674	111.4388
4207900000		0.82951	110.1474
4307850000		0.83203	108.908
4407800000		0.83504	107.6716
4507750000		0.83744	106.4506
4607700000		0.84023	105.192
4707650000		0.84258	104.0131
4807600000		0.84472	102.7683
4907550000		0.84672	101.5718
5007500000		0.8483	100.3771
5107450000		0.84979	99.1584
5207400000		0.85081	98.0216
5307350000		0.85155	96.8831
5407300000		0.85225	95.7386
5507250000		0.85284	94.7171
5607200000		0.85307	93.6098
5707150000		0.85346	92.6342
5807100000		0.85338	91.6002
5907050000		0.85361	90.5998
6007000000		0.85389	89.6427
6106950000		0.85422	88.6608
6206900000		0.8546	87.7447
6306850000		0.85518	86.7613
6406800000		0.85561	85.8284
6506750000		0.8562	84.8597
6606700000		0.85675	83.9236
6706650000		0.85743	82.9475
6806600000		0.8581	82.0303
6906550000		0.85878	81.0654
7006500000		0.85959	79.9864
7106450000		0.86058	79.0682
7206400000		0.86074	77.9585
7306350000		0.86126	76.9518
!
!				Infineon Technologies AG
