! Infineon Technologies  Discrete & RF Semiconductors
! BAT17
! IAC = 8 mA
! One-Port S-Parameters
# Hz  S  MA  R  50
!f									S11
!Hz							Mag  Ang
309850000		0.78053	173.7658
409800000		0.77993	171.8546
509750000		0.77891	169.9953
609700000		0.77849	168.0638
709650000		0.77804	166.2278
809600000		0.77761	164.3575
909550000		0.77741	162.5536
1009500000		0.77748	160.6547
1109450000		0.77779	158.9223
1209400000		0.77784	157.0772
1309350000		0.77839	155.3062
1409300000		0.7791	153.4875
1509250000		0.77994	151.758
1609200000		0.78067	149.9417
1709150000		0.78206	148.1991
1809100000		0.78312	146.4279
1909050000		0.78454	144.6954
2009000000		0.78576	142.9178
2108950000		0.78721	141.2303
2208900000		0.7882	139.537
2308850000		0.78958	137.8122
2408800000		0.79087	136.163
2508750000		0.79198	134.4637
2608700000		0.79304	132.8851
2708650000		0.79424	131.187
2808600000		0.79529	129.6843
2908550000		0.79604	128.0709
3008500000		0.79765	126.5369
3108450000		0.79847	125.0256
3208400000		0.80006	123.5871
3308350000		0.80128	122.1372
3408300000		0.80293	120.769
3508250000		0.80446	119.393
3608200000		0.80657	118.0002
3708150000		0.80876	116.6901
3808100000		0.81108	115.3662
3908050000		0.81296	114.057
4008000000		0.81557	112.7459
4107950000		0.81779	111.484
4207900000		0.82064	110.1947
4307850000		0.82319	108.9582
4407800000		0.82631	107.7238
4507750000		0.8288	106.5031
4607700000		0.83167	105.2481
4707650000		0.83411	104.0719
4807600000		0.83633	102.8269
4907550000		0.83843	101.6336
5007500000		0.84009	100.4424
5107450000		0.84163	99.2252
5207400000		0.84278	98.09
5307350000		0.84363	96.9557
5407300000		0.84441	95.8123
5507250000		0.84512	94.7931
5607200000		0.84542	93.6884
5707150000		0.84593	92.7136
5807100000		0.84594	91.6829
5907050000		0.84626	90.6827
6007000000		0.84663	89.7263
6106950000		0.84704	88.7435
6206900000		0.8475	87.8309
6306850000		0.84809	86.8487
6406800000		0.84865	85.9175
6506750000		0.84929	84.9494
6606700000		0.84998	84.0122
6706650000		0.85073	83.0388
6806600000		0.85149	82.1219
6906550000		0.85217	81.1568
7006500000		0.85306	80.0786
7106450000		0.85409	79.1663
7206400000		0.85427	78.0584
7306350000		0.85491	77.0527
!
!				Infineon Technologies AG
