! Infineon Technologies  Discrete & RF Semiconductors
! BAT17
! IAC = 2 mA
! One-Port S-Parameters
# Hz  S  MA  R  50
!f									S11
!Hz							Mag  Ang
309850000		0.49276	173.9258
409800000		0.49343	172.0849
509750000		0.49342	170.3013
609700000		0.49405	168.4357
709650000		0.49387	166.7457
809600000		0.49355	165.0311
909550000		0.49465	163.3817
1009500000		0.49662	161.5474
1109450000		0.4983	159.9264
1209400000		0.49936	158.1809
1309350000		0.50078	156.4929
1409300000		0.50259	154.7611
1509250000		0.50514	153.1463
1609200000		0.50725	151.4021
1709150000		0.51072	149.7202
1809100000		0.51332	148.0632
1909050000		0.51657	146.435
2009000000		0.51902	144.7542
2108950000		0.52268	143.1835
2208900000		0.52496	141.6256
2308850000		0.52845	140.0164
2408800000		0.53079	138.5011
2508750000		0.53402	136.9421
2608700000		0.53752	135.4926
2708650000		0.5411	133.8599
2808600000		0.54537	132.5008
2908550000		0.54835	130.9505
3008500000		0.55317	129.463
3108450000		0.55654	128.03
3208400000		0.56146	126.6541
3308350000		0.565	125.3293
3408300000		0.56936	124.0519
3508250000		0.57323	122.7673
3608200000		0.57878	121.3836
3708150000		0.58329	120.1696
3808100000		0.58747	118.9523
3908050000		0.59129	117.7273
4008000000		0.59678	116.4776
4107950000		0.60159	115.2964
4207900000		0.6069	114.0806
4307850000		0.61171	112.9257
4407800000		0.61751	111.768
4507750000		0.62214	110.6505
4607700000		0.62761	109.4608
4707650000		0.63249	108.3767
4807600000		0.63696	107.2293
4907550000		0.64153	106.1317
5007500000		0.64581	105.0334
5107450000		0.6509	103.8431
5207400000		0.65455	102.8079
5307350000		0.658	101.7665
5407300000		0.66178	100.6818
5507250000		0.66585	99.6941
5607200000		0.66919	98.6218
5707150000		0.67277	97.6934
5807100000		0.67528	96.7234
5907050000		0.6787	95.7383
6007000000		0.68139	94.8422
6106950000		0.68435	93.8957
6206900000		0.68743	93.0081
6306850000		0.69031	92.0616
6406800000		0.69319	91.1576
6506750000		0.6962	90.2104
6606700000		0.69899	89.2987
6706650000		0.70186	88.3505
6806600000		0.70457	87.4718
6906550000		0.70748	86.5184
7006500000		0.71032	85.4684
7106450000		0.71319	84.6009
7206400000		0.71529	83.5158
7306350000		0.71805	82.5186
!
!				Infineon Technologies AG
