! Infineon Technologies  Discrete & RF Semiconductors
! BAT17
! VCA = 1 V
! One-Port S-Parameters
# Hz  S  MA  R  50
!f									S11
!Hz							Mag  Ang
309850000		0.99924	-4.7509
409800000		0.99891	-6.2761
509750000		0.99884	-7.8076
609700000		0.99869	-9.3069
709650000		0.99875	-10.8843
809600000		0.99858	-12.4274
909550000		0.99858	-14.0258
1009500000		0.99837	-15.5481
1109450000		0.99818	-17.2246
1209400000		0.99773	-18.7929
1309350000		0.99733	-20.4376
1409300000		0.9965	-22.0414
1509250000		0.99579	-23.7374
1609200000		0.99481	-25.3479
1709150000		0.99378	-27.0267
1809100000		0.9926	-28.6827
1909050000		0.99142	-30.3832
2009000000		0.99028	-32.0653
2108950000		0.9893	-33.7884
2208900000		0.98841	-35.5316
2308850000		0.98749	-37.2463
2408800000		0.98696	-39.0529
2508750000		0.98696	-40.8304
2608700000		0.98671	-42.7162
2708650000		0.98675	-44.5561
2808600000		0.98679	-46.5537
2908550000		0.98684	-48.4662
3008500000		0.98683	-50.5728
3108450000		0.98718	-52.6923
3208400000		0.98643	-54.8177
3308350000		0.98619	-57.0562
3408300000		0.98541	-59.3618
3508250000		0.98459	-61.7256
3608200000		0.98307	-64.0486
3708150000		0.98087	-66.4859
3808100000		0.97885	-69.0211
3908050000		0.9767	-71.5101
4008000000		0.97374	-74.07
4107950000		0.97088	-76.6682
4207900000		0.96764	-79.2902
4307850000		0.96459	-81.965
4407800000		0.96133	-84.6864
4507750000		0.95874	-87.434
4607700000		0.95581	-90.2136
4707650000		0.95375	-93.0773
4807600000		0.95177	-95.9281
4907550000		0.95018	-98.8684
5007500000		0.9489	-101.8351
5107450000		0.94821	-104.8364
5207400000		0.94746	-107.9692
5307350000		0.94717	-111.0995
5407300000		0.94664	-114.2984
5507250000		0.94641	-117.6044
5607200000		0.94595	-120.8637
5707150000		0.94544	-124.2592
5807100000		0.94496	-127.5738
5907050000		0.94405	-130.9659
6007000000		0.94316	-134.355
6106950000		0.94175	-137.739
6206900000		0.94063	-141.1406
6306850000		0.9392	-144.4865
6406800000		0.93775	-147.8463
6506750000		0.93606	-151.1679
6606700000		0.93457	-154.4531
6706650000		0.93315	-157.7192
6806600000		0.93169	-160.983
6906550000		0.93077	-164.1284
7006500000		0.9293	-167.3177
7106450000		0.92879	-170.5149
7206400000		0.92758	-173.5852
7306350000		0.92672	-176.7417
!
!				Infineon Technologies AG
