! Infineon Technologies  Discrete & RF Semiconductors
! BAT17
! IAC = 0.6 mA
! One-Port S-Parameters
# Hz  S  MA  R  50
!f									S11
!Hz							Mag  Ang
309850000		0.07395	-13.7575
409800000		0.07175	-18.0718
509750000		0.07191	-23.534
609700000		0.07079	-29.2736
709650000		0.07491	-35.4849
809600000		0.07428	-41.9376
909550000		0.07742	-49.087
1009500000		0.07594	-55.0925
1109450000		0.07927	-60.5791
1209400000		0.07599	-65.9634
1309350000		0.07957	-73.4465
1409300000		0.0815	-79.4644
1509250000		0.08298	-88.4724
1609200000		0.08587	-94.0697
1709150000		0.08907	-97.5125
1809100000		0.09384	-104.8562
1909050000		0.09569	-112.9658
2009000000		0.10008	-120.1582
2108950000		0.1085	-124.1102
2208900000		0.11537	-129.1737
2308850000		0.12162	-135.0362
2408800000		0.12835	-138.6646
2508750000		0.13562	-142.2844
2608700000		0.14507	-146.7242
2708650000		0.15194	-151.2457
2808600000		0.16355	-155.1883
2908550000		0.17164	-159.0715
3008500000		0.17787	-164.1686
3108450000		0.18812	-167.512
3208400000		0.19883	-171.1243
3308350000		0.21043	-173.9597
3408300000		0.22144	-177.7118
3508250000		0.23297	179.361
3608200000		0.24302	175.6483
3708150000		0.2558	172.7299
3808100000		0.26703	170.1555
3908050000		0.27833	167.4585
4008000000		0.29083	164.3123
4107950000		0.30303	161.6712
4207900000		0.31567	159.6223
4307850000		0.3278	157.565
4407800000		0.3413	154.7514
4507750000		0.35352	152.5435
4607700000		0.36611	150.1063
4707650000		0.37886	148.4351
4807600000		0.39065	146.3223
4907550000		0.4034	144.4717
5007500000		0.41588	142.381
5107450000		0.42791	139.9103
5207400000		0.44049	138.2953
5307350000		0.45257	136.669
5407300000		0.46422	134.7637
5507250000		0.47561	132.7005
5607200000		0.48616	130.7895
5707150000		0.49753	129.0825
5807100000		0.50756	127.5376
5907050000		0.51757	125.6624
6007000000		0.52761	124.2788
6106950000		0.53728	122.762
6206900000		0.54666	121.2366
6306850000		0.55573	119.6287
6406800000		0.56449	118.0643
6506750000		0.5731	116.5382
6606700000		0.58139	115.0547
6706650000		0.58955	113.5029
6806600000		0.59785	112.1511
6906550000		0.60521	110.5983
7006500000		0.61316	109.1293
7106450000		0.62137	107.8109
7206400000		0.62796	106.2949
7306350000		0.63505	104.8006
!
!				Infineon Technologies AG
