! Infineon Technologies  Discrete & RF Semiconductors
! BAT17
! IAC = 0.2 mA
! One-Port S-Parameters
# Hz  S  MA  R  50
!f									S11
!Hz							Mag  Ang
309850000		0.5861	-8.0681
409800000		0.58597	-10.6424
509750000		0.58522	-13.3061
609700000		0.58465	-15.9814
709650000		0.58793	-18.8804
809600000		0.57999	-21.7442
909550000		0.58139	-24.7784
1009500000		0.58243	-27.455
1109450000		0.58612	-30.3126
1209400000		0.5779	-32.8959
1309350000		0.57489	-36.1081
1409300000		0.57185	-39.0436
1509250000		0.56667	-42.3089
1609200000		0.56508	-45.2608
1709150000		0.57372	-47.8201
1809100000		0.57041	-51.179
1909050000		0.56186	-54.3912
2009000000		0.55257	-57.7833
2108950000		0.55898	-61.041
2208900000		0.55425	-64.4921
2308850000		0.54947	-67.9814
2408800000		0.54489	-71.4249
2508750000		0.5476	-74.6462
2608700000		0.54722	-78.3694
2708650000		0.54243	-81.9898
2808600000		0.54784	-85.7885
2908550000		0.54305	-89.6124
3008500000		0.5382	-93.2725
3108450000		0.53694	-97.313
3208400000		0.54183	-100.9803
3308350000		0.54159	-105.1529
3408300000		0.5367	-109.4491
3508250000		0.53652	-113.6267
3608200000		0.53859	-117.5069
3708150000		0.53739	-121.9323
3808100000		0.53601	-126.201
3908050000		0.53426	-130.5467
4008000000		0.5332	-135.0108
4107950000		0.53573	-139.122
4207900000		0.54441	-142.8835
4307850000		0.55164	-146.6324
4407800000		0.55196	-151.1346
4507750000		0.55473	-155.2794
4607700000		0.55925	-159.3304
4707650000		0.57155	-162.6732
4807600000		0.57568	-166.6309
4907550000		0.58423	-170.2939
5007500000		0.58992	-174.1772
5107450000		0.59629	-177.9628
5207400000		0.60564	178.5387
5307350000		0.6155	175.2287
5407300000		0.62347	171.783
5507250000		0.62989	168.2757
5607200000		0.63696	164.9953
5707150000		0.64606	161.9157
5807100000		0.65411	158.9996
5907050000		0.65956	155.8015
6007000000		0.66849	153.1449
6106950000		0.67655	150.4672
6206900000		0.68393	147.8445
6306850000		0.6894	145.0895
6406800000		0.69522	142.48
6506750000		0.70173	140.0063
6606700000		0.70778	137.5942
6706650000		0.71307	135.1356
6806600000		0.71968	132.9099
6906550000		0.72451	130.6007
7006500000		0.73121	128.4042
7106450000		0.73765	126.2931
7206400000		0.74272	124.1497
7306350000		0.74774	121.9789
!
!				Infineon Technologies AG
