! Infineon Technologies  Discrete & RF Semiconductors
! BAT17
! IAC = 0.5 mA
! One-Port S-Parameters
# Hz  S  MA  R  50
!f									S11
!Hz							Mag  Ang
309850000		0.17251	-10.0897
409800000		0.17037	-13.1326
509750000		0.17019	-16.7626
609700000		0.16856	-20.5055
709650000		0.17214	-24.7449
809600000		0.16906	-28.9096
909550000		0.171	-33.6512
1009500000		0.1688	-37.3764
1109450000		0.17141	-41.3683
1209400000		0.16575	-44.5823
1309350000		0.16603	-49.8572
1409300000		0.16546	-54.1637
1509250000		0.16208	-59.9352
1609200000		0.16238	-64.3114
1709150000		0.16598	-67.3344
1809100000		0.16599	-73.1426
1909050000		0.16144	-78.8247
2009000000		0.1592	-84.8429
2108950000		0.16581	-89.6509
2208900000		0.16801	-95.1044
2308850000		0.16882	-100.9034
2408800000		0.1723	-105.4898
2508750000		0.17734	-109.9135
2608700000		0.18296	-115.4008
2708650000		0.18563	-120.5984
2808600000		0.19457	-125.8283
2908550000		0.19921	-130.7805
3008500000		0.20057	-136.2557
3108450000		0.20838	-140.9682
3208400000		0.21675	-145.5678
3308350000		0.22673	-149.881
3408300000		0.23439	-154.8567
3508250000		0.24434	-159.0158
3608200000		0.25195	-163.4757
3708150000		0.26313	-167.6561
3808100000		0.27325	-171.2935
3908050000		0.28336	-175.0268
4008000000		0.29423	-179.1484
4107950000		0.30549	177.3821
4207900000		0.31857	174.663
4307850000		0.33094	171.955
4407800000		0.34328	168.2909
4507750000		0.3553	165.3731
4607700000		0.36749	162.3119
4707650000		0.38114	160.2157
4807600000		0.39292	157.4892
4907550000		0.40625	155.1278
5007500000		0.41885	152.5003
5107450000		0.43053	149.5836
5207400000		0.44405	147.5197
5307350000		0.457	145.4936
5407300000		0.46909	143.1932
5507250000		0.48048	140.7388
5607200000		0.49134	138.4887
5707150000		0.50326	136.4522
5807100000		0.51394	134.6105
5907050000		0.52406	132.411
6007000000		0.53491	130.7675
6106950000		0.54515	129.0021
6206900000		0.55493	127.2351
6306850000		0.5642	125.3661
6406800000		0.57324	123.5662
6506750000		0.58217	121.831
6606700000		0.59071	120.143
6706650000		0.59903	118.3876
6806600000		0.60775	116.8501
6906550000		0.61513	115.1232
7006500000		0.62346	113.504
7106450000		0.63199	112.0144
7206400000		0.63879	110.3652
7306350000		0.64597	108.7213
!
!				Infineon Technologies AG
