! Infineon Technologies  Discrete & RF Semiconductors
! BAT17
! VCA = 0.1 V
! One-Port S-Parameters
# Hz  S  MA  R  50
!f									S11
!Hz							Mag  Ang
309850000		0.9991	-5.935
409800000		0.99872	-7.8427
509750000		0.99863	-9.7588
609700000		0.99829	-11.645
709650000		0.99831	-13.6169
809600000		0.99802	-15.5555
909550000		0.99786	-17.5493
1009500000		0.99762	-19.476
1109450000		0.99714	-21.5642
1209400000		0.99649	-23.5429
1309350000		0.99587	-25.6071
1409300000		0.9948	-27.6342
1509250000		0.99378	-29.7662
1609200000		0.99252	-31.8057
1709150000		0.99118	-33.9342
1809100000		0.98975	-36.0391
1909050000		0.98832	-38.2084
2009000000		0.9869	-40.3502
2108950000		0.98553	-42.5648
2208900000		0.98446	-44.7902
2308850000		0.98327	-47.0188
2408800000		0.98257	-49.3777
2508750000		0.98204	-51.651
2608700000		0.98146	-54.081
2708650000		0.98104	-56.4865
2808600000		0.98066	-59.066
2908550000		0.98031	-61.5946
3008500000		0.97923	-64.2811
3108450000		0.97886	-67.0055
3208400000		0.97757	-69.7919
3308350000		0.9763	-72.6303
3408300000		0.97453	-75.5912
3508250000		0.97246	-78.5462
3608200000		0.97004	-81.5589
3708150000		0.96713	-84.6746
3808100000		0.96411	-87.8132
3908050000		0.96093	-90.9355
4008000000		0.9572	-94.1474
4107950000		0.95385	-97.3731
4207900000		0.95005	-100.6434
4307850000		0.94673	-103.9449
4407800000		0.94336	-107.2947
4507750000		0.94092	-110.6381
4607700000		0.93817	-114.0361
4707650000		0.93643	-117.4876
4807600000		0.93483	-120.9091
4907550000		0.93381	-124.4179
5007500000		0.93308	-127.9125
5107450000		0.93286	-131.4481
5207400000		0.93245	-135.073
5307350000		0.93256	-138.6478
5407300000		0.93213	-142.2972
5507250000		0.93227	-145.9469
5607200000		0.93164	-149.548
5707150000		0.93136	-153.2071
5807100000		0.93079	-156.7355
5907050000		0.92984	-160.3098
6007000000		0.92894	-163.8061
6106950000		0.92759	-167.271
6206900000		0.92652	-170.6744
6306850000		0.92528	-174.0059
6406800000		0.92415	-177.2917
6506750000		0.92287	179.4855
6606700000		0.92185	176.3475
6706650000		0.92103	173.2361
6806600000		0.92016	170.1862
6906550000		0.91987	167.2642
7006500000		0.91895	164.2666
7106450000		0.91921	161.3603
7206400000		0.91839	158.5215
7306350000		0.91812	155.6629
!
!				Infineon Technologies AG
