! Infineon Technologies  Discrete & RF Semiconductors
! BAT17
! IAC = 0.04 mA
! One-Port S-Parameters
# Hz  S  MA  R  50
!f									S11
!Hz							Mag  Ang
309850000		0.90463	-7.524
409800000		0.9047	-9.9781
509750000		0.90391	-12.4376
609700000		0.90397	-14.8637
709650000		0.90498	-17.4012
809600000		0.90112	-19.9687
909550000		0.90111	-22.5511
1009500000		0.90193	-25.0018
1109450000		0.9029	-27.6066
1209400000		0.8991	-30.2096
1309350000		0.89709	-32.9017
1409300000		0.89465	-35.546
1509250000		0.89227	-38.3182
1609200000		0.89018	-40.9584
1709150000		0.89277	-43.4638
1809100000		0.89038	-46.2259
1909050000		0.88627	-49.1294
2009000000		0.88149	-52.0709
2108950000		0.88285	-54.7979
2208900000		0.87974	-57.7839
2308850000		0.8768	-60.7823
2408800000		0.87297	-63.9845
2508750000		0.87369	-66.8224
2608700000		0.87269	-69.9381
2708650000		0.86977	-73.2198
2808600000		0.87168	-76.3522
2908550000		0.86811	-79.7286
3008500000		0.86532	-83.1572
3108450000		0.86318	-86.7223
3208400000		0.86444	-89.9466
3308350000		0.86177	-93.6035
3408300000		0.85684	-97.4451
3508250000		0.85408	-101.2177
3608200000		0.85307	-104.6834
3708150000		0.84894	-108.6222
3808100000		0.84412	-112.6173
3908050000		0.83914	-116.6083
4008000000		0.83482	-120.6388
4107950000		0.83268	-124.442
4207900000		0.83324	-127.9862
4307850000		0.83336	-131.6046
4407800000		0.82998	-135.7624
4507750000		0.82763	-139.8011
4607700000		0.82686	-143.7129
4707650000		0.83092	-147.1102
4807600000		0.83003	-151.1084
4907550000		0.83192	-154.8755
5007500000		0.83239	-158.8152
5107450000		0.83443	-162.5874
5207400000		0.83654	-166.3465
5307350000		0.8396	-169.9184
5407300000		0.84134	-173.6103
5507250000		0.84295	-177.3304
5607200000		0.84432	179.1276
5707150000		0.84714	175.7483
5807100000		0.84874	172.461
5907050000		0.84897	168.9462
6007000000		0.85124	165.8897
6106950000		0.85298	162.8535
6206900000		0.85456	159.888
6306850000		0.8549	156.7749
6406800000		0.85572	153.8251
6506750000		0.85702	151.0332
6606700000		0.85817	148.3017
6706650000		0.85911	145.528
6806600000		0.86079	142.9722
6906550000		0.86199	140.3977
7006500000		0.86388	137.9248
7106450000		0.86614	135.4992
7206400000		0.86735	133.1095
7306350000		0.8687	130.6716
!
!				Infineon Technologies AG
