! Infineon Technologies  Discrete & RF Semiconductors
! BAT17
! IAC = 0.7 mA
! One-Port S-Parameters
# Hz  S  MA  R  50
!f									S11
!Hz							Mag  Ang
309850000		0.01365	-149.8316
409800000		0.01716	-150.8252
509750000		0.02027	-145.4115
609700000		0.02442	-145.1589
709650000		0.02788	-136.2622
809600000		0.03275	-136.7017
909550000		0.03898	-134.6964
1009500000		0.04389	-139.9701
1109450000		0.04881	-139.7219
1209400000		0.05237	-145.3935
1309350000		0.05938	-145.7455
1409300000		0.06476	-147.912
1509250000		0.07353	-151.9848
1609200000		0.07901	-154.1851
1709150000		0.08295	-156.0267
1809100000		0.09158	-158.6196
1909050000		0.09984	-163.0652
2009000000		0.10827	-166.1016
2108950000		0.11627	-167.0263
2208900000		0.1244	-168.8647
2308850000		0.13339	-171.8113
2408800000		0.14019	-173.2366
2508750000		0.14788	-175.0904
2608700000		0.15807	-177.1617
2708650000		0.16647	-179.858
2808600000		0.17828	178.1107
2908550000		0.187	175.8295
3008500000		0.19595	172.1732
3108450000		0.20603	170.25
3208400000		0.21732	167.8512
3308350000		0.22824	166.2271
3408300000		0.23976	163.828
3508250000		0.25082	161.9489
3608200000		0.26182	159.1547
3708150000		0.27413	157.2148
3808100000		0.28484	155.4555
3908050000		0.29569	153.5705
4008000000		0.30823	151.2424
4107950000		0.32009	149.2713
4207900000		0.33175	147.6817
4307850000		0.34301	146.0887
4407800000		0.3563	143.9591
4507750000		0.36783	142.2728
4607700000		0.37986	140.3579
4707650000		0.39146	138.9899
4807600000		0.40267	137.2752
4907550000		0.41446	135.7517
5007500000		0.42611	134.0987
5107450000		0.43789	132.0018
5207400000		0.44919	130.6949
5307350000		0.46006	129.3415
5407300000		0.47092	127.7362
5507250000		0.48182	125.9879
5607200000		0.49182	124.3123
5707150000		0.50231	122.8816
5807100000		0.51148	121.5312
5907050000		0.52096	119.9408
6007000000		0.52999	118.7441
6106950000		0.53885	117.4144
6206900000		0.54762	116.0754
6306850000		0.55613	114.672
6406800000		0.56439	113.2952
6506750000		0.57252	111.9298
6606700000		0.58026	110.6098
6706650000		0.58803	109.2213
6806600000		0.59575	108.015
6906550000		0.6029	106.6025
7006500000		0.61029	105.2569
7106450000		0.61797	104.0701
7206400000		0.62416	102.6651
7306350000		0.63094	101.2925
!
!				Infineon Technologies AG
