! Infineon Technologies  Discrete & RF Semiconductors
! BAT17
! IAC = 0.05 mA
! One-Port S-Parameters
# Hz  S  MA  R  50
!f									S11
!Hz							Mag  Ang
309850000		0.88206	-7.5747
409800000		0.88223	-10.0503
509750000		0.88142	-12.5287
609700000		0.88146	-14.9793
709650000		0.88257	-17.5123
809600000		0.87824	-20.1393
909550000		0.87824	-22.7551
1009500000		0.87938	-25.2297
1109450000		0.88066	-27.8568
1209400000		0.87632	-30.4728
1309350000		0.87417	-33.1994
1409300000		0.8715	-35.8702
1509250000		0.86891	-38.6759
1609200000		0.86682	-41.3397
1709150000		0.87026	-43.855
1809100000		0.86772	-46.6536
1909050000		0.8632	-49.5891
2009000000		0.85776	-52.5649
2108950000		0.85981	-55.3248
2208900000		0.85639	-58.3433
2308850000		0.85314	-61.3768
2408800000		0.8488	-64.5679
2508750000		0.85004	-67.4764
2608700000		0.84918	-70.6612
2708650000		0.84576	-73.9401
2808600000		0.84806	-77.0808
2908550000		0.84443	-80.5607
3008500000		0.84131	-83.9716
3108450000		0.83903	-87.5705
3208400000		0.8409	-90.8285
3308350000		0.83827	-94.5179
3408300000		0.83309	-98.4243
3508250000		0.83031	-102.1929
3608200000		0.82972	-105.6891
3708150000		0.82569	-109.662
3808100000		0.82086	-113.6809
3908050000		0.81566	-117.6967
4008000000		0.81141	-121.7608
4107950000		0.80962	-125.5896
4207900000		0.81103	-129.1547
4307850000		0.81177	-132.79
4407800000		0.80833	-136.9747
4507750000		0.80618	-141.0307
4607700000		0.80572	-144.9545
4707650000		0.81067	-148.3567
4807600000		0.80996	-152.3597
4907550000		0.81233	-156.1282
5007500000		0.81306	-160.0706
5107450000		0.81543	-163.8469
5207400000		0.81809	-167.5969
5307350000		0.82167	-171.1613
5407300000		0.82393	-174.839
5507250000		0.82579	-178.551
5607200000		0.82753	177.9222
5707150000		0.8309	174.5577
5807100000		0.83311	171.2937
5907050000		0.83359	167.7994
6007000000		0.83647	164.7646
6106950000		0.83876	161.7531
6206900000		0.84094	158.8109
6306850000		0.84156	155.7243
6406800000		0.84274	152.7967
6506750000		0.84447	150.0298
6606700000		0.84607	147.3201
6706650000		0.84731	144.5706
6806600000		0.84937	142.0389
6906550000		0.8509	139.4838
7006500000		0.85329	137.03
7106450000		0.85582	134.6299
7206400000		0.85731	132.2569
7306350000		0.85903	129.8405
!
!				Infineon Technologies AG
