! Infineon Technologies  Discrete & RF Semiconductors
! BAT17
! VCA = 0.8 V
! One-Port S-Parameters
# Hz  S  MA  R  50
!f									S11
!Hz							Mag  Ang
309850000		0.99925	-4.896
409800000		0.99889	-6.4646
509750000		0.99884	-8.0428
609700000		0.99865	-9.587
709650000		0.99865	-11.2143
809600000		0.99852	-12.8044
909550000		0.99847	-14.4485
1009500000		0.99828	-16.019
1109450000		0.99805	-17.7464
1209400000		0.99759	-19.3655
1309350000		0.99714	-21.0597
1409300000		0.99637	-22.7155
1509250000		0.99555	-24.4632
1609200000		0.99456	-26.1255
1709150000		0.99347	-27.8599
1809100000		0.99233	-29.5682
1909050000		0.99117	-31.3263
2009000000		0.99004	-33.064
2108950000		0.9889	-34.8453
2208900000		0.98803	-36.6444
2308850000		0.98705	-38.4239
2408800000		0.98674	-40.3338
2508750000		0.98646	-42.1313
2608700000		0.98618	-44.084
2708650000		0.98627	-45.9931
2808600000		0.98621	-48.0618
2908550000		0.98609	-50.0437
3008500000		0.98586	-52.1957
3108450000		0.98639	-54.4228
3208400000		0.98569	-56.6554
3308350000		0.98518	-58.9436
3408300000		0.9843	-61.3317
3508250000		0.98336	-63.7743
3608200000		0.98156	-66.1803
3708150000		0.97956	-68.7343
3808100000		0.97722	-71.3157
3908050000		0.97498	-73.8927
4008000000		0.97195	-76.54
4107950000		0.96903	-79.2208
4207900000		0.96565	-81.9285
4307850000		0.96254	-84.6899
4407800000		0.95925	-87.5004
4507750000		0.95665	-90.3325
4607700000		0.95374	-93.1985
4707650000		0.95166	-96.1504
4807600000		0.94958	-99.0865
4907550000		0.94813	-102.1159
5007500000		0.94696	-105.1667
5107450000		0.94622	-108.2503
5207400000		0.94554	-111.4654
5307350000		0.94533	-114.6732
5407300000		0.94481	-117.9554
5507250000		0.94453	-121.3292
5607200000		0.94408	-124.6561
5707150000		0.94363	-128.1127
5807100000		0.94313	-131.4816
5907050000		0.94209	-134.9246
6007000000		0.94121	-138.3532
6106950000		0.93983	-141.7771
6206900000		0.93865	-145.2051
6306850000		0.93717	-148.5746
6406800000		0.93577	-151.9521
6506750000		0.9341	-155.2843
6606700000		0.93262	-158.5731
6706650000		0.93129	-161.8421
6806600000		0.9299	-165.1027
6906550000		0.92907	-168.2357
7006500000		0.92762	-171.4195
7106450000		0.92724	-174.5967
7206400000		0.92613	-177.6523
7306350000		0.9253	179.218
!
!				Infineon Technologies AG
