! Infineon Technologies  Discrete & RF Semiconductors
! BAT17
! IAC = 3 mA
! One-Port S-Parameters
# Hz  S  MA  R  50
!f									S11
!Hz							Mag  Ang
309850000		0.61208	173.8205
409800000		0.61215	171.9351
509750000		0.61177	170.0852
609700000		0.61193	168.1758
709650000		0.61165	166.4249
809600000		0.61151	164.5973
909550000		0.61205	162.8481
1009500000		0.61315	160.974
1109450000		0.61431	159.2811
1209400000		0.61501	157.464
1309350000		0.61607	155.731
1409300000		0.61748	153.9415
1509250000		0.61928	152.2514
1609200000		0.62081	150.4616
1709150000		0.6234	148.743
1809100000		0.6253	147.0155
1909050000		0.62772	145.3269
2009000000		0.6296	143.5988
2108950000		0.6325	141.926
2208900000		0.6343	140.2856
2308850000		0.63677	138.6344
2408800000		0.63883	137.0358
2508750000		0.64133	135.3805
2608700000		0.64381	133.8567
2708650000		0.64636	132.197
2808600000		0.64935	130.7081
2908550000		0.65127	129.1672
3008500000		0.65479	127.6281
3108450000		0.65706	126.1653
3208400000		0.66045	124.7523
3308350000		0.66308	123.3499
3408300000		0.6662	122.0192
3508250000		0.66907	120.6805
3608200000		0.67299	119.2994
3708150000		0.67647	118.0259
3808100000		0.6798	116.7464
3908050000		0.68283	115.4695
4008000000		0.68691	114.1925
4107950000		0.69044	112.9692
4207900000		0.69468	111.7127
4307850000		0.6985	110.518
4407800000		0.70294	109.3233
4507750000		0.70656	108.1547
4607700000		0.7108	106.933
4707650000		0.71452	105.8056
4807600000		0.71793	104.6134
4907550000		0.72139	103.4658
5007500000		0.72446	102.3243
5107450000		0.72785	101.1351
5207400000		0.73039	100.0467
5307350000		0.73263	98.959
5407300000		0.73501	97.8483
5507250000		0.73747	96.858
5607200000		0.7394	95.7757
5707150000		0.74156	94.8289
5807100000		0.74295	93.8314
5907050000		0.74487	92.8493
6007000000		0.74652	91.9235
6106950000		0.74825	90.9618
6206900000		0.75009	90.0689
6306850000		0.75187	89.1085
6406800000		0.75365	88.1984
6506750000		0.75551	87.2455
6606700000		0.75727	86.332
6706650000		0.75915	85.3737
6806600000		0.76091	84.4817
6906550000		0.76268	83.5329
7006500000		0.76454	82.4741
7106450000		0.76652	81.5867
7206400000		0.76771	80.4994
7306350000		0.76939	79.5079
!
!				Infineon Technologies AG
