! Infineon Technologies  Discrete & RF Semiconductors
! BAT17
! IAC = 0.3 mA
! One-Port S-Parameters
# Hz  S  MA  R  50
!f									S11
!Hz							Mag  Ang
309850000		0.42539	-8.4192
409800000		0.4244	-11.0331
509750000		0.42396	-13.8561
609700000		0.42289	-16.745
709650000		0.42646	-19.8942
809600000		0.4195	-22.9749
909550000		0.42124	-26.332
1009500000		0.42084	-29.1246
1109450000		0.4244	-32.1737
1209400000		0.41635	-34.7455
1309350000		0.41401	-38.3956
1409300000		0.41152	-41.5195
1509250000		0.40581	-45.1981
1609200000		0.40474	-48.4266
1709150000		0.41231	-51.0231
1809100000		0.40927	-54.8527
1909050000		0.4006	-58.3818
2009000000		0.39212	-62.2064
2108950000		0.39852	-65.8209
2208900000		0.39512	-69.713
2308850000		0.39077	-73.5983
2408800000		0.38842	-77.3344
2508750000		0.39127	-80.8568
2608700000		0.39178	-85.0594
2708650000		0.38826	-89.0421
2808600000		0.39384	-93.3579
2908550000		0.39116	-97.5515
3008500000		0.38651	-101.5516
3108450000		0.38754	-106.008
3208400000		0.39253	-110.0953
3308350000		0.3951	-114.5617
3408300000		0.3933	-119.2881
3508250000		0.39616	-123.8201
3608200000		0.39905	-128.0262
3708150000		0.40172	-132.7877
3808100000		0.4045	-137.2151
3908050000		0.40676	-141.6775
4008000000		0.40978	-146.472
4107950000		0.41544	-150.7099
4207900000		0.42646	-154.418
4307850000		0.43605	-158.0538
4407800000		0.4409	-162.6553
4507750000		0.44792	-166.7208
4607700000		0.45566	-170.6678
4707650000		0.46945	-173.7637
4807600000		0.47719	-177.5223
4907550000		0.48855	179.0777
5007500000		0.49765	175.4238
5107450000		0.50638	171.7724
5207400000		0.51861	168.6409
5307350000		0.53076	165.6715
5407300000		0.54122	162.5221
5507250000		0.55018	159.2745
5607200000		0.55946	156.2724
5707150000		0.57051	153.4931
5807100000		0.58057	150.9067
5907050000		0.58856	147.9923
6007000000		0.59925	145.6638
6106950000		0.60906	143.2792
6206900000		0.61818	140.9273
6306850000		0.62589	138.4482
6406800000		0.63361	136.0959
6506750000		0.64177	133.8589
6606700000		0.64944	131.6819
6706650000		0.65649	129.4464
6806600000		0.66458	127.4535
6906550000		0.67087	125.3307
7006500000		0.67881	123.3293
7106450000		0.68666	121.4291
7206400000		0.69288	119.4482
7306350000		0.69922	117.4546
!
!				Infineon Technologies AG
