! Infineon Technologies  Discrete & RF Semiconductors
! BAT17
! IAC = 0.8 mA
! One-Port S-Parameters
# Hz  S  MA  R  50
!f									S11
!Hz							Mag  Ang
309850000		0.08354	178.4462
409800000		0.08633	177.7238
509750000		0.08751	177.9569
609700000		0.09009	177.7063
709650000		0.08956	179.1492
809600000		0.09165	179.5401
909550000		0.09443	-179.1665
1009500000		0.0995	179.583
1109450000		0.10235	179.8601
1209400000		0.1065	177.8917
1309350000		0.11057	178.4538
1409300000		0.11474	177.7747
1509250000		0.12257	176.9339
1609200000		0.12715	175.9175
1709150000		0.13119	174.5677
1809100000		0.13842	173.7791
1909050000		0.14672	171.9011
2009000000		0.15409	170.6227
2108950000		0.16061	170.0924
2208900000		0.1672	169.2505
2308850000		0.17555	167.7096
2408800000		0.18103	166.811
2508750000		0.18783	165.6007
2608700000		0.19682	164.4511
2708650000		0.20472	162.6794
2808600000		0.21536	161.4261
2908550000		0.22315	159.8873
3008500000		0.23265	157.2464
3108450000		0.24154	155.9351
3208400000		0.25225	154.2263
3308350000		0.26171	153.0687
3408300000		0.27242	151.4023
3508250000		0.28227	150.0356
3608200000		0.29329	147.8006
3708150000		0.30429	146.4188
3808100000		0.31389	145.0837
3908050000		0.32367	143.644
4008000000		0.33542	141.8253
4107950000		0.34642	140.2597
4207900000		0.35704	138.9136
4307850000		0.36711	137.657
4407800000		0.37971	135.8957
4507750000		0.3902	134.523
4607700000		0.40143	132.9237
4707650000		0.41188	131.7328
4807600000		0.42218	130.2943
4907550000		0.43276	129.0177
5007500000		0.44342	127.6005
5107450000		0.45463	125.7847
5207400000		0.46463	124.656
5307350000		0.47428	123.4806
5407300000		0.48418	122.0754
5507250000		0.49439	120.5626
5607200000		0.50351	119.1044
5707150000		0.51315	117.8244
5807100000		0.52131	116.6474
5907050000		0.53019	115.2209
6007000000		0.53828	114.1484
6106950000		0.54635	112.9519
6206900000		0.55436	111.7557
6306850000		0.56221	110.4968
6406800000		0.56987	109.2622
6506750000		0.57735	108.0195
6606700000		0.58455	106.8217
6706650000		0.59176	105.5593
6806600000		0.59883	104.4574
6906550000		0.60556	103.1643
7006500000		0.61238	101.9081
7106450000		0.6195	100.821
7206400000		0.62521	99.5014
7306350000		0.63161	98.2262
!
!				Infineon Technologies AG
