! Infineon Technologies  Discrete & RF Semiconductors
! BAT17
! VCA = 0.9 V
! One-Port S-Parameters
# Hz  S  MA  R  50
!f									S11
!Hz							Mag  Ang
309850000		0.99923	-4.8177
409800000		0.99887	-6.3632
509750000		0.99881	-7.9183
609700000		0.99864	-9.4404
709650000		0.99872	-11.0405
809600000		0.99855	-12.6039
909550000		0.99853	-14.2247
1009500000		0.99834	-15.7682
1109450000		0.9981	-17.4688
1209400000		0.99769	-19.0623
1309350000		0.9972	-20.73
1409300000		0.99641	-22.3549
1509250000		0.99566	-24.0772
1609200000		0.9947	-25.7114
1709150000		0.99365	-27.4167
1809100000		0.99243	-29.0999
1909050000		0.99131	-30.8251
2009000000		0.99016	-32.5343
2108950000		0.98913	-34.2822
2208900000		0.98823	-36.0528
2308850000		0.98731	-37.7978
2408800000		0.98695	-39.675
2508750000		0.98654	-41.4042
2608700000		0.98644	-43.3566
2708650000		0.9865	-45.2307
2808600000		0.98649	-47.2595
2908550000		0.98665	-49.2411
3008500000		0.98652	-51.3466
3108450000		0.98681	-53.5027
3208400000		0.98618	-55.6948
3308350000		0.98567	-57.9395
3408300000		0.9849	-60.282
3508250000		0.98405	-62.6851
3608200000		0.9822	-65.0154
3708150000		0.98038	-67.5563
3808100000		0.97805	-70.0964
3908050000		0.97587	-72.6281
4008000000		0.9729	-75.2272
4107950000		0.97002	-77.8654
4207900000		0.96667	-80.5277
4307850000		0.96364	-83.2428
4407800000		0.96037	-86.0072
4507750000		0.95781	-88.7927
4607700000		0.95489	-91.6129
4707650000		0.95284	-94.5213
4807600000		0.95073	-97.4104
4907550000		0.94921	-100.3929
5007500000		0.94799	-103.3996
5107450000		0.94727	-106.4409
5207400000		0.94659	-109.611
5307350000		0.9463	-112.7805
5407300000		0.9458	-116.0184
5507250000		0.94551	-119.3584
5607200000		0.94504	-122.6501
5707150000		0.94459	-126.0754
5807100000		0.94412	-129.4155
5907050000		0.94313	-132.8331
6007000000		0.94226	-136.2396
6106950000		0.94088	-139.6456
6206900000		0.93967	-143.0594
6306850000		0.93819	-146.419
6406800000		0.93683	-149.7877
6506750000		0.93513	-153.1174
6606700000		0.93364	-156.4034
6706650000		0.93224	-159.6716
6806600000		0.93089	-162.9352
6906550000		0.92997	-166.0764
7006500000		0.92848	-169.2636
7106450000		0.92806	-172.4517
7206400000		0.92694	-175.5164
7306350000		0.92603	-178.6608
!
!				Infineon Technologies AG
