! Infineon Technologies  Discrete & RF Semiconductors
! BAT17
! IAC = 0.03 mA
! One-Port S-Parameters
# Hz  S  MA  R  50
!f									S11
!Hz							Mag  Ang
309850000		0.92776	-7.4973
409800000		0.92755	-9.889
509750000		0.92673	-12.292
609700000		0.9268	-14.7208
709650000		0.92758	-17.2214
809600000		0.92443	-19.7587
909550000		0.92428	-22.3074
1009500000		0.9249	-24.73
1109450000		0.92547	-27.3056
1209400000		0.92234	-29.8876
1309350000		0.92047	-32.5434
1409300000		0.91821	-35.1566
1509250000		0.91609	-37.894
1609200000		0.91403	-40.5026
1709150000		0.91566	-42.9915
1809100000		0.91333	-45.7134
1909050000		0.90976	-48.582
2009000000		0.90563	-51.4849
2108950000		0.90637	-54.1741
2208900000		0.90356	-57.1199
2308850000		0.9009	-60.0805
2408800000		0.89741	-63.2106
2508750000		0.898	-66.0553
2608700000		0.89708	-69.1577
2708650000		0.89438	-72.3629
2808600000		0.89573	-75.4548
2908550000		0.89273	-78.8282
3008500000		0.88997	-82.1985
3108450000		0.88795	-85.7184
3208400000		0.88854	-88.9098
3308350000		0.88595	-92.5262
3408300000		0.88142	-96.3641
3508250000		0.87851	-100.0662
3608200000		0.877	-103.4956
3708150000		0.87299	-107.3944
3808100000		0.86828	-111.3653
3908050000		0.86335	-115.3268
4008000000		0.85892	-119.2812
4107950000		0.85659	-123.0935
4207900000		0.85626	-126.6107
4307850000		0.85571	-130.2105
4407800000		0.85232	-134.3381
4507750000		0.84991	-138.3634
4607700000		0.84883	-142.2531
4707650000		0.85187	-145.6438
4807600000		0.85079	-149.637
4907550000		0.85214	-153.4009
5007500000		0.85247	-157.3372
5107450000		0.85421	-161.0985
5207400000		0.85578	-164.8681
5307350000		0.85824	-168.4523
5407300000		0.85957	-172.1554
5507250000		0.86084	-175.8849
5607200000		0.86171	-179.4411
5707150000		0.86396	177.1594
5807100000		0.86517	173.8502
5907050000		0.86504	170.3135
6007000000		0.86658	167.2267
6106950000		0.86771	164.167
6206900000		0.86884	161.1747
6306850000		0.86882	158.0303
6406800000		0.86923	155.0541
6506750000		0.8701	152.2398
6606700000		0.8709	149.4796
6706650000		0.87147	146.6789
6806600000		0.87262	144.0953
6906550000		0.8736	141.496
7006500000		0.8751	138.9992
7106450000		0.87694	136.5475
7206400000		0.87779	134.1349
7306350000		0.87885	131.6709
!
!				Infineon Technologies AG
