! Infineon Technologies  Discrete & RF Semiconductors
! BAT17
! IAC = 0.01 mA
! One-Port S-Parameters
# Hz  S  MA  R  50
!f									S11
!Hz							Mag  Ang
309850000		0.97471	-7.2315
409800000		0.97441	-9.5637
509750000		0.974	-11.9123
609700000		0.97376	-14.2255
709650000		0.9739	-16.6182
809600000		0.97247	-19.0537
909550000		0.97217	-21.4899
1009500000		0.97217	-23.8247
1109450000		0.97188	-26.3105
1209400000		0.97016	-28.7988
1309350000		0.96882	-31.3482
1409300000		0.96714	-33.8626
1509250000		0.96549	-36.4876
1609200000		0.96367	-39.0049
1709150000		0.9631	-41.4294
1809100000		0.96107	-44.0352
1909050000		0.95867	-46.7836
2009000000		0.95599	-49.5592
2108950000		0.95516	-52.1449
2208900000		0.95322	-54.9696
2308850000		0.95117	-57.8033
2408800000		0.94911	-60.8542
2508750000		0.94875	-63.5466
2608700000		0.94776	-66.5207
2708650000		0.94611	-69.5984
2808600000		0.94618	-72.5742
2908550000		0.94431	-75.8125
3008500000		0.94196	-79.0816
3108450000		0.94045	-82.4792
3208400000		0.93927	-85.5327
3308350000		0.93714	-89.0529
3408300000		0.93352	-92.7361
3508250000		0.93083	-96.3639
3608200000		0.92817	-99.6801
3708150000		0.92432	-103.4563
3808100000		0.92012	-107.3211
3908050000		0.91576	-111.1813
4008000000		0.91152	-115.052
4107950000		0.90822	-118.6996
4207900000		0.90605	-122.1839
4307850000		0.90384	-125.7338
4407800000		0.90065	-129.7484
4507750000		0.89826	-133.7099
4607700000		0.89649	-137.5379
4707650000		0.89707	-140.9197
4807600000		0.89593	-144.8793
4907550000		0.89617	-148.6328
5007500000		0.89618	-152.5418
5107450000		0.89713	-156.2619
5207400000		0.89763	-160.0549
5307350000		0.89885	-163.6703
5407300000		0.89917	-167.402
5507250000		0.89988	-171.1484
5607200000		0.89989	-174.74
5707150000		0.90078	-178.1918
5807100000		0.90078	178.4246
5907050000		0.90017	174.8282
6007000000		0.90031	171.6552
6106950000		0.90007	168.5164
6206900000		0.90003	165.4482
6306850000		0.89939	162.2256
6406800000		0.89898	159.1615
6506750000		0.89878	156.2695
6606700000		0.8987	153.4267
6706650000		0.89862	150.5424
6806600000		0.89877	147.8666
6906550000		0.8992	145.1948
7006500000		0.89953	142.626
7106450000		0.90058	140.0829
7206400000		0.90063	137.6017
7306350000		0.90104	135.0646
!
!				Infineon Technologies AG
