! Infineon Technologies  Discrete & RF Semiconductors
! BAT17
! VCA = 0.5 V
! One-Port S-Parameters
# Hz  S  MA  R  50
!f									S11
!Hz							Mag  Ang
309850000		0.9994	-5.2311
409800000		0.99877	-6.8636
509750000		0.99873	-8.5389
609700000		0.99852	-10.1845
709650000		0.99855	-11.9088
809600000		0.99816	-13.5663
909550000		0.99835	-15.3473
1009500000		0.99807	-17.0211
1109450000		0.99775	-18.8505
1209400000		0.99729	-20.5738
1309350000		0.99685	-22.3756
1409300000		0.99597	-24.1359
1509250000		0.99509	-25.998
1609200000		0.99402	-27.768
1709150000		0.99284	-29.6156
1809100000		0.99164	-31.4411
1909050000		0.99035	-33.3175
2009000000		0.98898	-35.1388
2108950000		0.98802	-37.0782
2208900000		0.98714	-39.0038
2308850000		0.98607	-40.9124
2408800000		0.98559	-42.9485
2508750000		0.98533	-44.8867
2608700000		0.98492	-46.9812
2708650000		0.98468	-49.0004
2808600000		0.98456	-51.2178
2908550000		0.98475	-53.4201
3008500000		0.98434	-55.7269
3108450000		0.98442	-58.0772
3208400000		0.98338	-60.4442
3308350000		0.98281	-62.9271
3408300000		0.98171	-65.4865
3508250000		0.98055	-68.0929
3608200000		0.97849	-70.6729
3708150000		0.97616	-73.3982
3808100000		0.97361	-76.1529
3908050000		0.97109	-78.8963
4008000000		0.96789	-81.7201
4107950000		0.96474	-84.5716
4207900000		0.96119	-87.458
4307850000		0.95805	-90.3941
4407800000		0.95471	-93.38
4507750000		0.95206	-96.3794
4607700000		0.9492	-99.4242
4707650000		0.94719	-102.5438
4807600000		0.94519	-105.6471
4907550000		0.94381	-108.841
5007500000		0.94271	-112.051
5107450000		0.94212	-115.2987
5207400000		0.94148	-118.6659
5307350000		0.94133	-122.017
5407300000		0.94081	-125.4443
5507250000		0.94065	-128.9387
5607200000		0.94012	-132.3831
5707150000		0.93971	-135.9394
5807100000		0.93914	-139.3943
5907050000		0.93813	-142.9159
6007000000		0.93725	-146.4026
6106950000		0.93579	-149.8762
6206900000		0.9346	-153.3317
6306850000		0.93315	-156.7282
6406800000		0.93185	-160.1101
6506750000		0.93029	-163.4423
6606700000		0.92888	-166.7151
6706650000		0.92767	-169.9627
6806600000		0.92647	-173.1864
6906550000		0.92578	-176.2774
7006500000		0.92449	-179.4274
7106450000		0.92429	177.4588
7206400000		0.92333	174.4482
7306350000		0.92261	171.3816
!
!				Infineon Technologies AG
