! Infineon Technologies  Discrete & RF Semiconductors
! BAT17
! IAC = 0.4 mA
! One-Port S-Parameters
# Hz  S  MA  R  50
!f									S11
!Hz							Mag  Ang
309850000		0.28866	-8.9684
409800000		0.28697	-11.6994
509750000		0.28667	-14.7784
609700000		0.28517	-17.9512
709650000		0.28873	-21.4762
809600000		0.28361	-24.9144
909550000		0.28544	-28.7471
1009500000		0.28386	-31.8418
1109450000		0.28689	-35.201
1209400000		0.27982	-37.9075
1309350000		0.27849	-42.1077
1409300000		0.27687	-45.6417
1509250000		0.27171	-49.9943
1609200000		0.27108	-53.5866
1709150000		0.2765	-56.3068
1809100000		0.27442	-60.841
1909050000		0.26702	-65.0217
2009000000		0.26089	-69.6084
2108950000		0.26701	-73.7674
2208900000		0.26577	-78.2799
2308850000		0.26316	-82.9027
2408800000		0.26347	-87.0703
2508750000		0.26683	-91.0278
2608700000		0.26917	-95.9036
2708650000		0.26812	-100.4694
2808600000		0.27457	-105.4019
2908550000		0.27503	-110.0581
3008500000		0.27248	-114.8177
3108450000		0.27657	-119.6474
3208400000		0.28251	-124.1872
3308350000		0.28886	-128.9437
3408300000		0.29153	-134.1031
3508250000		0.29794	-138.7398
3608200000		0.30272	-143.3014
3708150000		0.31001	-148.1463
3808100000		0.31698	-152.4734
3908050000		0.32376	-156.888
4008000000		0.3311	-161.6144
4107950000		0.33994	-165.7007
4207900000		0.35238	-169.0325
4307850000		0.364	-172.3903
4407800000		0.37328	-176.7373
4507750000		0.38341	179.6792
4607700000		0.39398	176.0334
4707650000		0.40819	173.3728
4807600000		0.41866	170.0471
4907550000		0.43161	167.1144
5007500000		0.44313	163.9092
5107450000		0.45371	160.5601
5207400000		0.4673	157.9453
5307350000		0.48042	155.4408
5407300000		0.49217	152.6986
5507250000		0.50282	149.8212
5607200000		0.51336	147.1868
5707150000		0.52524	144.7755
5807100000		0.53607	142.5696
5907050000		0.54558	140.0074
6007000000		0.55681	138.0361
6106950000		0.56721	135.9715
6206900000		0.57699	133.9189
6306850000		0.58591	131.7471
6406800000		0.59464	129.6756
6506750000		0.60354	127.6941
6606700000		0.61194	125.7707
6706650000		0.61996	123.7783
6806600000		0.6287	122.0244
6906550000		0.63579	120.103
7006500000		0.64416	118.3008
7106450000		0.65266	116.6139
7206400000		0.65938	114.8047
7306350000		0.6664	112.9913
!
!				Infineon Technologies AG
