! Infineon Technologies  Discrete & RF Semiconductors
! BAT17
! VCA = 2 V
! One-Port S-Parameters
# Hz  S  MA  R  50
!f									S11
!Hz							Mag  Ang
309850000		0.99954	-4.401
409800000		0.99895	-5.7665
509750000		0.99892	-7.1739
609700000		0.99877	-8.5488
709650000		0.99881	-9.9985
809600000		0.99853	-11.3819
909550000		0.99872	-12.8839
1009500000		0.99857	-14.2765
1109450000		0.99836	-15.8182
1209400000		0.99802	-17.2566
1309350000		0.99765	-18.7664
1409300000		0.99673	-20.1997
1509250000		0.99627	-21.7898
1609200000		0.99544	-23.2588
1709150000		0.99438	-24.7918
1809100000		0.99328	-26.3056
1909050000		0.9922	-27.8549
2009000000		0.99116	-29.388
2108950000		0.9902	-30.9508
2208900000		0.98942	-32.5383
2308850000		0.98851	-34.0863
2408800000		0.98828	-35.7665
2508750000		0.98818	-37.3277
2608700000		0.98797	-39.0368
2708650000		0.9882	-40.694
2808600000		0.98823	-42.4986
2908550000		0.98858	-44.2553
3008500000		0.98864	-46.1223
3108450000		0.98893	-48.0044
3208400000		0.9888	-49.9849
3308350000		0.98865	-51.9796
3408300000		0.98815	-54.0635
3508250000		0.98766	-56.2095
3608200000		0.98638	-58.3031
3708150000		0.98473	-60.5462
3808100000		0.9828	-62.819
3908050000		0.98101	-65.0813
4008000000		0.97839	-67.4004
4107950000		0.97576	-69.7608
4207900000		0.97272	-72.1393
4307850000		0.96993	-74.5723
4407800000		0.9668	-77.0437
4507750000		0.96428	-79.5497
4607700000		0.96145	-82.0755
4707650000		0.95932	-84.6898
4807600000		0.95718	-87.2916
4907550000		0.95558	-89.9768
5007500000		0.95422	-92.6975
5107450000		0.95339	-95.4399
5207400000		0.95263	-98.3184
5307350000		0.9522	-101.2113
5407300000		0.9517	-104.1632
5507250000		0.95134	-107.2467
5607200000		0.95103	-110.2795
5707150000		0.95049	-113.4683
5807100000		0.95021	-116.5962
5907050000		0.94932	-119.801
6007000000		0.94856	-123.0304
6106950000		0.94729	-126.2653
6206900000		0.94619	-129.5425
6306850000		0.94481	-132.7781
6406800000		0.94341	-136.0463
6506750000		0.94172	-139.2875
6606700000		0.94014	-142.5169
6706650000		0.93864	-145.7313
6806600000		0.93709	-148.9717
6906550000		0.93597	-152.1043
7006500000		0.93432	-155.2653
7106450000		0.93355	-158.4802
7206400000		0.93231	-161.5531
7306350000		0.93122	-164.7344
!
!				Infineon Technologies AG
