! Infineon Technologies  Discrete & RF Semiconductors
! BAT17
! IAC = 0.08 mA
! One-Port S-Parameters
# Hz  S  MA  R  50
!f									S11
!Hz							Mag  Ang
309850000		0.81695	-7.7207
409800000		0.81699	-10.2041
509750000		0.81609	-12.7281
609700000		0.81604	-15.2063
709650000		0.81812	-17.8825
809600000		0.81208	-20.5372
909550000		0.81244	-23.2423
1009500000		0.81397	-25.7677
1109450000		0.81612	-28.4513
1209400000		0.8104	-31.0868
1309350000		0.80782	-33.9038
1409300000		0.80487	-36.6382
1509250000		0.80153	-39.5343
1609200000		0.79944	-42.2574
1709150000		0.805	-44.7969
1809100000		0.80217	-47.7041
1909050000		0.79644	-50.703
2009000000		0.78954	-53.7608
2108950000		0.79321	-56.6208
2208900000		0.78906	-59.7254
2308850000		0.78523	-62.8462
2408800000		0.78025	-66.131
2508750000		0.78199	-69.077
2608700000		0.7811	-72.335
2708650000		0.7771	-75.7222
2808600000		0.78075	-79.016
2908550000		0.7761	-82.5398
3008500000		0.7725	-85.9941
3108450000		0.77011	-89.6824
3208400000		0.77341	-93.0322
3308350000		0.7709	-96.8114
3408300000		0.76505	-100.755
3508250000		0.76268	-104.6357
3608200000		0.76309	-108.2143
3708150000		0.75925	-112.2774
3808100000		0.75451	-116.3492
3908050000		0.74956	-120.4246
4008000000		0.7456	-124.5747
4107950000		0.74464	-128.4661
4207900000		0.74817	-132.0897
4307850000		0.75076	-135.7615
4407800000		0.74753	-140.0165
4507750000		0.74593	-144.1026
4607700000		0.74645	-148.0651
4707650000		0.75382	-151.4814
4807600000		0.75373	-155.4848
4907550000		0.75758	-159.2502
5007500000		0.75907	-163.1946
5107450000		0.76235	-166.9935
5207400000		0.76649	-170.7109
5307350000		0.77164	-174.2394
5407300000		0.77521	-177.8831
5507250000		0.77797	178.4345
5607200000		0.78099	174.9468
5707150000		0.78585	171.6288
5807100000		0.78949	168.4245
5907050000		0.79101	164.9893
6007000000		0.79551	162.0215
6106950000		0.79933	159.0748
6206900000		0.80284	156.1913
6306850000		0.80451	153.1706
6406800000		0.80681	150.3077
6506750000		0.80976	147.599
6606700000		0.81236	144.9514
6706650000		0.81458	142.263
6806600000		0.81785	139.7937
6906550000		0.82007	137.2922
7006500000		0.8236	134.8905
7106450000		0.8272	132.5534
7206400000		0.82967	130.2282
7306350000		0.83213	127.866
!
!				Infineon Technologies AG
