! Infineon Technologies  Discrete & RF Semiconductors
! BAT17
! IAC = 0.09 mA
! One-Port S-Parameters
# Hz  S  MA  R  50
!f									S11
!Hz							Mag  Ang
309850000		0.7957	-7.7143
409800000		0.79602	-10.2457
509750000		0.79506	-12.7812
609700000		0.79516	-15.3119
709650000		0.79733	-17.9768
809600000		0.79092	-20.6506
909550000		0.79133	-23.3819
1009500000		0.79296	-25.9241
1109450000		0.79534	-28.6242
1209400000		0.78924	-31.258
1309350000		0.78651	-34.1071
1409300000		0.78344	-36.8581
1509250000		0.77999	-39.7859
1609200000		0.77789	-42.5269
1709150000		0.78401	-45.069
1809100000		0.78113	-48.011
1909050000		0.77497	-51.0287
2009000000		0.76767	-54.112
2108950000		0.77175	-57.0052
2208900000		0.76745	-60.1365
2308850000		0.76341	-63.283
2408800000		0.75818	-66.5466
2508750000		0.76027	-69.554
2608700000		0.75956	-72.8807
2708650000		0.75519	-76.2536
2808600000		0.7592	-79.5885
2908550000		0.75438	-83.1352
3008500000		0.75059	-86.6018
3108450000		0.74803	-90.2827
3208400000		0.75182	-93.6938
3308350000		0.7494	-97.5021
3408300000		0.74355	-101.5019
3508250000		0.74123	-105.3756
3608200000		0.74195	-108.9791
3708150000		0.7382	-113.0673
3808100000		0.73366	-117.1579
3908050000		0.72878	-121.2511
4008000000		0.72491	-125.4284
4107950000		0.72431	-129.3408
4207900000		0.72845	-132.9805
4307850000		0.73147	-136.6622
4407800000		0.72843	-140.9386
4507750000		0.72709	-145.0316
4607700000		0.72794	-149.0076
4707650000		0.73595	-152.4231
4807600000		0.73619	-156.427
4907550000		0.74044	-160.1907
5007500000		0.74227	-164.1355
5107450000		0.74584	-167.9371
5207400000		0.75043	-171.6435
5307350000		0.75606	-175.1603
5407300000		0.76008	-178.792
5507250000		0.76316	177.5398
5607200000		0.76651	174.0607
5707150000		0.77186	170.7594
5807100000		0.77597	167.5792
5907050000		0.77781	164.1574
6007000000		0.78279	161.2137
6106950000		0.78712	158.2858
6206900000		0.79105	155.4221
6306850000		0.79302	152.423
6406800000		0.79564	149.5823
6506750000		0.799	146.8905
6606700000		0.802	144.2587
6706650000		0.80446	141.5918
6806600000		0.80806	139.1427
6906550000		0.81059	136.654
7006500000		0.81448	134.2688
7106450000		0.8183	131.9511
7206400000		0.82107	129.6407
7306350000		0.82384	127.2942
!
!				Infineon Technologies AG
