! Infineon Technologies  Discrete & RF Semiconductors
! BAT17
! VCA = 3 V
! One-Port S-Parameters
# Hz  S  MA  R  50
!f									S11
!Hz							Mag  Ang
309850000		0.99924	-4.2028
409800000		0.99888	-5.5477
509750000		0.99894	-6.9035
609700000		0.99877	-8.2201
709650000		0.99887	-9.6172
809600000		0.99871	-10.9785
909550000		0.99876	-12.3925
1009500000		0.99864	-13.727
1109450000		0.99848	-15.2109
1209400000		0.99811	-16.593
1309350000		0.99781	-18.0438
1409300000		0.99714	-19.4511
1509250000		0.9964	-20.9462
1609200000		0.99566	-22.3578
1709150000		0.99462	-23.8283
1809100000		0.99354	-25.2794
1909050000		0.9925	-26.762
2009000000		0.99152	-28.2331
2108950000		0.99055	-29.7281
2208900000		0.98956	-31.2118
2308850000		0.98887	-32.7244
2408800000		0.98849	-34.2947
2508750000		0.98854	-35.817
2608700000		0.98842	-37.4514
2708650000		0.98861	-39.0287
2808600000		0.98879	-40.7552
2908550000		0.98894	-42.3901
3008500000		0.9893	-44.2068
3108450000		0.98989	-46.0358
3208400000		0.9896	-47.8887
3308350000		0.98926	-49.7588
3408300000		0.98914	-51.7802
3508250000		0.98877	-53.8304
3608200000		0.9876	-55.8242
3708150000		0.98609	-57.9671
3808100000		0.98434	-60.1397
3908050000		0.98266	-62.2995
4008000000		0.98014	-64.5169
4107950000		0.97765	-66.7715
4207900000		0.97477	-69.0364
4307850000		0.97195	-71.3633
4407800000		0.96894	-73.7245
4507750000		0.96646	-76.1193
4607700000		0.9637	-78.5307
4707650000		0.96151	-81.0318
4807600000		0.95938	-83.5189
4907550000		0.95776	-86.0854
5007500000		0.95637	-88.6894
5107450000		0.95547	-91.3105
5207400000		0.9547	-94.0666
5307350000		0.9543	-96.845
5407300000		0.95382	-99.6719
5507250000		0.95337	-102.6437
5607200000		0.95311	-105.5608
5707150000		0.95261	-108.6416
5807100000		0.95239	-111.6686
5907050000		0.9515	-114.7714
6007000000		0.95084	-117.9108
6106950000		0.94968	-121.0603
6206900000		0.94862	-124.2597
6306850000		0.94724	-127.4205
6406800000		0.94586	-130.6279
6506750000		0.94423	-133.8105
6606700000		0.94265	-136.9885
6706650000		0.94114	-140.1599
6806600000		0.93953	-143.3633
6906550000		0.93838	-146.4685
7006500000		0.93672	-149.5944
7106450000		0.93577	-152.7943
7206400000		0.93446	-155.8494
7306350000		0.93328	-159.0188
!
!				Infineon Technologies AG
