! Infineon Technologies  Discrete & RF Semiconductors
! BAT17
! IAC = 0.02 mA
! One-Port S-Parameters
# Hz  S  MA  R  50
!f									S11
!Hz							Mag  Ang
309850000		0.95113	-7.4107
409800000		0.9508	-9.7649
509750000		0.95023	-12.1677
609700000		0.95007	-14.5288
709650000		0.95056	-16.9872
809600000		0.94823	-19.4844
909550000		0.94799	-21.9849
1009500000		0.94829	-24.3734
1109450000		0.94843	-26.916
1209400000		0.946	-29.4624
1309350000		0.94438	-32.074
1409300000		0.94233	-34.6479
1509250000		0.94051	-37.3407
1609200000		0.93851	-39.9147
1709150000		0.93908	-42.3781
1809100000		0.93688	-45.0517
1909050000		0.93388	-47.8721
2009000000		0.93043	-50.7275
2108950000		0.93022	-53.3408
2208900000		0.92799	-56.2707
2308850000		0.92546	-59.144
2408800000		0.92282	-62.3022
2508750000		0.92288	-65.0607
2608700000		0.92194	-68.1129
2708650000		0.91973	-71.2725
2808600000		0.92048	-74.3095
2908550000		0.91799	-77.6312
3008500000		0.91536	-80.9632
3108450000		0.91354	-84.4398
3208400000		0.91339	-87.582
3308350000		0.91089	-91.1478
3408300000		0.90682	-94.9403
3508250000		0.90397	-98.5992
3608200000		0.90192	-101.9809
3708150000		0.89794	-105.8322
3808100000		0.8934	-109.7623
3908050000		0.8887	-113.6857
4008000000		0.88437	-117.6279
4107950000		0.88143	-121.3323
4207900000		0.88035	-124.856
4307850000		0.87901	-128.4351
4407800000		0.87567	-132.5189
4507750000		0.87328	-136.5189
4607700000		0.87185	-140.3858
4707650000		0.8737	-143.7704
4807600000		0.8726	-147.7534
4907550000		0.8734	-151.5177
5007500000		0.87354	-155.4421
5107450000		0.87491	-159.1868
5207400000		0.87596	-162.9671
5307350000		0.87784	-166.5666
5407300000		0.87866	-170.2843
5507250000		0.87967	-174.0214
5607200000		0.88016	-177.5931
5707150000		0.8817	178.9861
5807100000		0.88227	175.646
5907050000		0.88191	172.0824
6007000000		0.88281	168.9619
6106950000		0.88328	165.8687
6206900000		0.88385	162.8473
6306850000		0.88351	159.6691
6406800000		0.88353	156.6566
6506750000		0.88387	153.8104
6606700000		0.88429	151.0159
6706650000		0.88455	148.18
6806600000		0.88519	145.5594
6906550000		0.88598	142.9324
7006500000		0.88689	140.4069
7106450000		0.8883	137.9172
7206400000		0.88876	135.4776
7306350000		0.88953	132.986
!
!				Infineon Technologies AG
