! Infineon Technologies  Discrete & RF Semiconductors
! BAT17
! IAC = 0.06 mA
! One-Port S-Parameters
# Hz  S  MA  R  50
!f									S11
!Hz							Mag  Ang
309850000		0.86005	-7.6497
409800000		0.86011	-10.105
509750000		0.85926	-12.6022
609700000		0.85931	-15.0749
709650000		0.86086	-17.6677
809600000		0.85573	-20.2842
909550000		0.85589	-22.9316
1009500000		0.85722	-25.4245
1109450000		0.85878	-28.0708
1209400000		0.85391	-30.6983
1309350000		0.85155	-33.4556
1409300000		0.84884	-36.1495
1509250000		0.84598	-38.9877
1609200000		0.8439	-41.6712
1709150000		0.84812	-44.1988
1809100000		0.84547	-47.032
1909050000		0.84036	-49.9602
2009000000		0.83457	-53
2108950000		0.83716	-55.7908
2208900000		0.83347	-58.8378
2308850000		0.83007	-61.9047
2408800000		0.82552	-65.152
2508750000		0.82683	-68.0499
2608700000		0.82606	-71.2738
2708650000		0.82237	-74.5787
2808600000		0.82522	-77.7929
2908550000		0.82112	-81.2651
3008500000		0.81783	-84.6966
3108450000		0.81529	-88.2893
3208400000		0.81793	-91.6167
3308350000		0.81524	-95.3351
3408300000		0.80988	-99.2689
3508250000		0.807	-103.0332
3608200000		0.80693	-106.5903
3708150000		0.80291	-110.5928
3808100000		0.79805	-114.6328
3908050000		0.79295	-118.6693
4008000000		0.78877	-122.7646
4107950000		0.78723	-126.6136
4207900000		0.78938	-130.1985
4307850000		0.79084	-133.8476
4407800000		0.78743	-138.0589
4507750000		0.78538	-142.1244
4607700000		0.78529	-146.0628
4707650000		0.79113	-149.4725
4807600000		0.79058	-153.4746
4907550000		0.79348	-157.2427
5007500000		0.79449	-161.1863
5107450000		0.79714	-164.9737
5207400000		0.8003	-168.713
5307350000		0.80441	-172.2636
5407300000		0.80704	-175.932
5507250000		0.80923	-179.6331
5607200000		0.81147	176.8525
5707150000		0.81536	173.5027
5807100000		0.81802	170.2589
5907050000		0.81888	166.7845
6007000000		0.82232	163.7736
6106950000		0.82515	160.7852
6206900000		0.82773	157.8621
6306850000		0.82876	154.7971
6406800000		0.83029	151.8923
6506750000		0.83246	149.147
6606700000		0.83438	146.4608
6706650000		0.83598	143.7329
6806600000		0.83843	141.2214
6906550000		0.84023	138.685
7006500000		0.84295	136.2511
7106450000		0.84591	133.8713
7206400000		0.84778	131.5161
7306350000		0.84969	129.121
!
!				Infineon Technologies AG
