! Infineon Technologies  Discrete & RF Semiconductors
! BAT17
! IAC = 5 mA
! One-Port S-Parameters
# Hz  S  MA  R  50
!f									S11
!Hz							Mag  Ang
309850000		0.71731	173.7786
409800000		0.71688	171.8725
509750000		0.71603	170.0263
609700000		0.71567	168.1302
709650000		0.71556	166.2668
809600000		0.71529	164.4078
909550000		0.71537	162.6183
1009500000		0.71577	160.7264
1109450000		0.71638	159.0015
1209400000		0.71671	157.163
1309350000		0.71755	155.3986
1409300000		0.71848	153.5856
1509250000		0.71968	151.8679
1609200000		0.72068	150.0562
1709150000		0.72251	148.3185
1809100000		0.72392	146.5564
1909050000		0.72572	144.8366
2009000000		0.72717	143.0707
2108950000		0.72897	141.4308
2208900000		0.73049	139.7107
2308850000		0.73232	137.9983
2408800000		0.73396	136.364
2508750000		0.73558	134.6765
2608700000		0.73731	133.0776
2708650000		0.73891	131.423
2808600000		0.74078	129.9025
2908550000		0.74203	128.2971
3008500000		0.74417	126.7942
3108450000		0.74556	125.2975
3208400000		0.74769	123.8666
3308350000		0.74954	122.4254
3408300000		0.75174	121.0661
3508250000		0.75374	119.7008
3608200000		0.75647	118.3102
3708150000		0.75921	117.0071
3808100000		0.76189	115.6979
3908050000		0.76419	114.3915
4008000000		0.76733	113.0921
4107950000		0.77003	111.8451
4207900000		0.77334	110.5627
4307850000		0.77632	109.3372
4407800000		0.77992	108.1162
4507750000		0.78285	106.9117
4607700000		0.78614	105.6682
4707650000		0.78903	104.5062
4807600000		0.79167	103.2765
4907550000		0.7943	102.0976
5007500000		0.79645	100.9232
5107450000		0.79863	99.7179
5207400000		0.80027	98.5958
5307350000		0.80161	97.4739
5407300000		0.80298	96.3447
5507250000		0.80429	95.3332
5607200000		0.80513	94.2371
5707150000		0.80624	93.2724
5807100000		0.80673	92.2506
5907050000		0.80767	91.2582
6007000000		0.80839	90.3093
6106950000		0.80933	89.3346
6206900000		0.81027	88.4288
6306850000		0.81126	87.4525
6406800000		0.81217	86.5276
6506750000		0.81332	85.5673
6606700000		0.81432	84.6374
6706650000		0.8154	83.6686
6806600000		0.81648	82.7579
6906550000		0.81758	81.8031
7006500000		0.81881	80.73
7106450000		0.82012	79.8247
7206400000		0.82067	78.7251
7306350000		0.82163	77.7243
!
!				Infineon Technologies AG
