! Infineon Technologies  Discrete & RF Semiconductors
! BAT17
! IAC = 0.1 mA
! One-Port S-Parameters
# Hz  S  MA  R  50
!f									S11
!Hz							Mag  Ang
309850000		0.77516	-7.7859
409800000		0.77548	-10.3163
509750000		0.77437	-12.831
609700000		0.77442	-15.3787
709650000		0.77677	-18.0675
809600000		0.77002	-20.7578
909550000		0.77055	-23.5164
1009500000		0.7722	-26.074
1109450000		0.77482	-28.7865
1209400000		0.76831	-31.4194
1309350000		0.76555	-34.2997
1409300000		0.76248	-37.0677
1509250000		0.75872	-40.0218
1609200000		0.75674	-42.7857
1709150000		0.76331	-45.3308
1809100000		0.76036	-48.3101
1909050000		0.75394	-51.3432
2009000000		0.74626	-54.4548
2108950000		0.75072	-57.3765
2208900000		0.74628	-60.5357
2308850000		0.74215	-63.7096
2408800000		0.73694	-67.0224
2508750000		0.73895	-70.0143
2608700000		0.73829	-73.3755
2708650000		0.73378	-76.7695
2808600000		0.738	-80.144
2908550000		0.73292	-83.6758
3008500000		0.72913	-87.1949
3108450000		0.72678	-90.9378
3208400000		0.73071	-94.3418
3308350000		0.72839	-98.1766
3408300000		0.7225	-102.1988
3508250000		0.72015	-106.064
3608200000		0.7212	-109.7269
3708150000		0.71747	-113.8114
3808100000		0.71325	-117.9463
3908050000		0.70851	-122.0579
4008000000		0.70488	-126.2665
4107950000		0.70451	-130.1937
4207900000		0.70922	-133.8484
4307850000		0.71278	-137.5429
4407800000		0.70991	-141.8411
4507750000		0.70886	-145.9393
4607700000		0.71	-149.9269
4707650000		0.71857	-153.3439
4807600000		0.71913	-157.3452
4907550000		0.72388	-161.1076
5007500000		0.72595	-165.0533
5107450000		0.72975	-168.8555
5207400000		0.73488	-172.5473
5307350000		0.74098	-176.0517
5407300000		0.7454	-179.6725
5507250000		0.74878	176.6678
5607200000		0.75258	173.2064
5707150000		0.75837	169.9211
5807100000		0.76286	166.7584
5907050000		0.76505	163.3573
6007000000		0.77047	160.4356
6106950000		0.77526	157.528
6206900000		0.77958	154.6867
6306850000		0.78192	151.7063
6406800000		0.78493	148.8844
6506750000		0.78862	146.2132
6606700000		0.7919	143.6034
6706650000		0.79465	140.9514
6806600000		0.79861	138.5203
6906550000		0.80135	136.0492
7006500000		0.80558	133.6818
7106450000		0.80974	131.3808
7206400000		0.81276	129.0859
7306350000		0.81571	126.7562
!
!				Infineon Technologies AG
