! Infineon Technologies  Discrete & RF Semiconductors
! BAT17
! IAC = 1 mA
! One-Port S-Parameters
# Hz  S  MA  R  50
!f									S11
!Hz							Mag  Ang
309850000		0.19936	175.1696
409800000		0.20166	173.6876
509750000		0.20243	172.5258
609700000		0.20434	171.1617
709650000		0.20355	170.3986
809600000		0.20406	169.3786
909550000		0.20591	168.6977
1009500000		0.21018	167.2072
1109450000		0.21249	166.2599
1209400000		0.21546	164.6576
1309350000		0.21773	163.8398
1409300000		0.22073	162.6216
1509250000		0.22635	161.5863
1609200000		0.22989	160.2498
1709150000		0.23427	158.761
1809100000		0.23944	157.6827
1909050000		0.24591	156.3038
2009000000		0.25097	155.1133
2108950000		0.25632	154.1104
2208900000		0.26075	153.1027
2308850000		0.26732	151.8017
2408800000		0.27105	150.7764
2508750000		0.27657	149.542
2608700000		0.28342	148.4972
2708650000		0.28976	147.0599
2808600000		0.2983	145.9516
2908550000		0.30417	144.693
3008500000		0.31291	142.8216
3108450000		0.31971	141.643
3208400000		0.32889	140.2669
3308350000		0.33594	139.2735
3408300000		0.34456	138.045
3508250000		0.35222	136.9173
3608200000		0.36219	135.2212
3708150000		0.37079	134.1293
3808100000		0.37838	133.034
3908050000		0.38603	131.8862
4008000000		0.39588	130.5333
4107950000		0.40505	129.254
4207900000		0.41395	128.0736
4307850000		0.4223	126.978
4407800000		0.43271	125.6807
4507750000		0.44125	124.5622
4607700000		0.45094	123.2346
4707650000		0.45959	122.1775
4807600000		0.46802	120.9912
4907550000		0.47667	119.9014
5007500000		0.48533	118.7352
5107450000		0.49512	117.2492
5207400000		0.50296	116.268
5307350000		0.51058	115.2434
5407300000		0.51869	114.0484
5507250000		0.52733	112.8163
5607200000		0.53489	111.5761
5707150000		0.54286	110.5002
5807100000		0.54933	109.4741
5907050000		0.55673	108.2821
6007000000		0.56319	107.3381
6106950000		0.56976	106.2912
6206900000		0.57638	105.2593
6306850000		0.58285	104.1805
6406800000		0.58929	103.1172
6506750000		0.59553	102.0279
6606700000		0.60151	100.9809
6706650000		0.6077	99.8799
6806600000		0.61356	98.9045
6906550000		0.61937	97.7663
7006500000		0.62506	96.6183
7106450000		0.6311	95.6583
7206400000		0.63588	94.4507
7306350000		0.64134	93.3044
!
!				Infineon Technologies AG
