! Infineon Technologies  Discrete & RF Semiconductors
! BAT17
! IAC = 6 mA
! One-Port S-Parameters
# Hz  S  MA  R  50
!f									S11
!Hz							Mag  Ang
309850000		0.74504	173.8102
409800000		0.74443	171.8979
509750000		0.74368	170.0072
609700000		0.74325	168.11
709650000		0.74305	166.2463
809600000		0.74269	164.3794
909550000		0.74264	162.583
1009500000		0.74286	160.6874
1109450000		0.74333	158.9584
1209400000		0.74358	157.1161
1309350000		0.74431	155.3477
1409300000		0.74514	153.5327
1509250000		0.74617	151.8091
1609200000		0.74708	149.9938
1709150000		0.74869	148.2549
1809100000		0.74998	146.4877
1909050000		0.75158	144.76
2009000000		0.75294	142.9872
2108950000		0.75467	141.3087
2208900000		0.75608	139.5954
2308850000		0.75735	137.9343
2408800000		0.75903	136.2599
2508750000		0.76045	134.5654
2608700000		0.7618	132.9935
2708650000		0.76328	131.2988
2808600000		0.76486	129.7743
2908550000		0.76592	128.1643
3008500000		0.7676	126.696
3108450000		0.76891	125.1584
3208400000		0.77078	123.7188
3308350000		0.77221	122.3077
3408300000		0.77433	120.9134
3508250000		0.7761	119.5415
3608200000		0.77835	118.1846
3708150000		0.78105	116.8402
3808100000		0.78358	115.5238
3908050000		0.7857	114.2167
4008000000		0.7886	112.9118
4107950000		0.79106	111.6584
4207900000		0.7942	110.3723
4307850000		0.79696	109.1394
4407800000		0.80031	107.9133
4507750000		0.80308	106.701
4607700000		0.8062	105.4531
4707650000		0.80887	104.2841
4807600000		0.81134	103.0481
4907550000		0.81372	101.8616
5007500000		0.81562	100.6799
5107450000		0.81751	99.4676
5207400000		0.81897	98.3395
5307350000		0.8201	97.2105
5407300000		0.82118	96.0765
5507250000		0.82225	95.0607
5607200000		0.82286	93.9603
5707150000		0.82373	92.9895
5807100000		0.82396	91.9644
5907050000		0.82463	90.9671
6007000000		0.82523	90.0155
6106950000		0.82586	89.0411
6206900000		0.82665	88.1294
6306850000		0.82744	87.1497
6406800000		0.82815	86.2224
6506750000		0.82909	85.257
6606700000		0.82994	84.3246
6706650000		0.83086	83.3529
6806600000		0.83179	82.4399
6906550000		0.83275	81.4797
7006500000		0.83381	80.4045
7106450000		0.83499	79.4918
7206400000		0.83537	78.3911
7306350000		0.83616	77.3895
!
!				Infineon Technologies AG
