! Infineon Technologies  Discrete & RF Semiconductors
! BAT17
! IAC = 0.9 mA
! One-Port S-Parameters
# Hz  S  MA  R  50
!f									S11
!Hz							Mag  Ang
309850000		0.14556	176.034
409800000		0.14808	174.7596
509750000		0.14897	173.9872
609700000		0.15116	172.9466
709650000		0.15032	172.786
809600000		0.15138	172.1964
909550000		0.15346	172.1102
1009500000		0.1581	170.7603
1109450000		0.1605	170.2047
1209400000		0.16403	168.5497
1309350000		0.16684	168.2468
1409300000		0.17027	167.2636
1509250000		0.1768	166.4147
1609200000		0.18071	165.2491
1709150000		0.18496	163.8358
1809100000		0.19094	162.9549
1909050000		0.19827	161.5239
2009000000		0.2043	160.4112
2108950000		0.21006	159.6353
2208900000		0.21529	158.8023
2308850000		0.22275	157.461
2408800000		0.22713	156.5641
2508750000		0.23318	155.3937
2608700000		0.24098	154.3603
2708650000		0.24802	152.8985
2808600000		0.2575	151.8003
2908550000		0.26422	150.5069
3008500000		0.2735	148.3444
3108450000		0.28119	147.1922
3208400000		0.29115	145.7149
3308350000		0.29923	144.7235
3408300000		0.30884	143.3717
3508250000		0.3175	142.1942
3608200000		0.32807	140.3024
3708150000		0.33771	139.1689
3808100000		0.34627	137.9769
3908050000		0.35492	136.7478
4008000000		0.36575	135.203
4107950000		0.37577	133.852
4207900000		0.38544	132.6243
4307850000		0.39472	131.4322
4407800000		0.4061	129.9946
4507750000		0.41546	128.8238
4607700000		0.42594	127.3829
4707650000		0.43541	126.2854
4807600000		0.44475	125.0066
4907550000		0.45428	123.8543
5007500000		0.46393	122.5968
5107450000		0.47443	120.9757
5207400000		0.48324	119.9458
5307350000		0.4918	118.8687
5407300000		0.5008	117.5928
5507250000		0.51019	116.2456
5607200000		0.51849	114.9171
5707150000		0.52729	113.7619
5807100000		0.53455	112.6766
5907050000		0.54267	111.3873
6007000000		0.54989	110.3954
6106950000		0.55714	109.2879
6206900000		0.56449	108.1882
6306850000		0.57164	107.0377
6406800000		0.57865	105.9035
6506750000		0.58549	104.7474
6606700000		0.59208	103.6368
6706650000		0.59877	102.471
6806600000		0.60521	101.4437
6906550000		0.61147	100.2373
7006500000		0.61774	99.0446
7106450000		0.62425	98.0339
7206400000		0.62951	96.7789
7306350000		0.63547	95.5758
!
!				Infineon Technologies AG
