! Infineon Technologies  Discrete & RF Semiconductors
! BAT17
! IAC = 10 mA
! One-Port S-Parameters
# Hz  S  MA  R  50
!f									S11
!Hz							Mag  Ang
309850000		0.80205	173.7637
409800000		0.80134	171.8507
509750000		0.80025	169.9911
609700000		0.79978	168.0598
709650000		0.79924	166.2181
809600000		0.79874	164.3457
909550000		0.7984	162.5416
1009500000		0.79834	160.6413
1109450000		0.79857	158.9065
1209400000		0.79859	157.0595
1309350000		0.799	155.2897
1409300000		0.79961	153.4678
1509250000		0.80036	151.7387
1609200000		0.80099	149.9213
1709150000		0.80225	148.1747
1809100000		0.80321	146.4034
1909050000		0.80426	144.7023
2009000000		0.80559	142.8855
2108950000		0.80685	141.1983
2208900000		0.8076	139.5319
2308850000		0.80878	137.804
2408800000		0.81014	136.1177
2508750000		0.81106	134.4156
2608700000		0.81207	132.8016
2708650000		0.81296	131.1341
2808600000		0.81397	129.5977
2908550000		0.81432	128.0143
3008500000		0.81562	126.515
3108450000		0.81642	124.9652
3208400000		0.81757	123.5599
3308350000		0.81879	122.0726
3408300000		0.82025	120.7038
3508250000		0.82162	119.3261
3608200000		0.82348	117.9311
3708150000		0.82553	116.6163
3808100000		0.8277	115.2929
3908050000		0.82946	113.9809
4008000000		0.83188	112.6682
4107950000		0.83393	111.4041
4207900000		0.83666	110.1125
4307850000		0.83907	108.8727
4407800000		0.84204	107.6365
4507750000		0.84439	106.4108
4607700000		0.84709	105.1524
4707650000		0.8494	103.9723
4807600000		0.85146	102.7221
4907550000		0.85342	101.5266
5007500000		0.85492	100.3311
5107450000		0.8563	99.1102
5207400000		0.85727	97.9713
5307350000		0.85796	96.8313
5407300000		0.85857	95.6863
5507250000		0.85905	94.6635
5607200000		0.85915	93.557
5707150000		0.85951	92.5778
5807100000		0.85933	91.5435
5907050000		0.85952	90.5423
6007000000		0.8597	89.5855
6106950000		0.85994	88.5987
6206900000		0.86026	87.6833
6306850000		0.86078	86.7011
6406800000		0.86116	85.7676
6506750000		0.86171	84.7981
6606700000		0.86223	83.8598
6706650000		0.86284	82.8849
6806600000		0.86349	81.9668
6906550000		0.86407	80.9999
7006500000		0.86484	79.9197
7106450000		0.86579	79.0019
7206400000		0.86587	77.8932
7306350000		0.86639	76.8861
!
!				Infineon Technologies AG
