! Infineon Technologies  Discrete & RF Semiconductors
! BAT17
! IAC = 7 mA
! One-Port S-Parameters
# Hz  S  MA  R  50
!f									S11
!Hz							Mag  Ang
309850000		0.7653	173.767
409800000		0.76469	171.8585
509750000		0.76374	170.0001
609700000		0.76323	168.104
709650000		0.76294	166.2339
809600000		0.76256	164.3641
909550000		0.76246	162.5672
1009500000		0.76257	160.6683
1109450000		0.76293	158.936
1209400000		0.76308	157.092
1309350000		0.76371	155.3215
1409300000		0.76449	153.5037
1509250000		0.76543	151.7785
1609200000		0.76621	149.9628
1709150000		0.7677	148.2218
1809100000		0.76887	146.4505
1909050000		0.77039	144.7182
2009000000		0.77163	142.9459
2108950000		0.77303	141.2968
2208900000		0.77433	139.5671
2308850000		0.77577	137.8465
2408800000		0.77718	136.1986
2508750000		0.77841	134.5018
2608700000		0.77969	132.8928
2708650000		0.7809	131.232
2808600000		0.78233	129.6992
2908550000		0.78315	128.0885
3008500000		0.78474	126.5835
3108450000		0.78571	125.076
3208400000		0.78737	123.6389
3308350000		0.7888	122.1903
3408300000		0.79058	120.8251
3508250000		0.79222	119.452
3608200000		0.79442	118.0574
3708150000		0.7968	116.7486
3808100000		0.79919	115.4295
3908050000		0.80116	114.1171
4008000000		0.80394	112.8081
4107950000		0.80629	111.5517
4207900000		0.80928	110.2637
4307850000		0.81191	109.0273
4407800000		0.81512	107.7963
4507750000		0.81776	106.5793
4607700000		0.82069	105.3297
4707650000		0.8232	104.1537
4807600000		0.82557	102.9145
4907550000		0.82778	101.7229
5007500000		0.82959	100.5366
5107450000		0.8313	99.3209
5207400000		0.83257	98.1886
5307350000		0.83351	97.0566
5407300000		0.83443	95.9169
5507250000		0.83524	94.9001
5607200000		0.83567	93.7943
5707150000		0.83634	92.8215
5807100000		0.83648	91.7948
5907050000		0.83698	90.795
6007000000		0.83736	89.8399
6106950000		0.83791	88.8604
6206900000		0.83855	87.9458
6306850000		0.83922	86.966
6406800000		0.83981	86.0357
6506750000		0.84063	85.0708
6606700000		0.84134	84.1352
6706650000		0.84211	83.1626
6806600000		0.84292	82.246
6906550000		0.8438	81.2857
7006500000		0.84472	80.2068
7106450000		0.84581	79.2946
7206400000		0.84605	78.1872
7306350000		0.84683	77.1829
!
!				Infineon Technologies AG
