! Infineon Technologies  Discrete & RF Semiconductors
! BAT17
! VCA = 0.2 V
! One-Port S-Parameters
# Hz  S  MA  R  50
!f									S11
!Hz							Mag  Ang
309850000		0.99935	-5.7243
409800000		0.99878	-7.5167
509750000		0.99864	-9.3532
609700000		0.9984	-11.16
709650000		0.99838	-13.0463
809600000		0.99812	-14.904
909550000		0.99799	-16.8161
1009500000		0.99774	-18.6572
1109450000		0.99735	-20.6608
1209400000		0.99676	-22.5556
1309350000		0.99616	-24.5321
1409300000		0.99519	-26.4704
1509250000		0.99423	-28.5119
1609200000		0.99305	-30.4616
1709150000		0.99174	-32.4972
1809100000		0.99038	-34.5085
1909050000		0.98899	-36.5812
2009000000		0.9877	-38.6276
2108950000		0.98638	-40.7391
2208900000		0.98539	-42.8647
2308850000		0.98405	-44.9549
2408800000		0.98363	-47.2402
2508750000		0.98321	-49.4028
2608700000		0.98267	-51.7218
2708650000		0.98237	-54.0127
2808600000		0.98191	-56.4393
2908550000		0.98189	-58.8843
3008500000		0.98101	-61.4468
3108450000		0.98079	-64.0496
3208400000		0.97942	-66.6771
3308350000		0.97852	-69.4213
3408300000		0.97703	-72.2504
3508250000		0.97542	-75.119
3608200000		0.97293	-77.969
3708150000		0.97016	-80.961
3808100000		0.96734	-83.9769
3908050000		0.96438	-86.9817
4008000000		0.96076	-90.0743
4107950000		0.95739	-93.18
4207900000		0.95373	-96.3333
4307850000		0.95045	-99.5229
4407800000		0.94706	-102.7673
4507750000		0.94455	-106.0061
4607700000		0.94173	-109.2995
4707650000		0.93989	-112.6507
4807600000		0.93811	-115.9817
4907550000		0.93695	-119.4023
5007500000		0.93611	-122.8182
5107450000		0.93575	-126.275
5207400000		0.93529	-129.8345
5307350000		0.93531	-133.3525
5407300000		0.93484	-136.9471
5507250000		0.93487	-140.5661
5607200000		0.93425	-144.135
5707150000		0.93397	-147.7798
5807100000		0.93333	-151.3005
5907050000		0.93231	-154.8787
6007000000		0.93144	-158.3906
6106950000		0.93005	-161.874
6206900000		0.92892	-165.3105
6306850000		0.92762	-168.6758
6406800000		0.92639	-172.009
6506750000		0.92502	-175.2813
6606700000		0.92394	-178.4736
6706650000		0.92293	178.3614
6806600000		0.9219	175.2451
6906550000		0.92155	172.2597
7006500000		0.92049	169.202
7106450000		0.92059	166.2238
7206400000		0.91976	163.3247
7306350000		0.91936	160.3936
!
!				Infineon Technologies AG
