! Infineon Technologies  Discrete & RF Semiconductors
! BAT17
! IAC = 0.07 mA
! One-Port S-Parameters
# Hz  S  MA  R  50
!f									S11
!Hz							Mag  Ang
309850000		0.83832	-7.6869
409800000		0.8386	-10.1875
509750000		0.83753	-12.6666
609700000		0.8376	-15.1595
709650000		0.83937	-17.7778
809600000		0.8338	-20.4138
909550000		0.83399	-23.0915
1009500000		0.83541	-25.6047
1109450000		0.83732	-28.2696
1209400000		0.832	-30.9006
1309350000		0.82951	-33.6876
1409300000		0.82664	-36.4004
1509250000		0.82354	-39.271
1609200000		0.82141	-41.9773
1709150000		0.82641	-44.5085
1809100000		0.82366	-47.3789
1909050000		0.81824	-50.3598
2009000000		0.81186	-53.3944
2108950000		0.81495	-56.2201
2208900000		0.81107	-59.2956
2308850000		0.80739	-62.3903
2408800000		0.80262	-65.6587
2508750000		0.80419	-68.5802
2608700000		0.80345	-71.8383
2708650000		0.79944	-75.1675
2808600000		0.80266	-78.3928
2908550000		0.7984	-81.9222
3008500000		0.79496	-85.3652
3108450000		0.79256	-89.0251
3208400000		0.79528	-92.3156
3308350000		0.79287	-96.097
3408300000		0.78726	-100.0525
3508250000		0.78465	-103.8765
3608200000		0.78479	-107.427
3708150000		0.78084	-111.4603
3808100000		0.77604	-115.5173
3908050000		0.77097	-119.5705
4008000000		0.76685	-123.6928
4107950000		0.76568	-127.5679
4207900000		0.76852	-131.1719
4307850000		0.77048	-134.8328
4407800000		0.76719	-139.0659
4507750000		0.76538	-143.1422
4607700000		0.76558	-147.0926
4707650000		0.77217	-150.5053
4807600000		0.77189	-154.5081
4907550000		0.77525	-158.2783
5007500000		0.77645	-162.2228
5107450000		0.77947	-166.0144
5207400000		0.7831	-169.7443
5307350000		0.78774	-173.2847
5407300000		0.79087	-176.9408
5507250000		0.79333	179.3671
5607200000		0.79596	175.8654
5707150000		0.8004	172.5326
5807100000		0.80355	169.3096
5907050000		0.80469	165.8531
6007000000		0.80865	162.8649
6106950000		0.81202	159.8968
6206900000		0.81514	156.9947
6306850000		0.81645	153.9516
6406800000		0.81831	151.0685
6506750000		0.82091	148.339
6606700000		0.82324	145.6723
6706650000		0.82508	142.9646
6806600000		0.82794	140.4758
6906550000		0.83004	137.9574
7006500000		0.83315	135.5386
7106450000		0.83638	133.1798
7206400000		0.83855	130.8395
7306350000		0.84078	128.4627
!
!				Infineon Technologies AG
