! Infineon Technologies  Discrete & RF Semiconductors
! BAT17
! VCA = 4 V
! One-Port S-Parameters
# Hz  S  MA  R  50
!f									S11
!Hz							Mag  Ang
309850000		0.99917	-4.1036
409800000		0.99886	-5.4205
509750000		0.99891	-6.7444
609700000		0.99875	-8.0307
709650000		0.99883	-9.3911
809600000		0.99868	-10.7208
909550000		0.99879	-12.1058
1009500000		0.99868	-13.406
1109450000		0.99852	-14.8581
1209400000		0.99816	-16.2076
1309350000		0.99783	-17.6207
1409300000		0.99717	-18.9957
1509250000		0.99655	-20.4564
1609200000		0.99571	-21.8325
1709150000		0.99476	-23.2656
1809100000		0.99367	-24.6809
1909050000		0.99265	-26.1286
2009000000		0.99165	-27.5601
2108950000		0.99069	-29.0148
2208900000		0.98997	-30.4945
2308850000		0.98894	-31.8967
2408800000		0.98893	-33.4978
2508750000		0.98881	-34.9398
2608700000		0.9884	-36.4942
2708650000		0.98888	-38.0608
2808600000		0.98904	-39.7373
2908550000		0.98942	-41.3648
3008500000		0.98965	-43.0905
3108450000		0.99027	-44.87
3208400000		0.99003	-46.6697
3308350000		0.98993	-48.5203
3408300000		0.98974	-50.4466
3508250000		0.98946	-52.4424
3608200000		0.98833	-54.3828
3708150000		0.98688	-56.4657
3808100000		0.98518	-58.5788
3908050000		0.98362	-60.6797
4008000000		0.98115	-62.8336
4107950000		0.9787	-65.0287
4207900000		0.97589	-67.2298
4307850000		0.97314	-69.4932
4407800000		0.97026	-71.7889
4507750000		0.96779	-74.1191
4607700000		0.96502	-76.4597
4707650000		0.96286	-78.8908
4807600000		0.96066	-81.3118
4907550000		0.95903	-83.806
5007500000		0.95761	-86.3403
5107450000		0.95669	-88.8912
5207400000		0.95586	-91.5753
5307350000		0.95541	-94.2797
5407300000		0.95496	-97.0308
5507250000		0.9545	-99.9348
5607200000		0.95432	-102.782
5707150000		0.9538	-105.793
5807100000		0.95359	-108.7571
5907050000		0.95273	-111.7958
6007000000		0.95215	-114.8767
6106950000		0.95101	-117.966
6206900000		0.94998	-121.1147
6306850000		0.94868	-124.2255
6406800000		0.94738	-127.3899
6506750000		0.94571	-130.5313
6606700000		0.94416	-133.6731
6706650000		0.94264	-136.8083
6806600000		0.94101	-139.9836
6906550000		0.9398	-143.0677
7006500000		0.93807	-146.1676
7106450000		0.93708	-149.3501
7206400000		0.9358	-152.3843
7306350000		0.93457	-155.5417
!
!				Infineon Technologies AG
