! Infineon Technologies  Discrete & RF Semiconductors
! BAT68-04
! IAC = 0.04 mA
! One-Port S-Parameters
# Hz  S  MA  R  50
!f									S11
!Hz							Mag  Ang
309850000		0.90405	-11.2369
409800000		0.90376	-14.894
509750000		0.90345	-18.5673
609700000		0.90301	-22.2252
709650000		0.90385	-25.9559
809600000		0.90009	-29.7859
909550000		0.9005	-33.5946
1009500000		0.90084	-37.2674
1109450000		0.90105	-41.05
1209400000		0.89754	-44.955
1309350000		0.89528	-48.8978
1409300000		0.89199	-52.8171
1509250000		0.8896	-56.7916
1609200000		0.88826	-60.699
1709150000		0.89072	-64.3425
1809100000		0.88761	-68.36
1909050000		0.88374	-72.5189
2009000000		0.88049	-76.7242
2108950000		0.88126	-80.6666
2208900000		0.87901	-84.7621
2308850000		0.8778	-88.9449
2408800000		0.87709	-93.2042
2508750000		0.87605	-97.3686
2608700000		0.87584	-101.6139
2708650000		0.8732	-106.0298
2808600000		0.87602	-110.0494
2908550000		0.87348	-114.5404
3008500000		0.87042	-119.0198
3108450000		0.86974	-123.4557
3208400000		0.87021	-127.5567
3308350000		0.86958	-131.8099
3408300000		0.86761	-136.1415
3508250000		0.86684	-140.3963
3608200000		0.86523	-144.6205
3708150000		0.86379	-148.8451
3808100000		0.86295	-152.9453
3908050000		0.86211	-156.9169
4008000000		0.86107	-161.0577
4107950000		0.86155	-164.878
4207900000		0.86326	-168.5275
4307850000		0.86563	-172.0667
4407800000		0.86626	-175.8727
4507750000		0.86842	-179.4464
4607700000		0.87074	177.0366
4707650000		0.87533	173.8585
4807600000		0.87815	170.5217
4907550000		0.88192	167.3401
5007500000		0.88465	164.0687
5107450000		0.88737	160.8478
5207400000		0.89024	157.7813
5307350000		0.89336	154.9324
5407300000		0.89528	151.9718
5507250000		0.89711	149.1199
5607200000		0.89818	146.3349
5707150000		0.90025	143.7367
5807100000		0.90104	141.2525
5907050000		0.90178	138.6859
6007000000		0.90268	136.3942
6106950000		0.90375	134.0543
6206900000		0.90448	131.8733
6306850000		0.90535	129.641
6406800000		0.90549	127.5353
6506750000		0.90641	125.4577
6606700000		0.90696	123.4487
6706650000		0.90785	121.4483
6806600000		0.90888	119.5533
!
!				Infineon Technologies AG
