! Infineon Technologies  Discrete & RF Semiconductors
! BAT68-04
! IAC = 8 mA
! One-Port S-Parameters
# Hz  S  MA  R  50
!f									S11
!Hz							Mag  Ang
309850000		0.78592	174.0459
409800000		0.78508	172.2556
509750000		0.78431	170.4418
609700000		0.7841	168.5928
709650000		0.78343	166.8454
809600000		0.78341	165.0749
909550000		0.78311	163.3161
1009500000		0.78315	161.5108
1109450000		0.78333	159.8667
1209400000		0.78394	158.1034
1309350000		0.78419	156.3835
1409300000		0.78477	154.6421
1509250000		0.78568	153.0072
1609200000		0.78697	151.2389
1709150000		0.78787	149.5368
1809100000		0.78861	147.8391
1909050000		0.79006	146.2129
2009000000		0.79193	144.4768
2108950000		0.7931	142.8176
2208900000		0.79375	141.2217
2308850000		0.79511	139.5334
2408800000		0.79665	137.925
2508750000		0.79761	136.2529
2608700000		0.79847	134.7313
2708650000		0.79938	133.0774
2808600000		0.80069	131.5915
2908550000		0.80154	130.0182
3008500000		0.80288	128.5384
3108450000		0.80379	127.0681
3208400000		0.80496	125.6473
3308350000		0.80633	124.2413
3408300000		0.8078	122.9053
3508250000		0.80944	121.5508
3608200000		0.81134	120.1762
3708150000		0.81342	118.8906
3808100000		0.81559	117.5989
3908050000		0.81773	116.3164
4008000000		0.8202	115.0306
4107950000		0.8225	113.7759
4207900000		0.82509	112.5022
4307850000		0.82777	111.2827
4407800000		0.83067	110.0762
4507750000		0.83353	108.8805
4607700000		0.83601	107.6387
4707650000		0.83887	106.4603
4807600000		0.84107	105.2524
4907550000		0.84338	104.0862
5007500000		0.84508	102.9014
5107450000		0.84664	101.7035
5207400000		0.84798	100.5604
5307350000		0.84889	99.456
5407300000		0.84986	98.3132
5507250000		0.85046	97.3149
5607200000		0.85078	96.2094
5707150000		0.85145	95.2415
5807100000		0.85154	94.2103
5907050000		0.85214	93.23
6007000000		0.85236	92.2775
6106950000		0.85306	91.3035
6206900000		0.85341	90.3888
6306850000		0.85438	89.4133
6406800000		0.85466	88.5021
6506750000		0.85541	87.5431
6606700000		0.85595	86.605
6706650000		0.85675	85.6357
6806600000		0.8577	84.7177
!
!				Infineon Technologies AG
