! Infineon Technologies  Discrete & RF Semiconductors
! BAT68-04
! VCA = 7 V
! One-Port S-Parameters
# Hz  S  MA  R  50
!f									S11
!Hz							Mag  Ang
309850000		0.99915	-5.9219
409800000		0.99872	-7.8461
509750000		0.99908	-9.7732
609700000		0.99891	-11.6718
709650000		0.99878	-13.6431
809600000		0.99854	-15.5867
909550000		0.99871	-17.6031
1009500000		0.99806	-19.5598
1109450000		0.99771	-21.6141
1209400000		0.99764	-23.6226
1309350000		0.99697	-25.6983
1409300000		0.99564	-27.7381
1509250000		0.9951	-29.8235
1609200000		0.9945	-31.9052
1709150000		0.99313	-34.052
1809100000		0.99137	-36.1565
1909050000		0.99046	-38.2841
2009000000		0.98988	-40.4645
2108950000		0.98851	-42.7055
2208900000		0.9874	-44.9281
2308850000		0.9866	-47.1254
2408800000		0.98657	-49.5063
2508750000		0.98624	-51.7839
2608700000		0.98594	-54.2289
2708650000		0.98566	-56.6086
2808600000		0.98561	-59.1385
2908550000		0.98598	-61.7047
3008500000		0.98577	-64.3736
3108450000		0.98569	-67.1178
3208400000		0.98492	-69.8823
3308350000		0.98379	-72.7148
3408300000		0.98269	-75.6425
3508250000		0.98157	-78.6211
3608200000		0.9795	-81.5947
3708150000		0.97708	-84.6889
3808100000		0.97443	-87.8098
3908050000		0.97177	-90.9086
4008000000		0.96893	-94.1176
4107950000		0.96602	-97.3179
4207900000		0.96278	-100.5704
4307850000		0.95979	-103.854
4407800000		0.9571	-107.1766
4507750000		0.95499	-110.5082
4607700000		0.95309	-113.8874
4707650000		0.9516	-117.3037
4807600000		0.95057	-120.7219
4907550000		0.9499	-124.1865
5007500000		0.94982	-127.689
5107450000		0.9503	-131.1952
5207400000		0.95033	-134.8157
5307350000		0.95097	-138.3509
5407300000		0.95078	-141.9975
5507250000		0.95142	-145.6282
5607200000		0.95135	-149.2167
5707150000		0.9516	-152.8445
5807100000		0.95113	-156.344
5907050000		0.95039	-159.9337
6007000000		0.94962	-163.3812
6106950000		0.94868	-166.8837
6206900000		0.94795	-170.2393
6306850000		0.94691	-173.5721
6406800000		0.94561	-176.8434
6506750000		0.94468	179.9393
6606700000		0.94363	176.7906
6706650000		0.94296	173.7014
6806600000		0.94216	170.6433
!
!				Infineon Technologies AG
