! Infineon Technologies  Discrete & RF Semiconductors
! BAT68-04
! IAC = 10 mA
! One-Port S-Parameters
# Hz  S  MA  R  50
!f									S11
!Hz							Mag  Ang
309850000		0.80735	174.0303
409800000		0.80644	172.2337
509750000		0.80564	170.4118
609700000		0.80536	168.565
709650000		0.80461	166.8074
809600000		0.80449	165.0295
909550000		0.8041	163.2661
1009500000		0.80411	161.4569
1109450000		0.80413	159.8073
1209400000		0.80462	158.0386
1309350000		0.80481	156.3131
1409300000		0.80528	154.5667
1509250000		0.80608	152.9253
1609200000		0.8073	151.1551
1709150000		0.80802	149.4502
1809100000		0.8087	147.7452
1909050000		0.80997	146.1142
2009000000		0.8118	144.3689
2108950000		0.81275	142.7089
2208900000		0.81325	141.1048
2308850000		0.8145	139.4117
2408800000		0.81588	137.797
2508750000		0.81669	136.1206
2608700000		0.81744	134.5571
2708650000		0.81803	132.9318
2808600000		0.81915	131.442
2908550000		0.81979	129.865
3008500000		0.82087	128.3845
3108450000		0.82157	126.9078
3208400000		0.82257	125.4871
3308350000		0.82355	124.1065
3408300000		0.82497	122.7336
3508250000		0.82637	121.379
3608200000		0.82808	120.0024
3708150000		0.82998	118.7094
3808100000		0.83204	117.4162
3908050000		0.83399	116.1334
4008000000		0.83624	114.8419
4107950000		0.83841	113.5838
4207900000		0.84081	112.3067
4307850000		0.84328	111.0842
4407800000		0.84611	109.8727
4507750000		0.84885	108.6705
4607700000		0.85109	107.4266
4707650000		0.85379	106.2451
4807600000		0.85581	105.0285
4907550000		0.85796	103.8591
5007500000		0.85947	102.6708
5107450000		0.86085	101.469
5207400000		0.86198	100.3191
5307350000		0.86267	99.2119
5407300000		0.86343	98.0676
5507250000		0.86387	97.0641
5607200000		0.86392	95.954
5707150000		0.86438	94.9856
5807100000		0.86431	93.9545
5907050000		0.86466	92.9708
6007000000		0.8647	92.014
6106950000		0.86522	91.0392
6206900000		0.8655	90.1216
6306850000		0.86624	89.1422
6406800000		0.86635	88.2309
6506750000		0.86701	87.2686
6606700000		0.86745	86.3293
6706650000		0.86803	85.3606
6806600000		0.86887	84.4405
!
!				Infineon Technologies AG
