! Infineon Technologies  Discrete & RF Semiconductors
! BAT68-04
! IAC = 0.5 mA
! One-Port S-Parameters
# Hz  S  MA  R  50
!f									S11
!Hz							Mag  Ang
309850000		0.17191	-19.2765
409800000		0.17124	-25.2852
509750000		0.17431	-31.7745
609700000		0.17554	-38.3352
709650000		0.18333	-44.6316
809600000		0.18544	-51.4233
909550000		0.19357	-58.0658
1009500000		0.19714	-63.8582
1109450000		0.2052	-69.4838
1209400000		0.20683	-74.9707
1309350000		0.21439	-81.2131
1409300000		0.22096	-86.9497
1509250000		0.22602	-93.2522
1609200000		0.23462	-98.4655
1709150000		0.24577	-102.1511
1809100000		0.25379	-107.9732
1909050000		0.25923	-113.4857
2009000000		0.26713	-118.7556
2108950000		0.28048	-123.1385
2208900000		0.29134	-127.558
2308850000		0.30148	-132.1101
2408800000		0.31483	-135.8135
2508750000		0.32526	-140.037
2608700000		0.33787	-144.2005
2708650000		0.34802	-148.4467
2808600000		0.36277	-152.1635
2908550000		0.37386	-156.1603
3008500000		0.38217	-160.3906
3108450000		0.39534	-163.9991
3208400000		0.40799	-167.4931
3308350000		0.42223	-170.7585
3408300000		0.43472	-174.1073
3508250000		0.44788	-177.4105
3608200000		0.45858	179.0737
3708150000		0.47158	175.9062
3808100000		0.48465	173.0215
3908050000		0.49704	170.1673
4008000000		0.50903	166.9446
4107950000		0.52115	164.1744
4207900000		0.53465	161.5654
4307850000		0.54797	159.0901
4407800000		0.5598	156.2826
4507750000		0.57241	153.7917
4607700000		0.58441	151.2499
4707650000		0.59802	149.0604
4807600000		0.60991	146.7333
4907550000		0.62239	144.5322
5007500000		0.63347	142.2011
5107450000		0.64344	139.79
5207400000		0.6549	137.6656
5307350000		0.66561	135.6817
5407300000		0.67542	133.5432
5507250000		0.68407	131.4751
5607200000		0.69231	129.4176
5707150000		0.70124	127.5492
5807100000		0.70895	125.7443
5907050000		0.71636	123.8406
6007000000		0.72378	122.1727
6106950000		0.73129	120.4314
6206900000		0.73788	118.7998
6306850000		0.74437	117.0965
6406800000		0.7501	115.4875
6506750000		0.75614	113.8728
6606700000		0.76169	112.3054
6706650000		0.76714	110.7235
6806600000		0.77291	109.2349
!
!				Infineon Technologies AG
