! Infineon Technologies  Discrete & RF Semiconductors
! BAT68-04
! IAC = 0.6 mA
! One-Port S-Parameters
# Hz  S  MA  R  50
!f									S11
!Hz							Mag  Ang
309850000		0.07605	-31.9555
409800000		0.07768	-41.6779
509750000		0.08376	-51.0591
609700000		0.08877	-60.3454
709650000		0.09974	-67.3189
809600000		0.10739	-75.3073
909550000		0.11918	-82.1008
1009500000		0.12613	-88.5572
1109450000		0.13706	-93.8187
1209400000		0.14308	-99.4891
1309350000		0.15492	-105.0096
1409300000		0.16524	-110.146
1509250000		0.17525	-116.1019
1609200000		0.18641	-120.4811
1709150000		0.19725	-123.4405
1809100000		0.20919	-128.472
1909050000		0.21877	-133.408
2009000000		0.23009	-137.8277
2108950000		0.24436	-141.2752
2208900000		0.25702	-144.7409
2308850000		0.26927	-148.5771
2408800000		0.28308	-151.3521
2508750000		0.29505	-154.9077
2608700000		0.30893	-158.3337
2708650000		0.32068	-161.8742
2808600000		0.33584	-165.0216
2908550000		0.34828	-168.3591
3008500000		0.35844	-172.0965
3108450000		0.37215	-175.0495
3208400000		0.38534	-178.1156
3308350000		0.39984	179.1848
3408300000		0.41322	176.2921
3508250000		0.42664	173.548
3608200000		0.43838	170.3972
3708150000		0.45181	167.7287
3808100000		0.46509	165.2798
3908050000		0.47789	162.7897
4008000000		0.49044	160.0183
4107950000		0.50298	157.5483
4207900000		0.51637	155.2551
4307850000		0.52974	153.0474
4407800000		0.54203	150.5859
4507750000		0.55481	148.3859
4607700000		0.56696	146.1036
4707650000		0.58028	144.145
4807600000		0.59219	142.0631
4907550000		0.6046	140.0901
5007500000		0.61588	137.98
5107450000		0.62618	135.7671
5207400000		0.63755	133.8456
5307350000		0.64821	132.0462
5407300000		0.65816	130.0792
5507250000		0.66711	128.1826
5607200000		0.67552	126.2793
5707150000		0.6846	124.5614
5807100000		0.69243	122.8929
5907050000		0.70013	121.1261
6007000000		0.70768	119.582
6106950000		0.71537	117.9599
6206900000		0.72214	116.4367
6306850000		0.72896	114.8413
6406800000		0.73494	113.3315
6506750000		0.7412	111.8085
6606700000		0.74698	110.3279
6706650000		0.75268	108.8304
6806600000		0.75871	107.4222
!
!				Infineon Technologies AG
