! Infineon Technologies  Discrete & RF Semiconductors
! BAT68-04
! IAC = 3 mA
! One-Port S-Parameters
# Hz  S  MA  R  50
!f									S11
!Hz							Mag  Ang
309850000		0.61755	174.3047
409800000		0.61758	172.5668
509750000		0.6173	170.8587
609700000		0.61757	169.1335
709650000		0.61728	167.4947
809600000		0.61757	165.8364
909550000		0.61809	164.1889
1009500000		0.61924	162.4654
1109450000		0.62039	160.9179
1209400000		0.6216	159.2443
1309350000		0.62257	157.6165
1409300000		0.62396	155.965
1509250000		0.62594	154.4157
1609200000		0.62803	152.7323
1709150000		0.63033	151.0953
1809100000		0.63214	149.4901
1909050000		0.63474	147.952
2009000000		0.63736	146.3098
2108950000		0.64004	144.7325
2208900000		0.64175	143.2381
2308850000		0.6446	141.6317
2408800000		0.64704	140.1214
2508750000		0.64968	138.5224
2608700000		0.65225	137.0533
2708650000		0.65457	135.5312
2808600000		0.658	134.0828
2908550000		0.66035	132.607
3008500000		0.66378	131.1449
3108450000		0.66653	129.7025
3208400000		0.6698	128.3281
3308350000		0.67286	126.9868
3408300000		0.67614	125.7034
3508250000		0.67938	124.3978
3608200000		0.68339	123.0395
3708150000		0.6871	121.7989
3808100000		0.6907	120.5647
3908050000		0.69429	119.3338
4008000000		0.6986	118.0779
4107950000		0.70255	116.8653
4207900000		0.70688	115.6255
4307850000		0.71115	114.4476
4407800000		0.71579	113.2748
4507750000		0.72019	112.1273
4607700000		0.72441	110.9184
4707650000		0.72893	109.7822
4807600000		0.73278	108.6188
4907550000		0.73679	107.4959
5007500000		0.74028	106.3473
5107450000		0.74391	105.1645
5207400000		0.74713	104.0561
5307350000		0.74983	102.9913
5407300000		0.75278	101.8644
5507250000		0.75545	100.8787
5607200000		0.75772	99.7789
5707150000		0.76035	98.8271
5807100000		0.76213	97.8141
5907050000		0.76458	96.8337
6007000000		0.76642	95.8958
6106950000		0.76884	94.9262
6206900000		0.77084	94.017
6306850000		0.77334	93.0466
6406800000		0.77521	92.1364
6506750000		0.77744	91.1794
6606700000		0.77944	90.2403
6706650000		0.7816	89.2776
6806600000		0.78394	88.3627
!
!				Infineon Technologies AG
