! Infineon Technologies  Discrete & RF Semiconductors
! BAT68-04
! IAC = 0.02 mA
! One-Port S-Parameters
# Hz  S  MA  R  50
!f									S11
!Hz							Mag  Ang
309850000		0.95046	-10.9706
409800000		0.94999	-14.5285
509750000		0.94971	-18.1016
609700000		0.94917	-21.6599
709650000		0.94922	-25.2795
809600000		0.94692	-28.9966
909550000		0.94681	-32.6877
1009500000		0.94631	-36.2681
1109450000		0.94574	-39.9546
1209400000		0.94333	-43.7698
1309350000		0.9412	-47.6007
1409300000		0.93821	-51.415
1509250000		0.93611	-55.2803
1609200000		0.93445	-59.0927
1709150000		0.93455	-62.6758
1809100000		0.93148	-66.577
1909050000		0.92819	-70.604
2009000000		0.92583	-74.7403
2108950000		0.92503	-78.5897
2208900000		0.92289	-82.6338
2308850000		0.92126	-86.6929
2408800000		0.92012	-90.8864
2508750000		0.91876	-94.9697
2608700000		0.91795	-99.1357
2708650000		0.91544	-103.476
2808600000		0.91635	-107.4111
2908550000		0.91391	-111.8371
3008500000		0.91109	-116.3037
3108450000		0.90974	-120.7001
3208400000		0.90879	-124.7624
3308350000		0.90706	-128.9931
3408300000		0.90444	-133.3147
3508250000		0.90268	-137.5609
3608200000		0.90025	-141.7632
3708150000		0.89794	-145.9903
3808100000		0.89618	-150.1064
3908050000		0.89429	-154.101
4008000000		0.89269	-158.2539
4107950000		0.89216	-162.0989
4207900000		0.89235	-165.7714
4307850000		0.89333	-169.3448
4407800000		0.89342	-173.1888
4507750000		0.89471	-176.8103
4607700000		0.89611	179.6276
4707650000		0.89928	176.4071
4807600000		0.9013	173.0121
4907550000		0.90412	169.7783
5007500000		0.90616	166.4473
5107450000		0.90833	163.1771
5207400000		0.91038	160.0475
5307350000		0.91265	157.137
5407300000		0.91381	154.1175
5507250000		0.91509	151.2043
5607200000		0.91553	148.3606
5707150000		0.91688	145.7047
5807100000		0.91693	143.1641
5907050000		0.91712	140.5366
6007000000		0.91734	138.1932
6106950000		0.91773	135.7987
6206900000		0.91796	133.5675
6306850000		0.91829	131.2853
6406800000		0.91803	129.1324
6506750000		0.91844	127.0089
6606700000		0.91851	124.9578
6706650000		0.91896	122.9146
6806600000		0.91959	120.9772
!
!				Infineon Technologies AG
