! Infineon Technologies  Discrete & RF Semiconductors
! BAT68-04
! VCA = 0.6 V
! One-Port S-Parameters
# Hz  S  MA  R  50
!f									S11
!Hz							Mag  Ang
309850000		0.99913	-7.416
409800000		0.99872	-9.8066
509750000		0.99889	-12.2065
609700000		0.99855	-14.5963
709650000		0.9983	-17.0545
809600000		0.99805	-19.4926
909550000		0.99809	-22.0002
1009500000		0.9973	-24.4576
1109450000		0.99662	-27.0224
1209400000		0.99635	-29.5399
1309350000		0.99543	-32.1347
1409300000		0.99388	-34.6919
1509250000		0.99297	-37.3082
1609200000		0.9921	-39.9205
1709150000		0.99038	-42.6189
1809100000		0.98833	-45.2642
1909050000		0.98716	-47.9588
2009000000		0.98629	-50.6924
2108950000		0.98462	-53.5201
2208900000		0.98325	-56.3173
2308850000		0.98227	-59.1296
2408800000		0.98194	-62.1065
2508750000		0.9814	-65.0132
2608700000		0.98071	-68.0764
2708650000		0.98003	-71.1053
2808600000		0.97975	-74.3143
2908550000		0.97933	-77.492
3008500000		0.97836	-80.8319
3108450000		0.97731	-84.1858
3208400000		0.97577	-87.608
3308350000		0.97411	-91.1106
3408300000		0.97208	-94.6716
3508250000		0.97007	-98.2551
3608200000		0.96707	-101.8078
3708150000		0.96416	-105.5104
3808100000		0.96115	-109.1781
3908050000		0.95802	-112.7959
4008000000		0.95491	-116.523
4107950000		0.95206	-120.2003
4207900000		0.949	-123.9218
4307850000		0.94655	-127.6262
4407800000		0.94435	-131.3416
4507750000		0.94304	-135.0217
4607700000		0.9419	-138.7414
4707650000		0.94141	-142.4445
4807600000		0.9413	-146.1168
4907550000		0.94161	-149.7937
5007500000		0.94221	-153.4717
5107450000		0.94325	-157.1206
5207400000		0.94376	-160.8382
5307350000		0.94482	-164.394
5407300000		0.94487	-168.0567
5507250000		0.94576	-171.5878
5607200000		0.94558	-175.0911
5707150000		0.94602	-178.5403
5807100000		0.94537	178.1558
5907050000		0.94472	174.8075
6007000000		0.94397	171.6393
6106950000		0.94321	168.4424
6206900000		0.94261	165.431
6306850000		0.94186	162.4392
6406800000		0.94073	159.5439
6506750000		0.94014	156.703
6606700000		0.93944	153.947
6706650000		0.93904	151.245
6806600000		0.93861	148.6003
!
!				Infineon Technologies AG
