! Infineon Technologies  Discrete & RF Semiconductors
! BAT68-04
! IAC = 0.01 mA
! One-Port S-Parameters
# Hz  S  MA  R  50
!f									S11
!Hz							Mag  Ang
309850000		0.97444	-10.7285
409800000		0.97389	-14.2
509750000		0.97371	-17.6905
609700000		0.97305	-21.1621
709650000		0.97279	-24.6919
809600000		0.9712	-28.3154
909550000		0.97089	-31.9154
1009500000		0.96994	-35.4155
1109450000		0.96903	-39.0182
1209400000		0.96732	-42.7445
1309350000		0.96523	-46.4873
1409300000		0.96249	-50.2107
1509250000		0.96063	-53.9863
1609200000		0.95878	-57.7196
1709150000		0.95757	-61.2463
1809100000		0.95464	-65.0557
1909050000		0.952	-69.0211
2009000000		0.94997	-73.0388
2108950000		0.94835	-76.815
2208900000		0.94599	-80.7493
2308850000		0.94449	-84.7642
2408800000		0.94316	-88.8645
2508750000		0.9418	-92.903
2608700000		0.94065	-97.0067
2708650000		0.93839	-101.2724
2808600000		0.93847	-105.198
2908550000		0.93631	-109.5689
3008500000		0.93355	-113.9785
3108450000		0.93164	-118.3062
3208400000		0.92997	-122.3344
3308350000		0.92775	-126.5447
3408300000		0.92486	-130.8826
3508250000		0.92238	-135.0545
3608200000		0.91974	-139.2629
3708150000		0.9168	-143.457
3808100000		0.91469	-147.6174
3908050000		0.91231	-151.6224
4008000000		0.91032	-155.7786
4107950000		0.90924	-159.6447
4207900000		0.90862	-163.3376
4307850000		0.90867	-166.9376
4407800000		0.90847	-170.8075
4507750000		0.90929	-174.4678
4607700000		0.91023	-178.0653
4707650000		0.91265	178.6755
4807600000		0.91414	175.2362
4907550000		0.91638	171.9549
5007500000		0.9181	168.5777
5107450000		0.92004	165.2662
5207400000		0.92156	162.0824
5307350000		0.92336	159.1233
5407300000		0.92412	156.0512
5507250000		0.92512	153.0875
5607200000		0.9252	150.1922
5707150000		0.92618	147.4853
5807100000		0.92594	144.8961
5907050000		0.92583	142.2179
6007000000		0.92556	139.8285
6106950000		0.92563	137.3865
6206900000		0.92553	135.1093
6306850000		0.9256	132.7836
6406800000		0.92499	130.5882
6506750000		0.92515	128.424
6606700000		0.92504	126.3327
6706650000		0.92528	124.2544
6806600000		0.92564	122.2814
!
!				Infineon Technologies AG
