! Infineon Technologies  Discrete & RF Semiconductors
! BAT68-04
! IAC = 0.09 mA
! One-Port S-Parameters
# Hz  S  MA  R  50
!f									S11
!Hz							Mag  Ang
309850000		0.79524	-11.6766
409800000		0.79481	-15.4394
509750000		0.79466	-19.2619
609700000		0.79445	-23.085
709650000		0.79671	-27.0014
809600000		0.79086	-31.0069
909550000		0.79231	-35.0284
1009500000		0.79411	-38.8434
1109450000		0.79583	-42.7823
1209400000		0.79073	-46.7849
1309350000		0.78848	-50.9272
1409300000		0.78508	-55.0189
1509250000		0.78214	-59.1722
1609200000		0.78162	-63.2403
1709150000		0.78881	-66.963
1809100000		0.78559	-71.1842
1909050000		0.78066	-75.4847
2009000000		0.77659	-79.8378
2108950000		0.78035	-83.9433
2208900000		0.77897	-88.2002
2308850000		0.77838	-92.4802
2408800000		0.77898	-96.794
2508750000		0.77909	-101.1113
2608700000		0.78043	-105.4699
2708650000		0.77811	-109.9803
2808600000		0.78439	-114.0973
2908550000		0.78233	-118.6592
3008500000		0.77984	-123.2161
3108450000		0.78092	-127.6624
3208400000		0.78429	-131.8099
3308350000		0.78608	-136.0547
3408300000		0.7865	-140.4555
3508250000		0.78785	-144.6729
3608200000		0.7881	-148.9175
3708150000		0.78884	-153.123
3808100000		0.79046	-157.173
3908050000		0.79189	-161.0986
4008000000		0.79262	-165.2099
4107950000		0.79535	-168.9832
4207900000		0.79997	-172.5804
4307850000		0.80511	-176.0534
4407800000		0.80737	-179.7945
4507750000		0.81145	176.7168
4607700000		0.81573	173.277
4707650000		0.82295	170.179
4807600000		0.82768	166.9357
4907550000		0.83352	163.8473
5007500000		0.83778	160.6723
5107450000		0.84179	157.5358
5207400000		0.84664	154.5716
5307350000		0.85154	151.8187
5407300000		0.85518	148.9526
5507250000		0.8582	146.2025
5607200000		0.8607	143.5065
5707150000		0.86425	141.0033
5807100000		0.86662	138.6025
5907050000		0.8686	136.1276
6007000000		0.87099	133.9135
6106950000		0.8734	131.6569
6206900000		0.8754	129.5517
6306850000		0.87731	127.3945
6406800000		0.87858	125.3598
6506750000		0.88048	123.3467
6606700000		0.882	121.4039
6706650000		0.88376	119.4656
6806600000		0.88579	117.6289
!
!				Infineon Technologies AG
