! Infineon Technologies  Discrete & RF Semiconductors
! BAT68-04
! IAC = 7 mA
! One-Port S-Parameters
# Hz  S  MA  R  50
!f									S11
!Hz							Mag  Ang
309850000		0.77063	174.059
409800000		0.76983	172.2742
509750000		0.76913	170.4609
609700000		0.76886	168.6207
709650000		0.76833	166.8763
809600000		0.76833	165.1126
909550000		0.76808	163.3594
1009500000		0.76823	161.5556
1109450000		0.7685	159.9161
1209400000		0.76914	158.1598
1309350000		0.76949	156.4436
1409300000		0.77016	154.7076
1509250000		0.77112	153.0737
1609200000		0.77246	151.312
1709150000		0.77352	149.6129
1809100000		0.77434	147.9197
1909050000		0.77585	146.2998
2009000000		0.77781	144.5652
2108950000		0.77912	142.9137
2208900000		0.77983	141.3214
2308850000		0.78134	139.6386
2408800000		0.78274	138.0657
2508750000		0.78402	136.3676
2608700000		0.78512	134.8152
2708650000		0.78605	133.199
2808600000		0.78752	131.7181
2908550000		0.78853	130.1485
3008500000		0.78987	128.7062
3108450000		0.79107	127.2015
3208400000		0.79241	125.7865
3308350000		0.79393	124.3836
3408300000		0.79555	123.0486
3508250000		0.79725	121.6979
3608200000		0.79935	120.3273
3708150000		0.80157	119.0417
3808100000		0.80384	117.7542
3908050000		0.8061	116.4755
4008000000		0.80871	115.1912
4107950000		0.81117	113.9425
4207900000		0.8139	112.6689
4307850000		0.81668	111.4525
4407800000		0.81972	110.2482
4507750000		0.82267	109.0553
4607700000		0.82529	107.8197
4707650000		0.8283	106.643
4807600000		0.83057	105.4382
4907550000		0.83299	104.2782
5007500000		0.83487	103.095
5107450000		0.83659	101.9004
5207400000		0.83807	100.7588
5307350000		0.8391	99.6593
5407300000		0.84027	98.5186
5507250000		0.84101	97.5227
5607200000		0.84151	96.4174
5707150000		0.8423	95.4511
5807100000		0.84254	94.4244
5907050000		0.84322	93.4445
6007000000		0.84356	92.493
6106950000		0.84439	91.5224
6206900000		0.84493	90.6077
6306850000		0.84596	89.6318
6406800000		0.84642	88.7222
6506750000		0.84722	87.7668
6606700000		0.84792	86.8283
6706650000		0.84878	85.8613
6806600000		0.84988	84.9447
!
!				Infineon Technologies AG
