! Infineon Technologies  Discrete & RF Semiconductors
! BAT68-04
! VCA = 4 V
! One-Port S-Parameters
# Hz  S  MA  R  50
!f									S11
!Hz							Mag  Ang
309850000		0.99917	-6.1367
409800000		0.99881	-8.1146
509750000		0.99912	-10.1013
609700000		0.99886	-12.0687
709650000		0.99868	-14.1073
809600000		0.9985	-16.1197
909550000		0.99871	-18.1988
1009500000		0.99803	-20.2225
1109450000		0.99759	-22.3478
1209400000		0.99748	-24.4264
1309350000		0.99679	-26.571
1409300000		0.99545	-28.6838
1509250000		0.9948	-30.8391
1609200000		0.99427	-32.9924
1709150000		0.99284	-35.2161
1809100000		0.99097	-37.3944
1909050000		0.99011	-39.5986
2009000000		0.98947	-41.856
2108950000		0.98804	-44.1734
2208900000		0.98685	-46.4795
2308850000		0.98612	-48.7661
2408800000		0.98604	-51.2261
2508750000		0.98575	-53.592
2608700000		0.98535	-56.1238
2708650000		0.98506	-58.5983
2808600000		0.98516	-61.2543
2908550000		0.98524	-63.8771
3008500000		0.98497	-66.6473
3108450000		0.98463	-69.4502
3208400000		0.98394	-72.3495
3308350000		0.98263	-75.2759
3408300000		0.98143	-78.2993
3508250000		0.97996	-81.3398
3608200000		0.97795	-84.4458
3708150000		0.97539	-87.6319
3808100000		0.97277	-90.8421
3908050000		0.96994	-94.0286
4008000000		0.96705	-97.3248
4107950000		0.9641	-100.6101
4207900000		0.96087	-103.9474
4307850000		0.95795	-107.311
4407800000		0.95531	-110.7108
4507750000		0.95324	-114.1115
4607700000		0.9515	-117.5603
4707650000		0.95009	-121.042
4807600000		0.9492	-124.5211
4907550000		0.94872	-128.0421
5007500000		0.94873	-131.5938
5107450000		0.94923	-135.1423
5207400000		0.94941	-138.8055
5307350000		0.95007	-142.369
5407300000		0.94995	-146.0456
5507250000		0.95065	-149.685
5607200000		0.95056	-153.2839
5707150000		0.95086	-156.9089
5807100000		0.95035	-160.4024
5907050000		0.94964	-163.9767
6007000000		0.94888	-167.4026
6106950000		0.94795	-170.8744
6206900000		0.94723	-174.1933
6306850000		0.94619	-177.4894
6406800000		0.94497	179.2832
6506750000		0.94404	176.1118
6606700000		0.9431	173.0164
6706650000		0.94248	169.9762
6806600000		0.9417	166.9737
!
!				Infineon Technologies AG
