! Infineon Technologies  Discrete & RF Semiconductors
! BAT68-04
! VCA = 0.4 V
! One-Port S-Parameters
# Hz  S  MA  R  50
!f									S11
!Hz							Mag  Ang
309850000		0.99931	-7.8345
409800000		0.99864	-10.3208
509750000		0.99884	-12.8467
609700000		0.99842	-15.3621
709650000		0.99821	-17.9529
809600000		0.99789	-20.5174
909550000		0.99783	-23.1538
1009500000		0.99697	-25.7432
1109450000		0.99629	-28.4398
1209400000		0.9959	-31.091
1309350000		0.99491	-33.821
1409300000		0.99329	-36.5127
1509250000		0.99226	-39.266
1609200000		0.99127	-42.0142
1709150000		0.9894	-44.8562
1809100000		0.98727	-47.6392
1909050000		0.98607	-50.4772
2009000000		0.9852	-53.3514
2108950000		0.98335	-56.3291
2208900000		0.98196	-59.2681
2308850000		0.98088	-62.2326
2408800000		0.98046	-65.3538
2508750000		0.97974	-68.4173
2608700000		0.97902	-71.6315
2708650000		0.97803	-74.7816
2808600000		0.97781	-78.176
2908550000		0.97712	-81.505
3008500000		0.97574	-84.9621
3108450000		0.97498	-88.5289
3208400000		0.97317	-92.0875
3308350000		0.97104	-95.6941
3408300000		0.96888	-99.3867
3508250000		0.96668	-103.0889
3608200000		0.96363	-106.7962
3708150000		0.96051	-110.5741
3808100000		0.95725	-114.302
3908050000		0.95427	-118.0446
4008000000		0.95122	-121.8549
4107950000		0.94844	-125.6019
4207900000		0.94547	-129.3899
4307850000		0.94327	-133.1484
4407800000		0.9413	-136.9112
4507750000		0.94017	-140.622
4607700000		0.93925	-144.3714
4707650000		0.93903	-148.0881
4807600000		0.93906	-151.7675
4907550000		0.93969	-155.4409
5007500000		0.94044	-159.1068
5107450000		0.94153	-162.735
5207400000		0.94224	-166.4207
5307350000		0.94335	-169.9331
5407300000		0.94337	-173.5472
5507250000		0.94424	-177.007
5607200000		0.94403	179.554
5707150000		0.9446	176.1887
5807100000		0.94389	172.9616
5907050000		0.94324	169.7036
6007000000		0.94252	166.629
6106950000		0.94178	163.5257
6206900000		0.94115	160.6168
6306850000		0.94049	157.7199
6406800000		0.9395	154.924
6506750000		0.93891	152.1814
6606700000		0.93825	149.5253
6706650000		0.93797	146.9161
6806600000		0.93764	144.3681
!
!				Infineon Technologies AG
