! Infineon Technologies  Discrete & RF Semiconductors
! BAT68-04
! VCA = 5 V
! One-Port S-Parameters
# Hz  S  MA  R  50
!f									S11
!Hz							Mag  Ang
309850000		0.99919	-6.0487
409800000		0.99887	-8.0028
509750000		0.99913	-9.9639
609700000		0.99888	-11.9038
709650000		0.9988	-13.913
809600000		0.99858	-15.8986
909550000		0.99872	-17.9501
1009500000		0.99804	-19.9438
1109450000		0.99769	-22.0404
1209400000		0.99754	-24.0901
1309350000		0.99693	-26.2069
1409300000		0.99559	-28.2872
1509250000		0.99498	-30.4134
1609200000		0.99437	-32.5391
1709150000		0.99297	-34.7315
1809100000		0.99106	-36.8786
1909050000		0.99028	-39.0506
2009000000		0.98963	-41.2733
2108950000		0.98821	-43.5613
2208900000		0.98705	-45.8312
2308850000		0.98634	-48.0806
2408800000		0.98606	-50.4698
2508750000		0.98594	-52.8387
2608700000		0.98558	-55.3311
2708650000		0.98539	-57.7653
2808600000		0.98527	-60.3513
2908550000		0.98555	-62.9679
3008500000		0.98535	-65.7008
3108450000		0.98531	-68.4969
3208400000		0.98435	-71.3218
3308350000		0.98315	-74.2086
3408300000		0.98198	-77.1909
3508250000		0.9808	-80.2263
3608200000		0.97861	-83.2577
3708150000		0.97615	-86.406
3808100000		0.97345	-89.5794
3908050000		0.97075	-92.7289
4008000000		0.9679	-95.9906
4107950000		0.96494	-99.2412
4207900000		0.96171	-102.5448
4307850000		0.95881	-105.874
4407800000		0.95611	-109.2413
4507750000		0.95398	-112.6133
4607700000		0.95222	-116.0375
4707650000		0.95073	-119.4924
4807600000		0.94975	-122.9449
4907550000		0.94928	-126.4449
5007500000		0.94924	-129.9762
5107450000		0.94969	-133.5104
5207400000		0.94982	-137.1572
5307350000		0.95048	-140.7083
5407300000		0.95032	-144.3732
5507250000		0.95097	-148.0115
5607200000		0.95087	-151.6058
5707150000		0.95123	-155.2327
5807100000		0.9507	-158.7321
5907050000		0.94999	-162.315
6007000000		0.94928	-165.7485
6106950000		0.94828	-169.2347
6206900000		0.94753	-172.569
6306850000		0.94652	-175.8805
6406800000		0.94531	-179.1309
6506750000		0.94436	177.6807
6606700000		0.94334	174.5631
6706650000		0.94271	171.5004
6806600000		0.94194	168.4755
!
!				Infineon Technologies AG
