! Infineon Technologies  Discrete & RF Semiconductors
! BAT68-04
! IAC = 0.8 mA
! One-Port S-Parameters
# Hz  S  MA  R  50
!f									S11
!Hz							Mag  Ang
309850000		0.09158	-170.7168
409800000		0.09698	-168.917
509750000		0.10148	-166.2218
609700000		0.1081	-164.8148
709650000		0.11282	-161.8103
809600000		0.12025	-160.4118
909550000		0.1291	-158.9267
1009500000		0.13833	-159.8467
1109450000		0.14722	-159.6106
1209400000		0.15543	-160.9277
1309350000		0.16576	-161.1854
1409300000		0.17578	-162.1958
1509250000		0.18799	-163.9863
1609200000		0.19819	-165.3131
1709150000		0.20685	-166.5886
1809100000		0.21923	-168.4154
1909050000		0.23081	-170.6844
2009000000		0.24244	-172.5897
2108950000		0.25466	-174.1317
2208900000		0.266	-175.6668
2308850000		0.27795	-177.7177
2408800000		0.28908	-178.9807
2508750000		0.30064	178.8916
2608700000		0.31353	176.9359
2708650000		0.32516	174.7093
2808600000		0.33879	172.7296
2908550000		0.35058	170.6138
3008500000		0.36167	167.942
3108450000		0.37414	165.9937
3208400000		0.38656	163.8212
3308350000		0.3993	162.0686
3408300000		0.41196	160.0408
3508250000		0.42424	158.1394
3608200000		0.43616	155.6999
3708150000		0.44871	153.8066
3808100000		0.46095	152.0049
3908050000		0.47264	150.1952
4008000000		0.48482	148.1227
4107950000		0.49681	146.1817
4207900000		0.50903	144.3765
4307850000		0.52106	142.666
4407800000		0.53323	140.7157
4507750000		0.5452	138.9897
4607700000		0.55673	137.1389
4707650000		0.56877	135.5459
4807600000		0.57989	133.8504
4907550000		0.59132	132.2404
5007500000		0.60206	130.5054
5107450000		0.61215	128.63
5207400000		0.62271	127.0365
5307350000		0.63249	125.5326
5407300000		0.64203	123.8611
5507250000		0.6508	122.2556
5607200000		0.65889	120.613
5707150000		0.66759	119.1471
5807100000		0.67506	117.7083
5907050000		0.68271	116.1776
6007000000		0.68988	114.8373
6106950000		0.69731	113.4213
6206900000		0.70397	112.0845
6306850000		0.71076	110.6745
6406800000		0.71678	109.3404
6506750000		0.72298	107.9753
6606700000		0.72884	106.6506
6706650000		0.73462	105.2993
6806600000		0.7406	104.0316
!
!				Infineon Technologies AG
