! Infineon Technologies  Discrete & RF Semiconductors
! BAT68-04
! VCA = 0.8 V
! One-Port S-Parameters
# Hz  S  MA  R  50
!f									S11
!Hz							Mag  Ang
309850000		0.99937	-7.1722
409800000		0.99874	-9.444
509750000		0.99888	-11.7502
609700000		0.99859	-14.0504
709650000		0.99835	-16.4218
809600000		0.99815	-18.7662
909550000		0.99821	-21.1817
1009500000		0.99745	-23.5431
1109450000		0.99687	-26.0168
1209400000		0.9966	-28.442
1309350000		0.99575	-30.9378
1409300000		0.99426	-33.4029
1509250000		0.99341	-35.9191
1609200000		0.99256	-38.4334
1709150000		0.99091	-41.0304
1809100000		0.98889	-43.5771
1909050000		0.98787	-46.1683
2009000000		0.98708	-48.8001
2108950000		0.98542	-51.5228
2208900000		0.98413	-54.2156
2308850000		0.98309	-56.8845
2408800000		0.98298	-59.7861
2508750000		0.98228	-62.546
2608700000		0.98185	-65.5365
2708650000		0.98126	-68.4509
2808600000		0.98088	-71.5153
2908550000		0.98081	-74.6121
3008500000		0.97998	-77.8385
3108450000		0.9793	-81.1182
3208400000		0.97766	-84.397
3308350000		0.97606	-87.7946
3408300000		0.97427	-91.2549
3508250000		0.97242	-94.7406
3608200000		0.96968	-98.2323
3708150000		0.96672	-101.8157
3808100000		0.96376	-105.4008
3908050000		0.96066	-108.9469
4008000000		0.95755	-112.6004
4107950000		0.95466	-116.213
4207900000		0.95148	-119.8751
4307850000		0.9489	-123.528
4407800000		0.94664	-127.1989
4507750000		0.94516	-130.8444
4607700000		0.94379	-134.5301
4707650000		0.94315	-138.2072
4807600000		0.94281	-141.8635
4907550000		0.94305	-145.5323
5007500000		0.94353	-149.2079
5107450000		0.94446	-152.8576
5207400000		0.94496	-156.5894
5307350000		0.94592	-160.1676
5407300000		0.94593	-163.8542
5507250000		0.94675	-167.4249
5607200000		0.9466	-170.9671
5707150000		0.94705	-174.4686
5807100000		0.94645	-177.8279
5907050000		0.94579	178.7631
6007000000		0.94499	175.5324
6106950000		0.94417	172.2658
6206900000		0.94356	169.1865
6306850000		0.94274	166.1253
6406800000		0.94158	163.1572
6506750000		0.94092	160.2439
6606700000		0.94019	157.4167
6706650000		0.93977	154.6429
6806600000		0.93924	151.9236
!
!				Infineon Technologies AG
