! Infineon Technologies  Discrete & RF Semiconductors
! BAT68-04
! IAC = 0.4 mA
! One-Port S-Parameters
# Hz  S  MA  R  50
!f									S11
!Hz							Mag  Ang
309850000		0.28746	-15.3976
409800000		0.28636	-20.1963
509750000		0.28832	-25.3879
609700000		0.28823	-30.6234
709650000		0.29455	-35.9245
809600000		0.29281	-41.4694
909550000		0.29888	-47.1525
1009500000		0.30119	-52.0584
1109450000		0.30743	-57.1131
1209400000		0.30577	-61.9191
1309350000		0.30948	-67.5992
1409300000		0.31255	-72.9101
1509250000		0.31348	-78.5643
1609200000		0.31927	-83.6485
1709150000		0.33091	-87.5223
1809100000		0.33465	-93.1307
1909050000		0.33564	-98.3866
2009000000		0.33928	-103.7147
2108950000		0.35095	-108.4173
2208900000		0.35867	-113.1658
2308850000		0.36591	-117.9537
2408800000		0.3772	-122.1946
2508750000		0.38523	-126.7618
2608700000		0.39551	-131.3217
2708650000		0.40279	-135.9412
2808600000		0.41652	-140.0564
2908550000		0.42485	-144.4669
3008500000		0.43048	-148.9498
3108450000		0.44193	-153.0855
3208400000		0.4536	-156.9779
3308350000		0.46635	-160.7036
3408300000		0.47725	-164.5664
3508250000		0.48887	-168.2373
3608200000		0.49813	-172.1474
3708150000		0.50943	-175.7082
3808100000		0.52141	-179.0207
3908050000		0.53276	177.7074
4008000000		0.54297	174.1945
4107950000		0.55421	171.0566
4207900000		0.56715	168.1308
4307850000		0.58012	165.3522
4407800000		0.59067	162.2366
4507750000		0.60244	159.4426
4607700000		0.61376	156.6305
4707650000		0.62725	154.1904
4807600000		0.63857	151.6098
4907550000		0.65064	149.1688
5007500000		0.66106	146.6045
5107450000		0.67036	143.9915
5207400000		0.68132	141.6509
5307350000		0.69172	139.4695
5407300000		0.70104	137.142
5507250000		0.70903	134.8993
5607200000		0.71667	132.6793
5707150000		0.72513	130.6528
5807100000		0.73242	128.7018
5907050000		0.73918	126.6527
6007000000		0.7462	124.8521
6106950000		0.75319	122.9856
6206900000		0.75932	121.2366
6306850000		0.76527	119.4236
6406800000		0.77052	117.7099
6506750000		0.77603	115.9991
6606700000		0.78109	114.3381
6706650000		0.78613	112.6715
6806600000		0.79151	111.0994
!
!				Infineon Technologies AG
