! Infineon Technologies  Discrete & RF Semiconductors
! BAT68-04
! VCA = 3 V
! One-Port S-Parameters
# Hz  S  MA  R  50
!f									S11
!Hz							Mag  Ang
309850000		0.99922	-6.2538
409800000		0.9988	-8.272
509750000		0.99902	-10.2969
609700000		0.99877	-12.3058
709650000		0.99865	-14.3823
809600000		0.99848	-16.4315
909550000		0.99863	-18.5516
1009500000		0.99792	-20.6119
1109450000		0.99748	-22.7802
1209400000		0.99735	-24.9014
1309350000		0.99668	-27.0883
1409300000		0.99534	-29.2377
1509250000		0.99471	-31.4377
1609200000		0.99407	-33.6364
1709150000		0.99263	-35.9051
1809100000		0.99075	-38.1272
1909050000		0.98992	-40.3784
2009000000		0.98924	-42.677
2108950000		0.98775	-45.0469
2208900000		0.98661	-47.3966
2308850000		0.98584	-49.7323
2408800000		0.98573	-52.2446
2508750000		0.98535	-54.6614
2608700000		0.98496	-57.2438
2708650000		0.98452	-59.7346
2808600000		0.98476	-62.4826
2908550000		0.98458	-65.1216
3008500000		0.98445	-67.9883
3108450000		0.98406	-70.8467
3208400000		0.98329	-73.8005
3308350000		0.98202	-76.7844
3408300000		0.98072	-79.8635
3508250000		0.97936	-82.9928
3608200000		0.97707	-86.1183
3708150000		0.97444	-89.3589
3808100000		0.97175	-92.6203
3908050000		0.96895	-95.854
4008000000		0.96599	-99.202
4107950000		0.96304	-102.5366
4207900000		0.9598	-105.9192
4307850000		0.95697	-109.3257
4407800000		0.95431	-112.767
4507750000		0.95228	-116.2035
4607700000		0.95057	-119.693
4707650000		0.94924	-123.2092
4807600000		0.94844	-126.7177
4907550000		0.94809	-130.2687
5007500000		0.94814	-133.8467
5107450000		0.94869	-137.419
5207400000		0.94892	-141.0991
5307350000		0.94965	-144.6741
5407300000		0.94955	-148.3622
5507250000		0.95024	-152.0036
5607200000		0.95015	-155.6062
5707150000		0.95053	-159.2244
5807100000		0.94995	-162.7077
5907050000		0.9492	-166.271
6007000000		0.94851	-169.6788
6106950000		0.94757	-173.1323
6206900000		0.94684	-176.4263
6306850000		0.94586	-179.6961
6406800000		0.94463	177.1009
6506750000		0.94376	173.9596
6606700000		0.94282	170.8935
6706650000		0.94219	167.8866
6806600000		0.94152	164.9174
!
!				Infineon Technologies AG
