! Infineon Technologies  Discrete & RF Semiconductors
! BAT68-04
! IAC = 0.3 mA
! One-Port S-Parameters
# Hz  S  MA  R  50
!f									S11
!Hz							Mag  Ang
309850000		0.42405	-13.5641
409800000		0.4231	-17.8373
509750000		0.42428	-22.3308
609700000		0.42388	-26.9243
709650000		0.42922	-31.5998
809600000		0.42456	-36.4216
909550000		0.42925	-41.4102
1009500000		0.43145	-45.753
1109450000		0.43652	-50.3297
1209400000		0.43248	-54.693
1309350000		0.43335	-59.791
1409300000		0.43349	-64.5853
1509250000		0.43175	-69.5902
1609200000		0.43533	-74.3519
1709150000		0.44742	-78.1826
1809100000		0.44767	-83.3026
1909050000		0.44533	-88.2127
2009000000		0.44492	-93.1479
2108950000		0.45482	-97.8179
2208900000		0.45912	-102.4959
2308850000		0.46339	-107.1899
2408800000		0.4718	-111.657
2508750000		0.47698	-116.2116
2608700000		0.48444	-120.8436
2708650000		0.48812	-125.5157
2808600000		0.50056	-129.8107
2908550000		0.50536	-134.4143
3008500000		0.50813	-139.0596
3108450000		0.5167	-143.4017
3208400000		0.52658	-147.4718
3308350000		0.53696	-151.5638
3408300000		0.54518	-155.7211
3508250000		0.55437	-159.6965
3608200000		0.56119	-163.7974
3708150000		0.57001	-167.7115
3808100000		0.57978	-171.3731
3908050000		0.58887	-174.9332
4008000000		0.59669	-178.7565
4107950000		0.60616	177.8285
4207900000		0.61775	174.6121
4307850000		0.62944	171.5478
4407800000		0.638	168.1653
4507750000		0.6482	165.0929
4607700000		0.65809	162.032
4707650000		0.67081	159.3456
4807600000		0.6809	156.5182
4907550000		0.69192	153.84
5007500000		0.70107	151.0508
5107450000		0.70918	148.2501
5207400000		0.71913	145.691
5307350000		0.72857	143.3099
5407300000		0.73685	140.797
5507250000		0.74376	138.3795
5607200000		0.75034	135.9982
5707150000		0.75793	133.8134
5807100000		0.7643	131.7089
5907050000		0.77002	129.52
6007000000		0.77618	127.5835
6106950000		0.7823	125.588
6206900000		0.78756	123.7234
6306850000		0.79266	121.796
6406800000		0.79702	119.9789
6506750000		0.80183	118.1701
6606700000		0.80611	116.4169
6706650000		0.81044	114.6623
6806600000		0.8151	113.0052
!
!				Infineon Technologies AG
