! Infineon Technologies  Discrete & RF Semiconductors
! BAT68-04
! IAC = 0.08 mA
! One-Port S-Parameters
# Hz  S  MA  R  50
!f									S11
!Hz							Mag  Ang
309850000		0.81625	-11.6047
409800000		0.81587	-15.3471
509750000		0.81566	-19.1391
609700000		0.8154	-22.9338
709650000		0.8174	-26.8173
809600000		0.81186	-30.7915
909550000		0.81314	-34.7746
1009500000		0.81475	-38.5679
1109450000		0.81617	-42.4768
1209400000		0.81129	-46.4632
1309350000		0.80896	-50.5699
1409300000		0.80555	-54.632
1509250000		0.80272	-58.7515
1609200000		0.80205	-62.791
1709150000		0.80842	-66.4999
1809100000		0.8052	-70.6841
1909050000		0.80041	-74.9627
2009000000		0.79641	-79.2893
2108950000		0.79973	-83.363
2208900000		0.79813	-87.6012
2308850000		0.79734	-91.8575
2408800000		0.79778	-96.1911
2508750000		0.79757	-100.454
2608700000		0.79853	-104.7946
2708650000		0.79611	-109.2892
2808600000		0.80181	-113.3901
2908550000		0.79961	-117.9424
3008500000		0.79694	-122.4911
3108450000		0.79759	-126.9335
3208400000		0.80053	-131.0752
3308350000		0.80199	-135.3482
3408300000		0.80178	-139.7199
3508250000		0.80272	-143.9391
3608200000		0.80263	-148.181
3708150000		0.80292	-152.3908
3808100000		0.80412	-156.4538
3908050000		0.80508	-160.3889
4008000000		0.80536	-164.505
4107950000		0.80775	-168.2854
4207900000		0.81181	-171.8956
4307850000		0.81642	-175.3811
4407800000		0.81834	-179.135
4507750000		0.82205	177.3588
4607700000		0.82603	173.9045
4707650000		0.83277	170.794
4807600000		0.83714	167.5316
4907550000		0.8426	164.4264
5007500000		0.84652	161.2344
5107450000		0.85031	158.0839
5207400000		0.85476	155.1003
5307350000		0.85934	152.3294
5407300000		0.8627	149.4493
5507250000		0.86543	146.6806
5607200000		0.86769	143.9676
5707150000		0.871	141.4478
5807100000		0.87307	139.0342
5907050000		0.87478	136.5421
6007000000		0.87683	134.3165
6106950000		0.87906	132.0446
6206900000		0.88086	129.9269
6306850000		0.88255	127.7553
6406800000		0.88358	125.7093
6506750000		0.88537	123.6861
6606700000		0.88677	121.7309
6706650000		0.88827	119.783
6806600000		0.89011	117.9373
!
!				Infineon Technologies AG
