! Infineon Technologies  Discrete & RF Semiconductors
! BAT68-04
! VCA = 2 V
! One-Port S-Parameters
# Hz  S  MA  R  50
!f									S11
!Hz							Mag  Ang
309850000		0.99917	-6.4531
409800000		0.99878	-8.5343
509750000		0.99896	-10.6219
609700000		0.9988	-12.6952
709650000		0.99861	-14.8387
809600000		0.99836	-16.9546
909550000		0.99853	-19.1388
1009500000		0.99781	-21.2702
1109450000		0.99736	-23.506
1209400000		0.99721	-25.6931
1309350000		0.9965	-27.9498
1409300000		0.99507	-30.1715
1509250000		0.99441	-32.4432
1609200000		0.99372	-34.7121
1709150000		0.99226	-37.0538
1809100000		0.99036	-39.3493
1909050000		0.9895	-41.678
2009000000		0.98874	-44.0514
2108950000		0.98734	-46.5009
2208900000		0.9861	-48.9296
2308850000		0.98517	-51.3159
2408800000		0.98502	-53.9034
2508750000		0.9846	-56.4115
2608700000		0.98438	-59.1157
2708650000		0.98404	-61.7306
2808600000		0.98405	-64.5311
2908550000		0.98402	-67.2986
3008500000		0.98355	-70.2182
3108450000		0.98328	-73.2038
3208400000		0.98222	-76.217
3308350000		0.98076	-79.2895
3408300000		0.97935	-82.4604
3508250000		0.97789	-85.6763
3608200000		0.97552	-88.8906
3708150000		0.97281	-92.2172
3808100000		0.97007	-95.5599
3908050000		0.9671	-98.8734
4008000000		0.96415	-102.2994
4107950000		0.9612	-105.7064
4207900000		0.95797	-109.1622
4307850000		0.95514	-112.6372
4407800000		0.95257	-116.1402
4507750000		0.95074	-119.6391
4607700000		0.94908	-123.1849
4707650000		0.94787	-126.7484
4807600000		0.94717	-130.3045
4907550000		0.94693	-133.8939
5007500000		0.94712	-137.5068
5107450000		0.94782	-141.1104
5207400000		0.94803	-144.8164
5307350000		0.94883	-148.4067
5407300000		0.94874	-152.106
5507250000		0.94946	-155.7423
5607200000		0.94938	-159.3412
5707150000		0.94976	-162.9447
5807100000		0.94921	-166.4092
5907050000		0.94847	-169.9455
6007000000		0.94776	-173.32
6106950000		0.94682	-176.7373
6206900000		0.94612	-179.9861
6306850000		0.94519	176.7859
6406800000		0.94398	173.6325
6506750000		0.94317	170.5411
6606700000		0.94227	167.5288
6706650000		0.94171	164.573
6806600000		0.94103	161.6613
!
!				Infineon Technologies AG
