! Infineon Technologies  Discrete & RF Semiconductors
! BAT68-04
! VCA = 0.5 V
! One-Port S-Parameters
# Hz  S  MA  R  50
!f									S11
!Hz							Mag  Ang
309850000		0.99941	-7.6248
409800000		0.99872	-10.0399
509750000		0.99887	-12.4971
609700000		0.99855	-14.9434
709650000		0.99826	-17.4625
809600000		0.99799	-19.9587
909550000		0.99802	-22.5246
1009500000		0.99716	-25.0405
1109450000		0.99654	-27.6679
1209400000		0.99613	-30.2434
1309350000		0.99526	-32.8997
1409300000		0.99364	-35.5202
1509250000		0.99268	-38.1985
1609200000		0.99174	-40.8718
1709150000		0.98999	-43.6357
1809100000		0.98787	-46.3443
1909050000		0.98675	-49.1041
2009000000		0.98583	-51.9006
2108950000		0.9841	-54.7972
2208900000		0.98271	-57.6618
2308850000		0.98168	-60.5425
2408800000		0.98134	-63.5853
2508750000		0.98069	-66.5623
2608700000		0.97999	-69.6965
2708650000		0.97925	-72.7972
2808600000		0.97894	-76.0762
2908550000		0.97838	-79.3239
3008500000		0.9771	-82.6994
3108450000		0.97642	-86.1903
3208400000		0.97483	-89.6727
3308350000		0.97277	-93.2074
3408300000		0.9707	-96.831
3508250000		0.96861	-100.4697
3608200000		0.96547	-104.0802
3708150000		0.96252	-107.8339
3808100000		0.95949	-111.5463
3908050000		0.95632	-115.2083
4008000000		0.95321	-118.9779
4107950000		0.95039	-122.6855
4207900000		0.94737	-126.4417
4307850000		0.94499	-130.1741
4407800000		0.94289	-133.9104
4507750000		0.94171	-137.6081
4607700000		0.94066	-141.3461
4707650000		0.94032	-145.0543
4807600000		0.94022	-148.7357
4907550000		0.94073	-152.4118
5007500000		0.94139	-156.087
5107450000		0.94252	-159.7288
5207400000		0.94309	-163.432
5307350000		0.94412	-166.9699
5407300000		0.94419	-170.6144
5507250000		0.94507	-174.1124
5607200000		0.94484	-177.5889
5707150000		0.94533	179.0007
5807100000		0.94469	175.7301
5907050000		0.94406	172.4228
6007000000		0.9433	169.2965
6106950000		0.94256	166.1405
6206900000		0.94195	163.1769
6306850000		0.94125	160.229
6406800000		0.94015	157.3813
6506750000		0.93954	154.5828
6606700000		0.93889	151.8732
6706650000		0.93851	149.2148
6806600000		0.93812	146.6158
!
!				Infineon Technologies AG
