! Infineon Technologies  Discrete & RF Semiconductors
! BAT68-04
! VCA = 0.2 V
! One-Port S-Parameters
# Hz  S  MA  R  50
!f									S11
!Hz							Mag  Ang
309850000		0.99904	-8.3811
409800000		0.99858	-11.086
509750000		0.99842	-13.7665
609700000		0.99824	-16.507
709650000		0.99795	-19.2853
809600000		0.99754	-22.0421
909550000		0.99743	-24.8711
1009500000		0.99646	-27.6509
1109450000		0.99569	-30.5465
1209400000		0.99515	-33.3926
1309350000		0.99402	-36.3195
1409300000		0.99229	-39.2106
1509250000		0.99109	-42.1676
1609200000		0.98993	-45.1104
1709150000		0.98788	-48.1571
1809100000		0.98563	-51.1422
1909050000		0.9843	-54.1907
2009000000		0.98302	-57.2344
2108950000		0.98128	-60.4567
2208900000		0.97975	-63.6048
2308850000		0.97855	-66.7845
2408800000		0.97799	-70.1145
2508750000		0.97713	-73.39
2608700000		0.97623	-76.8161
2708650000		0.97518	-80.2173
2808600000		0.97437	-83.751
2908550000		0.97369	-87.3177
3008500000		0.97217	-91.0111
3108450000		0.9709	-94.7377
3208400000		0.96879	-98.4828
3308350000		0.9665	-102.2647
3408300000		0.96411	-106.1251
3508250000		0.96167	-109.9741
3608200000		0.95842	-113.8267
3708150000		0.95522	-117.7278
3808100000		0.95221	-121.6017
3908050000		0.94891	-125.4077
4008000000		0.94595	-129.3049
4107950000		0.94339	-133.1224
4207900000		0.94067	-136.9741
4307850000		0.93851	-140.744
4407800000		0.93706	-144.567
4507750000		0.93633	-148.2945
4607700000		0.93574	-152.0525
4707650000		0.93586	-155.7544
4807600000		0.93627	-159.4154
4907550000		0.93707	-163.0536
5007500000		0.93802	-166.6712
5107450000		0.93933	-170.2461
5207400000		0.9401	-173.8605
5307350000		0.94129	-177.2879
5407300000		0.94141	179.1879
5507250000		0.94229	175.8413
5607200000		0.94205	172.5081
5707150000		0.94256	169.2739
5807100000		0.94181	166.1728
5907050000		0.94128	163.0495
6007000000		0.94057	160.111
6106950000		0.93991	157.1465
6206900000		0.93937	154.3782
6306850000		0.9388	151.6177
6406800000		0.93777	148.9653
6506750000		0.93736	146.3551
6606700000		0.93677	143.8333
6706650000		0.93657	141.3536
6806600000		0.93626	138.9388
!
!				Infineon Technologies AG
