! Infineon Technologies  Discrete & RF Semiconductors
! BAT68-04
! VCA = 1 V
! One-Port S-Parameters
# Hz  S  MA  R  50
!f									S11
!Hz							Mag  Ang
309850000		0.99922	-6.939
409800000		0.99876	-9.1765
509750000		0.99891	-11.423
609700000		0.99863	-13.6561
709650000		0.99847	-15.96
809600000		0.99802	-18.2054
909550000		0.99828	-20.5861
1009500000		0.99755	-22.8824
1109450000		0.997	-25.2846
1209400000		0.99679	-27.6403
1309350000		0.996	-30.0674
1409300000		0.9945	-32.4605
1509250000		0.99374	-34.9064
1609200000		0.99297	-37.3506
1709150000		0.99142	-39.8742
1809100000		0.98941	-42.3469
1909050000		0.98836	-44.8604
2009000000		0.98756	-47.4192
2108950000		0.98603	-50.0622
2208900000		0.98473	-52.6809
2308850000		0.98386	-55.3011
2408800000		0.98366	-58.0898
2508750000		0.98316	-60.7994
2608700000		0.98262	-63.6731
2708650000		0.98193	-66.4678
2808600000		0.98182	-69.4823
2908550000		0.98177	-72.4973
3008500000		0.9811	-75.6371
3108450000		0.98033	-78.8006
3208400000		0.97921	-82.0618
3308350000		0.97755	-85.3474
3408300000		0.97586	-88.727
3508250000		0.97408	-92.1395
3608200000		0.97145	-95.5541
3708150000		0.96851	-99.0703
3808100000		0.9656	-102.5907
3908050000		0.9626	-106.0745
4008000000		0.95951	-109.6703
4107950000		0.95661	-113.2313
4207900000		0.9534	-116.8387
4307850000		0.95083	-120.4496
4407800000		0.94837	-124.0807
4507750000		0.94678	-127.6903
4607700000		0.94543	-131.3451
4707650000		0.9445	-134.997
4807600000		0.9441	-138.6338
4907550000		0.94421	-142.288
5007500000		0.94461	-145.9529
5107450000		0.94546	-149.5983
5207400000		0.94587	-153.3296
5307350000		0.94681	-156.9202
5407300000		0.94683	-160.6194
5507250000		0.94761	-164.2145
5607200000		0.94748	-167.7822
5707150000		0.94789	-171.3164
5807100000		0.94726	-174.7115
5907050000		0.94661	-178.1631
6007000000		0.94585	178.5616
6106950000		0.94501	175.2491
6206900000		0.94434	172.1187
6306850000		0.94347	169.0082
6406800000		0.94231	165.9854
6506750000		0.94163	163.0189
6606700000		0.94086	160.1391
6706650000		0.94037	157.3117
6806600000		0.93982	154.5398
!
!				Infineon Technologies AG
