! Infineon Technologies  Discrete & RF Semiconductors
! BAT68-04
! IAC = 6 mA
! One-Port S-Parameters
# Hz  S  MA  R  50
!f									S11
!Hz							Mag  Ang
309850000		0.75045	174.0802
409800000		0.74973	172.299
509750000		0.74911	170.4964
609700000		0.74911	168.6299
709650000		0.74839	166.9285
809600000		0.74847	165.172
909550000		0.74834	163.4249
1009500000		0.74854	161.627
1109450000		0.74895	159.9979
1209400000		0.74966	158.2459
1309350000		0.75012	156.5366
1409300000		0.75086	154.8077
1509250000		0.75194	153.1801
1609200000		0.7534	151.4251
1709150000		0.75459	149.7309
1809100000		0.75551	148.0442
1909050000		0.75711	146.4306
2009000000		0.75919	144.7062
2108950000		0.76066	143.0611
2208900000		0.76164	141.4452
2308850000		0.76316	139.8008
2408800000		0.76486	138.204
2508750000		0.76614	136.5448
2608700000		0.76743	134.9999
2708650000		0.76855	133.3887
2808600000		0.77024	131.9135
2908550000		0.77124	130.3812
3008500000		0.77315	128.8722
3108450000		0.77423	127.4435
3208400000		0.7759	125.9992
3308350000		0.77765	124.5999
3408300000		0.77943	123.2719
3508250000		0.78138	121.9243
3608200000		0.78367	120.554
3708150000		0.78606	119.2745
3808100000		0.78851	117.9934
3908050000		0.79084	116.7168
4008000000		0.79368	115.4361
4107950000		0.79625	114.1913
4207900000		0.79918	112.9224
4307850000		0.80213	111.7108
4407800000		0.80534	110.5105
4507750000		0.80848	109.3255
4607700000		0.81127	108.0906
4707650000		0.81446	106.9201
4807600000		0.81691	105.721
4907550000		0.81955	104.5637
5007500000		0.82155	103.3874
5107450000		0.82351	102.197
5207400000		0.8252	101.0596
5307350000		0.82646	99.9643
5407300000		0.82781	98.8266
5507250000		0.82876	97.8325
5607200000		0.82946	96.7303
5707150000		0.83045	95.7692
5807100000		0.83086	94.7428
5907050000		0.83182	93.7655
6007000000		0.83232	92.8174
6106950000		0.83332	91.8469
6206900000		0.83399	90.9341
6306850000		0.83522	89.9627
6406800000		0.83583	89.0539
6506750000		0.83684	88.0969
6606700000		0.83763	87.1625
6706650000		0.83869	86.196
6806600000		0.83986	85.2808
!
!				Infineon Technologies AG
