! Infineon Technologies  Discrete & RF Semiconductors
! BAT68-04
! VCA = 0.3 V
! One-Port S-Parameters
# Hz  S  MA  R  50
!f									S11
!Hz							Mag  Ang
309850000		0.99907	-8.0617
409800000		0.99863	-10.6632
509750000		0.99865	-13.2759
609700000		0.9983	-15.8753
709650000		0.99803	-18.5477
809600000		0.99768	-21.1989
909550000		0.99764	-23.9223
1009500000		0.99667	-26.5978
1109450000		0.996	-29.3814
1209400000		0.99557	-32.121
1309350000		0.99448	-34.9399
1409300000		0.99281	-37.7198
1509250000		0.99172	-40.5657
1609200000		0.99063	-43.4017
1709150000		0.98878	-46.3347
1809100000		0.98663	-49.2117
1909050000		0.9853	-52.1392
2009000000		0.98437	-55.1076
2108950000		0.98246	-58.1817
2208900000		0.98096	-61.2161
2308850000		0.97986	-64.2753
2408800000		0.97938	-67.497
2508750000		0.97853	-70.6557
2608700000		0.97775	-73.9643
2708650000		0.97687	-77.2469
2808600000		0.97636	-80.7017
2908550000		0.97558	-84.1235
3008500000		0.97428	-87.7074
3108450000		0.9732	-91.3318
3208400000		0.97127	-94.9787
3308350000		0.96907	-98.6679
3408300000		0.9666	-102.4055
3508250000		0.96447	-106.2127
3608200000		0.96133	-109.9897
3708150000		0.95814	-113.8263
3808100000		0.95504	-117.6432
3908050000		0.95186	-121.3985
4008000000		0.94886	-125.2555
4107950000		0.94613	-129.0362
4207900000		0.94323	-132.8606
4307850000		0.94114	-136.6433
4407800000		0.93927	-140.4205
4507750000		0.93832	-144.1438
4607700000		0.93758	-147.9024
4707650000		0.93758	-151.6167
4807600000		0.93776	-155.2936
4907550000		0.93845	-158.9519
5007500000		0.93929	-162.6015
5107450000		0.94053	-166.2108
5207400000		0.94123	-169.8647
5307350000		0.94233	-173.3399
5407300000		0.94248	-176.9175
5507250000		0.9434	179.6706
5607200000		0.94315	176.2775
5707150000		0.94364	172.9698
5807100000		0.94298	169.7983
5907050000		0.94236	166.6009
6007000000		0.94164	163.5894
6106950000		0.94095	160.5495
6206900000		0.94033	157.7014
6306850000		0.93977	154.8686
6406800000		0.93874	152.1382
6506750000		0.93823	149.4551
6606700000		0.93754	146.8603
6706650000		0.93729	144.3125
6806600000		0.93705	141.8269
!
!				Infineon Technologies AG
