! Infineon Technologies  Discrete & RF Semiconductors
! BAT68-04
! IAC = 0.9 mA
! One-Port S-Parameters
# Hz  S  MA  R  50
!f									S11
!Hz							Mag  Ang
309850000		0.15201	-178.1343
409800000		0.15602	-177.8257
509750000		0.15878	-176.9718
609700000		0.16338	-176.6181
709650000		0.1656	-175.3838
809600000		0.17013	-174.6957
909550000		0.17617	-173.9046
1009500000		0.18375	-174.5651
1109450000		0.19035	-174.4605
1209400000		0.19698	-175.3567
1309350000		0.20463	-175.4419
1409300000		0.21256	-176.0985
1509250000		0.22302	-177.1829
1609200000		0.23148	-178.1657
1709150000		0.23902	-179.2962
1809100000		0.2496	179.4697
1909050000		0.26007	177.8513
2009000000		0.27017	176.4616
2108950000		0.28082	175.2419
2208900000		0.29049	174.0885
2308850000		0.30124	172.4706
2408800000		0.31062	171.4644
2508750000		0.32112	169.7184
2608700000		0.33268	168.1489
2708650000		0.34329	166.3104
2808600000		0.35569	164.6901
2908550000		0.36645	162.8904
3008500000		0.3771	160.6339
3108450000		0.38848	158.9504
3208400000		0.40005	157.0637
3308350000		0.41167	155.5398
3408300000		0.42333	153.8288
3508250000		0.4347	152.155
3608200000		0.44598	150.0577
3708150000		0.45788	148.349
3808100000		0.46895	146.831
3908050000		0.47984	145.2317
4008000000		0.49176	143.299
4107950000		0.50287	141.6249
4207900000		0.51432	139.9901
4307850000		0.52556	138.4383
4407800000		0.53725	136.6902
4507750000		0.54856	135.1296
4607700000		0.55951	133.4377
4707650000		0.57083	131.9693
4807600000		0.58136	130.4184
4907550000		0.59211	128.9364
5007500000		0.60233	127.3429
5107450000		0.61206	125.6038
5207400000		0.62206	124.1282
5307350000		0.63128	122.7324
5407300000		0.64035	121.176
5507250000		0.64879	119.6868
5607200000		0.6566	118.1478
5707150000		0.66493	116.7796
5807100000		0.67199	115.4303
5907050000		0.6794	113.9964
6007000000		0.68627	112.7374
6106950000		0.69345	111.4011
6206900000		0.69986	110.1415
6306850000		0.70649	108.807
6406800000		0.71235	107.5428
6506750000		0.71841	106.2487
6606700000		0.7241	104.9853
6706650000		0.72973	103.6975
6806600000		0.73563	102.4883
!
!				Infineon Technologies AG
