! Infineon Technologies  Discrete & RF Semiconductors
! BAT68-04
! VCA = 0.7 V
! One-Port S-Parameters
# Hz  S  MA  R  50
!f									S11
!Hz							Mag  Ang
309850000		0.99921	-7.2666
409800000		0.99875	-9.6104
509750000		0.99889	-11.9623
609700000		0.99861	-14.3022
709650000		0.99837	-16.714
809600000		0.9981	-19.1006
909550000		0.99818	-21.5587
1009500000		0.99737	-23.9641
1109450000		0.99678	-26.4796
1209400000		0.99655	-28.9452
1309350000		0.99559	-31.4885
1409300000		0.9941	-33.9938
1509250000		0.99327	-36.5589
1609200000		0.99235	-39.1174
1709150000		0.99072	-41.7591
1809100000		0.98873	-44.3533
1909050000		0.98757	-46.9933
2009000000		0.98675	-49.6697
2108950000		0.98514	-52.4417
2208900000		0.98373	-55.1847
2308850000		0.98279	-57.9353
2408800000		0.98251	-60.8564
2508750000		0.98201	-63.7005
2608700000		0.98138	-66.7061
2708650000		0.98073	-69.6709
2808600000		0.98033	-72.789
2908550000		0.98016	-75.9414
3008500000		0.97923	-79.2177
3108450000		0.97855	-82.5515
3208400000		0.97687	-85.8784
3308350000		0.97526	-89.3256
3408300000		0.97331	-92.8322
3508250000		0.97134	-96.3633
3608200000		0.96862	-99.8992
3708150000		0.96553	-103.5233
3808100000		0.96256	-107.1489
3908050000		0.9594	-110.7269
4008000000		0.95634	-114.4177
4107950000		0.95349	-118.0606
4207900000		0.95037	-121.7533
4307850000		0.94783	-125.4301
4407800000		0.94562	-129.1232
4507750000		0.94418	-132.784
4607700000		0.94296	-136.4884
4707650000		0.94238	-140.1774
4807600000		0.94217	-143.8443
4907550000		0.94239	-147.5189
5007500000		0.94295	-151.1959
5107450000		0.94398	-154.8467
5207400000		0.94442	-158.5724
5307350000		0.94545	-162.1429
5407300000		0.9455	-165.8211
5507250000		0.94635	-169.3737
5607200000		0.94616	-172.8989
5707150000		0.94659	-176.3744
5807100000		0.94596	-179.7106
5907050000		0.94531	176.9086
6007000000		0.94454	173.7071
6106950000		0.94372	170.4723
6206900000		0.9431	167.4243
6306850000		0.94236	164.3943
6406800000		0.9412	161.4587
6506750000		0.94061	158.579
6606700000		0.93982	155.7842
6706650000		0.93945	153.0435
6806600000		0.93896	150.3605
!
!				Infineon Technologies AG
