! Infineon Technologies  Discrete & RF Semiconductors
! BAT68-04
! IAC = 1 mA
! One-Port S-Parameters
# Hz  S  MA  R  50
!f									S11
!Hz							Mag  Ang
309850000		0.20525	179.0448
409800000		0.20857	178.6622
509750000		0.21054	178.6437
609700000		0.21415	178.2972
709650000		0.21528	178.6063
809600000		0.21825	178.6344
909550000		0.22277	178.7479
1009500000		0.22919	177.9278
1109450000		0.23442	177.6625
1209400000		0.23983	176.731
1309350000		0.24557	176.4057
1409300000		0.25197	175.6735
1509250000		0.26079	174.7359
1609200000		0.26788	173.7536
1709150000		0.27464	172.5986
1809100000		0.28352	171.5206
1909050000		0.29275	170.1717
2009000000		0.30143	168.9638
2108950000		0.31068	167.8329
2208900000		0.31885	166.7976
2308850000		0.32839	165.3851
2408800000		0.33634	164.4384
2508750000		0.34572	162.893
2608700000		0.35598	161.5256
2708650000		0.3655	159.9067
2808600000		0.37677	158.4404
2908550000		0.38636	156.8759
3008500000		0.39641	154.8561
3108450000		0.40659	153.3856
3208400000		0.41724	151.7294
3308350000		0.42766	150.3574
3408300000		0.43832	148.841
3508250000		0.44874	147.3381
3608200000		0.45949	145.4121
3708150000		0.47034	143.9158
3808100000		0.4806	142.5091
3908050000		0.49063	141.0581
4008000000		0.50174	139.3433
4107950000		0.51224	137.7816
4207900000		0.52293	136.2709
4307850000		0.53341	134.8403
4407800000		0.54447	133.2415
4507750000		0.55507	131.8087
4607700000		0.56541	130.2401
4707650000		0.57603	128.8692
4807600000		0.5859	127.4282
4907550000		0.59598	126.0482
5007500000		0.60562	124.561
5107450000		0.61492	122.934
5207400000		0.62425	121.5579
5307350000		0.63287	120.2457
5407300000		0.6415	118.7809
5507250000		0.64956	117.3885
5607200000		0.65695	115.9368
5707150000		0.66483	114.6516
5807100000		0.67153	113.3713
5907050000		0.67867	112.0212
6007000000		0.68508	110.8297
6106950000		0.69195	109.5592
6206900000		0.69808	108.3637
6306850000		0.70447	107.0965
6406800000		0.71011	105.8947
6506750000		0.71598	104.6553
6606700000		0.72145	103.4471
6706650000		0.72697	102.2138
6806600000		0.73264	101.0541
!
!				Infineon Technologies AG
