! Infineon Technologies  Discrete & RF Semiconductors
! BAT68-04
! IAC = 0.1 mA
! One-Port S-Parameters
# Hz  S  MA  R  50
!f									S11
!Hz							Mag  Ang
309850000		0.77456	-11.7477
409800000		0.77436	-15.5616
509750000		0.77399	-19.3763
609700000		0.77379	-23.2299
709650000		0.77628	-27.1779
809600000		0.77021	-31.2172
909550000		0.77188	-35.277
1009500000		0.77387	-39.1146
1109450000		0.77584	-43.0788
1209400000		0.77053	-47.0943
1309350000		0.76829	-51.275
1409300000		0.76495	-55.3981
1509250000		0.76196	-59.5815
1609200000		0.76165	-63.6791
1709150000		0.76944	-67.4088
1809100000		0.76631	-71.6719
1909050000		0.76128	-75.9939
2009000000		0.75712	-80.3728
2108950000		0.76141	-84.5045
2208900000		0.76019	-88.786
2308850000		0.75961	-93.0516
2408800000		0.76089	-97.4455
2508750000		0.76109	-101.7442
2608700000		0.76271	-106.1237
2708650000		0.76054	-110.6494
2808600000		0.7672	-114.7501
2908550000		0.76555	-119.3527
3008500000		0.76316	-123.9151
3108450000		0.76461	-128.3672
3208400000		0.76847	-132.519
3308350000		0.77093	-136.797
3408300000		0.77155	-141.1646
3508250000		0.77338	-145.3798
3608200000		0.77399	-149.6243
3708150000		0.77516	-153.8231
3808100000		0.77728	-157.8641
3908050000		0.77913	-161.7802
4008000000		0.78017	-165.8841
4107950000		0.78336	-169.6462
4207900000		0.78852	-173.2327
4307850000		0.79412	-176.6933
4407800000		0.79664	179.5801
4507750000		0.80112	176.1056
4607700000		0.8058	172.6788
4707650000		0.81343	169.5966
4807600000		0.8185	166.3717
4907550000		0.82473	163.2981
5007500000		0.82928	160.1418
5107450000		0.83352	157.0203
5207400000		0.8387	154.0722
5307350000		0.84399	151.3367
5407300000		0.84795	148.49
5507250000		0.85111	145.7542
5607200000		0.85391	143.0709
5707150000		0.85774	140.5832
5807100000		0.86037	138.2003
5907050000		0.8626	135.7384
6007000000		0.86519	133.5389
6106950000		0.86791	131.2952
6206900000		0.87014	129.2019
6306850000		0.87223	127.0555
6406800000		0.87371	125.0332
6506750000		0.87577	123.0324
6606700000		0.87752	121.0991
6706650000		0.87939	119.1709
6806600000		0.88155	117.3438
!
!				Infineon Technologies AG
