! Infineon Technologies  Discrete & RF Semiconductors
! BAT68-04
! IAC = 2 mA
! One-Port S-Parameters
# Hz  S  MA  R  50
!f									S11
!Hz							Mag  Ang
309850000		0.49833	174.7261
409800000		0.49913	173.1307
509750000		0.49917	171.6232
609700000		0.50025	169.963
709650000		0.5001	168.5187
809600000		0.50033	167.0779
909550000		0.50162	165.6162
1009500000		0.50387	164.0171
1109450000		0.50576	162.6225
1209400000		0.5076	161.0726
1309350000		0.50911	159.6086
1409300000		0.51126	158.099
1509250000		0.51437	156.6823
1609200000		0.51727	155.1204
1709150000		0.52073	153.5747
1809100000		0.52367	152.0971
1909050000		0.52752	150.6683
2009000000		0.53109	149.1319
2108950000		0.53516	147.664
2208900000		0.53796	146.2758
2308850000		0.54189	144.8387
2408800000		0.54524	143.4345
2508750000		0.54919	141.9517
2608700000		0.55332	140.5807
2708650000		0.55732	139.1002
2808600000		0.56249	137.753
2908550000		0.56641	136.3205
3008500000		0.57161	134.8434
3108450000		0.57589	133.508
3208400000		0.58109	132.1548
3308350000		0.58564	130.8911
3408300000		0.59064	129.6494
3508250000		0.59549	128.3937
3608200000		0.60142	127.008
3708150000		0.60674	125.8051
3808100000		0.61187	124.6151
3908050000		0.61679	123.4237
4008000000		0.62281	122.1946
4107950000		0.62865	120.9565
4207900000		0.63455	119.7275
4307850000		0.64035	118.5671
4407800000		0.64672	117.3872
4507750000		0.6527	116.2554
4607700000		0.65862	115.0376
4707650000		0.66469	113.913
4807600000		0.67014	112.7565
4907550000		0.67573	111.6431
5007500000		0.68102	110.4892
5107450000		0.68645	109.2657
5207400000		0.69138	108.1553
5307350000		0.69574	107.0947
5407300000		0.7004	105.9448
5507250000		0.70485	104.9169
5607200000		0.70874	103.7824
5707150000		0.71303	102.8011
5807100000		0.71631	101.7739
5907050000		0.72036	100.7471
6007000000		0.72358	99.7912
6106950000		0.72749	98.7901
6206900000		0.73086	97.849
6306850000		0.73463	96.8442
6406800000		0.73779	95.8988
6506750000		0.74137	94.9051
6606700000		0.7446	93.935
6706650000		0.74793	92.9347
6806600000		0.75142	91.9912
!
!				Infineon Technologies AG
