! Infineon Technologies  Discrete & RF Semiconductors
! BAT68-04
! IAC = 0.07 mA
! One-Port S-Parameters
# Hz  S  MA  R  50
!f									S11
!Hz							Mag  Ang
309850000		0.83775	-11.5314
409800000		0.83733	-15.2493
509750000		0.83706	-19.0143
609700000		0.8368	-22.779
709650000		0.83854	-26.629
809600000		0.83334	-30.5688
909550000		0.83434	-34.5095
1009500000		0.83574	-38.2775
1109450000		0.83686	-42.1591
1209400000		0.83224	-46.1328
1309350000		0.82993	-50.2003
1409300000		0.82647	-54.2274
1509250000		0.82373	-58.3143
1609200000		0.82292	-62.325
1709150000		0.82845	-66.0182
1809100000		0.82527	-70.1654
1909050000		0.82061	-74.4189
2009000000		0.81673	-78.7199
2108950000		0.81948	-82.7649
2208900000		0.81777	-86.9784
2308850000		0.8168	-91.2079
2408800000		0.81688	-95.5289
2508750000		0.81645	-99.7715
2608700000		0.81717	-104.092
2708650000		0.81438	-108.5333
2808600000		0.81964	-112.6548
2908550000		0.81734	-117.1927
3008500000		0.81453	-121.7359
3108450000		0.81463	-126.1359
3208400000		0.81722	-130.3038
3308350000		0.81815	-134.5733
3408300000		0.81757	-138.9447
3508250000		0.81788	-143.1349
3608200000		0.81758	-147.4066
3708150000		0.81743	-151.6204
3808100000		0.81809	-155.6928
3908050000		0.81858	-159.6352
4008000000		0.81854	-163.7572
4107950000		0.82048	-167.5514
4207900000		0.82402	-171.1715
4307850000		0.82812	-174.6692
4407800000		0.82971	-178.4325
4507750000		0.83304	178.0429
4607700000		0.83661	174.5734
4707650000		0.84285	171.4466
4807600000		0.84688	168.1677
4907550000		0.85192	165.0468
5007500000		0.85559	161.8352
5107450000		0.85912	158.6692
5207400000		0.86316	155.667
5307350000		0.86744	152.8778
5407300000		0.87048	149.9809
5507250000		0.87298	147.1946
5607200000		0.87492	144.4637
5707150000		0.87793	141.9273
5807100000		0.8797	139.4986
5907050000		0.8812	136.9909
6007000000		0.88301	134.7506
6106950000		0.88493	132.4628
6206900000		0.88651	130.3303
6306850000		0.88798	128.1466
6406800000		0.88881	126.0888
6506750000		0.89034	124.0528
6606700000		0.89149	122.0854
6706650000		0.8929	120.1274
6806600000		0.89459	118.2711
!
!				Infineon Technologies AG
