! Infineon Technologies  Discrete & RF Semiconductors
! BAT68-04
! VCA = 0.9 V
! One-Port S-Parameters
# Hz  S  MA  R  50
!f									S11
!Hz							Mag  Ang
309850000		0.99913	-7.0333
409800000		0.99875	-9.2999
509750000		0.9989	-11.5746
609700000		0.99861	-13.8368
709650000		0.99842	-16.1749
809600000		0.99823	-18.4821
909550000		0.99827	-20.8623
1009500000		0.99744	-23.1864
1109450000		0.99693	-25.6211
1209400000		0.99668	-28.0097
1309350000		0.99584	-30.4697
1409300000		0.99444	-32.8936
1509250000		0.99357	-35.3734
1609200000		0.99276	-37.8499
1709150000		0.99117	-40.4082
1809100000		0.9892	-42.9164
1909050000		0.98799	-45.4331
2009000000		0.98735	-48.057
2108950000		0.9855	-50.7071
2208900000		0.98445	-53.3911
2308850000		0.9836	-56.0483
2408800000		0.9832	-58.8362
2508750000		0.98276	-61.6246
2608700000		0.98225	-64.5343
2708650000		0.98174	-67.4049
2808600000		0.98159	-70.4538
2908550000		0.98127	-73.4755
3008500000		0.98057	-76.6542
3108450000		0.98006	-79.8898
3208400000		0.97858	-83.1554
3308350000		0.97682	-86.4801
3408300000		0.97492	-89.8614
3508250000		0.97326	-93.3439
3608200000		0.97062	-96.7947
3708150000		0.96764	-100.3431
3808100000		0.96468	-103.8946
3908050000		0.96166	-107.4062
4008000000		0.95859	-111.0321
4107950000		0.95568	-114.6161
4207900000		0.95247	-118.2509
4307850000		0.94991	-121.8801
4407800000		0.94758	-125.5303
4507750000		0.94599	-129.1566
4607700000		0.94465	-132.8267
4707650000		0.94388	-136.4929
4807600000		0.94351	-140.1394
4907550000		0.94367	-143.7986
5007500000		0.94411	-147.471
5107450000		0.94497	-151.122
5207400000		0.94545	-154.8517
5307350000		0.94644	-158.4364
5407300000		0.94641	-162.132
5507250000		0.9472	-165.7174
5607200000		0.94709	-169.2725
5707150000		0.94752	-172.7912
5807100000		0.94688	-176.1704
5907050000		0.94623	-179.6023
6007000000		0.94552	177.1427
6106950000		0.94462	173.8512
6206900000		0.94394	170.7453
6306850000		0.94312	167.6557
6406800000		0.94197	164.6603
6506750000		0.94128	161.7166
6606700000		0.94052	158.8604
6706650000		0.94008	156.0585
6806600000		0.9396	153.3121
!
!				Infineon Technologies AG
