! Infineon Technologies  Discrete & RF Semiconductors
! BAT68-04
! VCA = 6 V
! One-Port S-Parameters
# Hz  S  MA  R  50
!f									S11
!Hz							Mag  Ang
309850000		0.99915	-5.9812
409800000		0.9988	-7.9175
509750000		0.9991	-9.8587
609700000		0.99888	-11.778
709650000		0.99879	-13.7634
809600000		0.99854	-15.7261
909550000		0.99872	-17.7571
1009500000		0.99811	-19.7329
1109450000		0.99773	-21.8065
1209400000		0.99744	-23.8009
1309350000		0.99695	-25.9273
1409300000		0.99564	-27.9855
1509250000		0.99506	-30.09
1609200000		0.99446	-32.1908
1709150000		0.99313	-34.356
1809100000		0.99127	-36.4813
1909050000		0.99046	-38.6277
2009000000		0.98981	-40.8271
2108950000		0.98843	-43.0869
2208900000		0.98726	-45.3319
2308850000		0.98652	-47.5542
2408800000		0.98649	-49.9554
2508750000		0.9862	-52.2551
2608700000		0.98579	-54.721
2708650000		0.98557	-57.1249
2808600000		0.98548	-59.6825
2908550000		0.98585	-62.2707
3008500000		0.98558	-64.9698
3108450000		0.98531	-67.7001
3208400000		0.98448	-70.498
3308350000		0.98346	-73.3873
3408300000		0.98239	-76.3353
3508250000		0.98121	-79.3408
3608200000		0.97909	-82.3387
3708150000		0.9766	-85.459
3808100000		0.97401	-88.6038
3908050000		0.97128	-91.726
4008000000		0.96841	-94.9561
4107950000		0.96553	-98.1819
4207900000		0.96234	-101.4558
4307850000		0.95939	-104.7625
4407800000		0.95668	-108.1037
4507750000		0.95453	-111.4555
4607700000		0.95274	-114.8531
4707650000		0.95119	-118.2876
4807600000		0.95023	-121.7216
4907550000		0.94964	-125.2028
5007500000		0.9496	-128.72
5107450000		0.95005	-132.236
5207400000		0.95015	-135.8693
5307350000		0.95074	-139.4121
5407300000		0.95058	-143.0677
5507250000		0.95122	-146.7013
5607200000		0.95121	-150.293
5707150000		0.95152	-153.9216
5807100000		0.95098	-157.4211
5907050000		0.95019	-161.0073
6007000000		0.94949	-164.4524
6106950000		0.9485	-167.9456
6206900000		0.94783	-171.292
6306850000		0.94676	-174.6146
6406800000		0.94548	-177.8783
6506750000		0.94452	178.9176
6606700000		0.94352	175.7827
6706650000		0.94283	172.7086
6806600000		0.94203	169.6621
!
!				Infineon Technologies AG
