! Infineon Technologies  Discrete & RF Semiconductors
! BAT68-04
! IAC = 5 mA
! One-Port S-Parameters
# Hz  S  MA  R  50
!f									S11
!Hz							Mag  Ang
309850000		0.72266	174.1117
409800000		0.72219	172.31
509750000		0.72147	170.5565
609700000		0.72146	168.7261
709650000		0.721	167.0094
809600000		0.72111	165.2649
909550000		0.72113	163.5345
1009500000		0.72152	161.7472
1109450000		0.722	160.1288
1209400000		0.7228	158.3869
1309350000		0.7234	156.6902
1409300000		0.72426	154.9724
1509250000		0.72554	153.3576
1609200000		0.72708	151.6105
1709150000		0.72849	149.9261
1809100000		0.72962	148.2523
1909050000		0.7314	146.6476
2009000000		0.73337	144.9686
2108950000		0.73524	143.301
2208900000		0.73646	141.6995
2308850000		0.7382	140.0651
2408800000		0.74005	138.4828
2508750000		0.7416	136.8339
2608700000		0.74316	135.3015
2708650000		0.74436	133.7303
2808600000		0.74636	132.2658
2908550000		0.74794	130.6755
3008500000		0.74998	129.2039
3108450000		0.75149	127.7512
3208400000		0.75339	126.3461
3308350000		0.75536	124.9591
3408300000		0.75748	123.6339
3508250000		0.75961	122.2935
3608200000		0.76219	120.9258
3708150000		0.76485	119.651
3808100000		0.76753	118.3802
3908050000		0.77012	117.1108
4008000000		0.77318	115.8355
4107950000		0.77606	114.5976
4207900000		0.77924	113.3339
4307850000		0.78243	112.1291
4407800000		0.78588	110.9363
4507750000		0.78929	109.7577
4607700000		0.79232	108.5294
4707650000		0.79572	107.3675
4807600000		0.79845	106.1751
4907550000		0.80129	105.0259
5007500000		0.8036	103.8557
5107450000		0.80584	102.6692
5207400000		0.80783	101.5371
5307350000		0.80936	100.4488
5407300000		0.81099	99.3162
5507250000		0.81229	98.3251
5607200000		0.81326	97.225
5707150000		0.81461	96.2674
5807100000		0.81528	95.2463
5907050000		0.81648	94.27
6007000000		0.81726	93.3244
6106950000		0.81855	92.3564
6206900000		0.81948	91.4468
6306850000		0.82086	90.475
6406800000		0.82166	89.5665
6506750000		0.82296	88.6148
6606700000		0.82401	87.6811
6706650000		0.8252	86.7173
6806600000		0.82663	85.8049
!
!				Infineon Technologies AG
