! Infineon Technologies  Discrete & RF Semiconductors
! BAT68-04
! IAC = 9 mA
! One-Port S-Parameters
# Hz  S  MA  R  50
!f									S11
!Hz							Mag  Ang
309850000		0.79783	174.0367
409800000		0.79717	172.209
509750000		0.79622	170.4245
609700000		0.79589	168.5764
709650000		0.79522	166.8221
809600000		0.79515	165.0493
909550000		0.7948	163.2905
1009500000		0.79475	161.4795
1109450000		0.79484	159.8342
1209400000		0.79543	158.067
1309350000		0.79569	156.3439
1409300000		0.79621	154.5999
1509250000		0.79704	152.9588
1609200000		0.79827	151.1919
1709150000		0.79908	149.4868
1809100000		0.79982	147.7833
1909050000		0.80116	146.1549
2009000000		0.80297	144.4144
2108950000		0.80386	142.7895
2208900000		0.8048	141.1218
2308850000		0.80571	139.4936
2408800000		0.80733	137.8501
2508750000		0.80824	136.1763
2608700000		0.80908	134.617
2708650000		0.80973	132.9934
2808600000		0.81075	131.5406
2908550000		0.8117	129.9293
3008500000		0.81289	128.4487
3108450000		0.81366	126.9735
3208400000		0.81474	125.5552
3308350000		0.81595	124.1446
3408300000		0.81734	122.8069
3508250000		0.81879	121.452
3608200000		0.82064	120.0758
3708150000		0.82266	118.7865
3808100000		0.82473	117.4927
3908050000		0.82676	116.2086
4008000000		0.82912	114.92
4107950000		0.83132	113.6667
4207900000		0.83388	112.3899
4307850000		0.83645	111.1661
4407800000		0.83929	109.9577
4507750000		0.84205	108.7603
4607700000		0.84438	107.5154
4707650000		0.84713	106.3356
4807600000		0.84925	105.1234
4907550000		0.85147	103.955
5007500000		0.85306	102.7691
5107450000		0.85447	101.5681
5207400000		0.85576	100.4213
5307350000		0.85658	99.3144
5407300000		0.85741	98.1721
5507250000		0.85789	97.1705
5607200000		0.85814	96.0619
5707150000		0.85867	95.0934
5807100000		0.85861	94.0627
5907050000		0.85909	93.0807
6007000000		0.85922	92.126
6106950000		0.8598	91.1533
6206900000		0.86011	90.2376
6306850000		0.86097	89.2584
6406800000		0.86116	88.347
6506750000		0.86186	87.3858
6606700000		0.86232	86.4466
6706650000		0.86299	85.4758
6806600000		0.8639	84.5577
!
!				Infineon Technologies AG
