! Infineon Technologies  Discrete & RF Semiconductors
! BAT68-04
! VCA = 8 V
! One-Port S-Parameters
# Hz  S  MA  R  50
!f									S11
!Hz							Mag  Ang
309850000		0.9991	-5.8709
409800000		0.99875	-7.786
509750000		0.9991	-9.6988
609700000		0.99897	-11.5848
709650000		0.99883	-13.5372
809600000		0.99856	-15.4699
909550000		0.99875	-17.4717
1009500000		0.99815	-19.4151
1109450000		0.99778	-21.4531
1209400000		0.9977	-23.4447
1309350000		0.99699	-25.5052
1409300000		0.99567	-27.5318
1509250000		0.99515	-29.6018
1609200000		0.99458	-31.6681
1709150000		0.99318	-33.7975
1809100000		0.99137	-35.8848
1909050000		0.99058	-37.9954
2009000000		0.98992	-40.1597
2108950000		0.98859	-42.3803
2208900000		0.98742	-44.5842
2308850000		0.98669	-46.7682
2408800000		0.98666	-49.1292
2508750000		0.98643	-51.3881
2608700000		0.98603	-53.8101
2708650000		0.9858	-56.171
2808600000		0.98595	-58.7164
2908550000		0.98614	-61.2263
3008500000		0.98598	-63.8772
3108450000		0.98591	-66.5946
3208400000		0.98517	-69.3417
3308350000		0.98402	-72.1523
3408300000		0.98293	-75.0577
3508250000		0.98184	-78.0174
3608200000		0.97983	-80.9675
3708150000		0.9774	-84.0409
3808100000		0.97478	-87.1379
3908050000		0.97211	-90.2196
4008000000		0.96935	-93.4053
4107950000		0.96647	-96.5913
4207900000		0.96322	-99.8235
4307850000		0.96024	-103.0881
4407800000		0.95751	-106.3922
4507750000		0.95537	-109.7087
4607700000		0.95353	-113.072
4707650000		0.95193	-116.4712
4807600000		0.95091	-119.8756
4907550000		0.95023	-123.3289
5007500000		0.95011	-126.8209
5107450000		0.95054	-130.3123
5207400000		0.95057	-133.9227
5307350000		0.95113	-137.45
5407300000		0.95095	-141.091
5507250000		0.95158	-144.7168
5607200000		0.95153	-148.3024
5707150000		0.95181	-151.9281
5807100000		0.9513	-155.4295
5907050000		0.95057	-159.0196
6007000000		0.94983	-162.4744
6106950000		0.94883	-165.9795
6206900000		0.9481	-169.3432
6306850000		0.94706	-172.6842
6406800000		0.94576	-175.9644
6506750000		0.9448	-179.1899
6606700000		0.94377	177.6499
6706650000		0.94309	174.5488
6806600000		0.94224	171.4804
!
!				Infineon Technologies AG
