! Infineon Technologies  Discrete & RF Semiconductors
! BAT68-04
! IAC = 0.7 mA
! One-Port S-Parameters
# Hz  S  MA  R  50
!f									S11
!Hz							Mag  Ang
309850000		0.03246	-125.4921
409800000		0.04166	-125.9896
509750000		0.05165	-123.8795
609700000		0.06207	-125.3675
709650000		0.07307	-123.135
809600000		0.08455	-124.8481
909550000		0.09767	-125.8201
1009500000		0.10795	-129.322
1109450000		0.1196	-130.9579
1209400000		0.12859	-134.2896
1309350000		0.14161	-136.5157
1409300000		0.15329	-139.2064
1509250000		0.16609	-142.919
1609200000		0.17777	-145.4636
1709150000		0.18772	-147.3513
1809100000		0.20114	-150.591
1909050000		0.21285	-154.099
2009000000		0.22529	-157.0946
2108950000		0.23898	-159.3609
2208900000		0.25172	-161.7359
2308850000		0.26438	-164.5594
2408800000		0.2772	-166.4091
2508750000		0.28946	-169.1673
2608700000		0.30323	-171.7363
2708650000		0.31552	-174.5964
2808600000		0.33011	-177.0733
2908550000		0.34265	-179.7267
3008500000		0.35367	177.0987
3108450000		0.36709	174.6969
3208400000		0.38005	172.1363
3308350000		0.39397	169.9578
3408300000		0.40723	167.5581
3508250000		0.42033	165.2704
3608200000		0.43237	162.517
3708150000		0.44568	160.2423
3808100000		0.45846	158.2081
3908050000		0.47096	156.0737
4008000000		0.48359	153.6693
4107950000		0.49591	151.5038
4207900000		0.50885	149.4786
4307850000		0.5216	147.5597
4407800000		0.53408	145.3598
4507750000		0.54657	143.4202
4607700000		0.55853	141.3714
4707650000		0.5713	139.6133
4807600000		0.5829	137.7441
4907550000		0.59493	135.9688
5007500000		0.60603	134.0613
5107450000		0.61633	132.0271
5207400000		0.62742	130.2858
5307350000		0.63769	128.6439
5407300000		0.64752	126.8372
5507250000		0.65647	125.0949
5607200000		0.66483	123.3312
5707150000		0.67379	121.747
5807100000		0.68154	120.2028
5907050000		0.6893	118.5599
6007000000		0.69675	117.1273
6106950000		0.70437	115.6147
6206900000		0.71116	114.1892
6306850000		0.71799	112.6933
6406800000		0.72412	111.2758
6506750000		0.73042	109.8374
6606700000		0.73627	108.4379
6706650000		0.74213	107.0173
6806600000		0.74816	105.6822
!
!				Infineon Technologies AG
