! Infineon Technologies  Discrete & RF Semiconductors
! BAT68-04
! IAC = 0.03 mA
! One-Port S-Parameters
# Hz  S  MA  R  50
!f									S11
!Hz							Mag  Ang
309850000		0.92729	-11.1557
409800000		0.92667	-14.7357
509750000		0.92637	-18.3641
609700000		0.92589	-21.9773
709650000		0.92634	-25.6608
809600000		0.92326	-29.4405
909550000		0.92339	-33.195
1009500000		0.92328	-36.8295
1109450000		0.92315	-40.5682
1209400000		0.92018	-44.4376
1309350000		0.91795	-48.3276
1409300000		0.91478	-52.2032
1509250000		0.9125	-56.1292
1609200000		0.91101	-59.993
1709150000		0.91234	-63.611
1809100000		0.90927	-67.5758
1909050000		0.9057	-71.693
2009000000		0.90279	-75.8563
2108950000		0.90284	-79.7546
2208900000		0.90065	-83.847
2308850000		0.89915	-87.9547
2408800000		0.89804	-92.1519
2508750000		0.897	-96.3186
2608700000		0.89648	-100.5294
2708650000		0.89389	-104.9125
2808600000		0.89569	-108.8781
2908550000		0.89337	-113.3727
3008500000		0.89029	-117.837
3108450000		0.88926	-122.255
3208400000		0.88905	-126.3374
3308350000		0.88785	-130.5808
3408300000		0.88568	-134.941
3508250000		0.88431	-139.159
3608200000		0.88235	-143.3771
3708150000		0.88042	-147.6028
3808100000		0.87915	-151.7085
3908050000		0.87779	-155.6923
4008000000		0.8764	-159.8392
4107950000		0.8764	-163.6726
4207900000		0.87739	-167.3329
4307850000		0.87913	-170.8854
4407800000		0.87943	-174.7079
4507750000		0.88115	-178.3037
4607700000		0.88309	178.1589
4707650000		0.88698	174.9634
4807600000		0.88941	171.5998
4907550000		0.89273	168.3965
5007500000		0.89511	165.0963
5107450000		0.89759	161.8522
5207400000		0.90005	158.7603
5307350000		0.90278	155.8844
5407300000		0.90435	152.8982
5507250000		0.90583	150.0202
5607200000		0.90661	147.2079
5707150000		0.90831	144.5844
5807100000		0.90878	142.0755
5907050000		0.90926	139.4843
6007000000		0.90979	137.1688
6106950000		0.91054	134.8054
6206900000		0.91104	132.6018
6306850000		0.91164	130.3478
6406800000		0.91158	128.222
6506750000		0.91224	126.1235
6606700000		0.91254	124.0985
6706650000		0.91325	122.0812
6806600000		0.91409	120.1664
!
!				Infineon Technologies AG
