! Infineon Technologies  Discrete & RF Semiconductors
! BAT68-04
! VCA = 0.1 V
! One-Port S-Parameters
# Hz  S  MA  R  50
!f									S11
!Hz							Mag  Ang
309850000		0.99901	-8.787
409800000		0.99853	-11.6241
509750000		0.99853	-14.4681
609700000		0.99816	-17.3052
709650000		0.99774	-20.2194
809600000		0.99736	-23.1094
909550000		0.99717	-26.0735
1009500000		0.99607	-28.9895
1109450000		0.99521	-32.0222
1209400000		0.99461	-35.003
1309350000		0.99331	-38.068
1409300000		0.99153	-41.0955
1509250000		0.99021	-44.1915
1609200000		0.98889	-47.2713
1709150000		0.98675	-50.4591
1809100000		0.98438	-53.5817
1909050000		0.98294	-56.7712
2009000000		0.98182	-59.9872
2108950000		0.97966	-63.3204
2208900000		0.97811	-66.6064
2308850000		0.97687	-69.93
2408800000		0.97617	-73.3982
2508750000		0.9751	-76.8218
2608700000		0.97388	-80.3462
2708650000		0.97298	-83.9227
2808600000		0.97218	-87.6217
2908550000		0.9711	-91.2858
3008500000		0.9694	-95.1053
3108450000		0.96797	-98.95
3208400000		0.96566	-102.8084
3308350000		0.96327	-106.6973
3408300000		0.96052	-110.619
3508250000		0.95815	-114.5867
3608200000		0.95481	-118.5186
3708150000		0.9516	-122.4856
3808100000		0.94853	-126.4135
3908050000		0.94538	-130.2674
4008000000		0.94252	-134.2064
4107950000		0.94006	-138.0482
4207900000		0.93752	-141.9221
4307850000		0.93586	-145.7322
4407800000		0.93447	-149.5245
4507750000		0.93394	-153.24
4607700000		0.93346	-156.9859
4707650000		0.9339	-160.6628
4807600000		0.93442	-164.2933
4907550000		0.93551	-167.8892
5007500000		0.93659	-171.465
5107450000		0.93798	-174.9885
5207400000		0.93879	-178.5413
5307350000		0.94002	178.1016
5407300000		0.94017	174.6462
5507250000		0.94101	171.3843
5607200000		0.94084	168.1317
5707150000		0.94133	164.9874
5807100000		0.94059	161.9702
5907050000		0.94006	158.9402
6007000000		0.93935	156.0949
6106950000		0.93876	153.225
6206900000		0.9382	150.5503
6306850000		0.93773	147.8796
6406800000		0.93681	145.3174
6506750000		0.93642	142.7948
6606700000		0.93589	140.3585
6706650000		0.93571	137.9623
6806600000		0.93554	135.6332
!
!				Infineon Technologies AG
