! Infineon Technologies  Discrete & RF Semiconductors
! BAT68-04
! IAC = 4 mA
! One-Port S-Parameters
# Hz  S  MA  R  50
!f									S11
!Hz							Mag  Ang
309850000		0.68208	174.1716
409800000		0.68185	172.3891
509750000		0.68138	170.6289
609700000		0.68133	168.8542
709650000		0.68097	167.1584
809600000		0.68112	165.4427
909550000		0.68133	163.7394
1009500000		0.68201	161.9709
1109450000		0.68274	160.3733
1209400000		0.68371	158.6526
1309350000		0.68438	156.9774
1409300000		0.68548	155.2805
1509250000		0.68698	153.687
1609200000		0.68876	151.959
1709150000		0.69048	150.2891
1809100000		0.69181	148.6368
1909050000		0.69392	147.0589
2009000000		0.69626	145.3671
2108950000		0.69833	143.7491
2208900000		0.69976	142.1715
2308850000		0.70183	140.5585
2408800000		0.70393	138.9985
2508750000		0.70568	137.3957
2608700000		0.70777	135.8528
2708650000		0.70958	134.2669
2808600000		0.71203	132.8168
2908550000		0.71388	131.2786
3008500000		0.71642	129.8087
3108450000		0.71835	128.3739
3208400000		0.72068	126.9794
3308350000		0.72307	125.6048
3408300000		0.72559	124.2961
3508250000		0.72814	122.9668
3608200000		0.73126	121.6037
3708150000		0.73427	120.3421
3808100000		0.7373	119.0855
3908050000		0.74021	117.8285
4008000000		0.74372	116.5603
4107950000		0.74694	115.33
4207900000		0.75058	114.0768
4307850000		0.75416	112.8835
4407800000		0.75801	111.6983
4507750000		0.76171	110.5353
4607700000		0.76517	109.314
4707650000		0.76902	108.1612
4807600000		0.77216	106.9809
4907550000		0.7754	105.8418
5007500000		0.77816	104.682
5107450000		0.78091	103.4996
5207400000		0.78333	102.3767
5307350000		0.7853	101.2988
5407300000		0.7874	100.1707
5507250000		0.78918	99.1835
5607200000		0.79066	98.0853
5707150000		0.79244	97.133
5807100000		0.79349	96.1165
5907050000		0.79516	95.1423
6007000000		0.79636	94.1988
6106950000		0.79805	93.2322
6206900000		0.79934	92.3267
6306850000		0.80115	91.3555
6406800000		0.80243	90.4507
6506750000		0.80398	89.4978
6606700000		0.80541	88.5655
6706650000		0.80698	87.6032
6806600000		0.8087	86.6921
!
!				Infineon Technologies AG
