! Infineon Technologies  Discrete & RF Semiconductors
! BAT68-04
! IAC = 0.06 mA
! One-Port S-Parameters
# Hz  S  MA  R  50
!f									S11
!Hz							Mag  Ang
309850000		0.85953	-11.4523
409800000		0.85925	-15.1746
509750000		0.85877	-18.8805
609700000		0.85846	-22.6122
709650000		0.85982	-26.4271
809600000		0.85512	-30.3335
909550000		0.85589	-34.2318
1009500000		0.85701	-37.9695
1109450000		0.85784	-41.8232
1209400000		0.85354	-45.7774
1309350000		0.85123	-49.8048
1409300000		0.84788	-53.8009
1509250000		0.84523	-57.854
1609200000		0.84421	-61.8313
1709150000		0.84878	-65.511
1809100000		0.8456	-69.6181
1909050000		0.84105	-73.8146
2009000000		0.83749	-78.116
2108950000		0.83961	-82.1288
2208900000		0.83777	-86.3167
2308850000		0.83668	-90.5239
2408800000		0.83647	-94.8247
2508750000		0.8358	-99.0459
2608700000		0.83621	-103.3449
2708650000		0.83343	-107.77
2808600000		0.83796	-111.87
2908550000		0.83551	-116.3929
3008500000		0.8327	-120.9314
3108450000		0.83261	-125.3562
3208400000		0.83435	-129.4783
3308350000		0.83477	-133.7468
3408300000		0.83377	-138.115
3508250000		0.83379	-142.3374
3608200000		0.83292	-146.5735
3708150000		0.83229	-150.7923
3808100000		0.83252	-154.8721
3908050000		0.83258	-158.8279
4008000000		0.83224	-162.9568
4107950000		0.83365	-166.758
4207900000		0.83663	-170.3866
4307850000		0.84019	-173.8978
4407800000		0.84148	-177.6762
4507750000		0.84442	178.7872
4607700000		0.84755	175.3004
4707650000		0.85328	172.158
4807600000		0.85689	168.862
4907550000		0.86158	165.7206
5007500000		0.86486	162.4923
5107450000		0.86817	159.3063
5207400000		0.87189	156.2871
5307350000		0.87578	153.4798
5407300000		0.87845	150.5618
5507250000		0.88069	147.7563
5607200000		0.88238	145.0093
5707150000		0.88509	142.454
5807100000		0.88654	140.0085
5907050000		0.8878	137.4818
6007000000		0.88931	135.2273
6106950000		0.89096	132.9235
6206900000		0.89224	130.776
6306850000		0.89352	128.5797
6406800000		0.89418	126.5059
6506750000		0.89548	124.4582
6606700000		0.89645	122.4792
6706650000		0.89771	120.5083
6806600000		0.89916	118.6393
!
!				Infineon Technologies AG
