! Infineon Technologies  Discrete & RF Semiconductors
! BAT68-04
! IAC = 0.2 mA
! One-Port S-Parameters
# Hz  S  MA  R  50
!f									S11
!Hz							Mag  Ang
309850000		0.58499	-12.4938
409800000		0.58451	-16.4974
509750000		0.58504	-20.627
609700000		0.5845	-24.7469
709650000		0.58875	-29.0156
809600000		0.58227	-33.3798
909550000		0.58565	-37.864
1009500000		0.58816	-41.9213
1109450000		0.59209	-46.1589
1209400000		0.58655	-50.2965
1309350000		0.58532	-54.8719
1409300000		0.58333	-59.3092
1509250000		0.58026	-63.8392
1609200000		0.58176	-68.2316
1709150000		0.59344	-72.0431
1809100000		0.59136	-76.7004
1909050000		0.58668	-81.2536
2009000000		0.58346	-85.8959
2108950000		0.59129	-90.3312
2208900000		0.59235	-94.7858
2308850000		0.59416	-99.3115
2408800000		0.59887	-103.7409
2508750000		0.60152	-108.2198
2608700000		0.606	-112.7257
2708650000		0.6064	-117.3666
2808600000		0.61668	-121.5822
2908550000		0.6179	-126.2553
3008500000		0.61776	-130.8571
3108450000		0.623	-135.3237
3208400000		0.6304	-139.4487
3308350000		0.63744	-143.7261
3408300000		0.64199	-148.0038
3508250000		0.64799	-152.1871
3608200000		0.65195	-156.3998
3708150000		0.65728	-160.5044
3808100000		0.66368	-164.405
3908050000		0.66954	-168.154
4008000000		0.67426	-172.1932
4107950000		0.68106	-175.8206
4207900000		0.69018	-179.2586
4307850000		0.69954	177.4479
4407800000		0.70533	173.8625
4507750000		0.7131	170.5601
4607700000		0.72079	167.293
4707650000		0.73175	164.3889
4807600000		0.73976	161.3437
4907550000		0.74889	158.4544
5007500000		0.75614	155.4674
5107450000		0.76258	152.4946
5207400000		0.77057	149.7307
5307350000		0.77838	147.1655
5407300000		0.78495	144.4772
5507250000		0.79023	141.8984
5607200000		0.79522	139.3627
5707150000		0.80132	137.024
5807100000		0.80618	134.7768
5907050000		0.81041	132.4483
6007000000		0.81519	130.383
6106950000		0.81987	128.2607
6206900000		0.8239	126.2797
6306850000		0.82772	124.2457
6406800000		0.83089	122.3256
6506750000		0.83453	120.4198
6606700000		0.83775	118.5786
6706650000		0.84105	116.7386
6806600000		0.84468	114.9991
!
!				Infineon Technologies AG
