! Infineon Technologies  Discrete & RF Semiconductors
! BAT68-04
! IAC = 0.05 mA
! One-Port S-Parameters
# Hz  S  MA  R  50
!f									S11
!Hz							Mag  Ang
309850000		0.88169	-11.3664
409800000		0.88142	-15.0592
509750000		0.88088	-18.7335
609700000		0.88058	-22.4285
709650000		0.88171	-26.2047
809600000		0.87741	-30.0739
909550000		0.878	-33.9303
1009500000		0.87873	-37.6381
1109450000		0.87921	-41.4586
1209400000		0.87536	-45.3894
1309350000		0.87299	-49.3782
1409300000		0.86963	-53.3359
1509250000		0.86711	-57.3526
1609200000		0.86592	-61.2982
1709150000		0.86959	-64.9603
1809100000		0.86644	-69.0226
1909050000		0.86221	-73.2193
2009000000		0.85871	-77.4627
2108950000		0.86021	-81.4374
2208900000		0.85823	-85.6008
2308850000		0.85694	-89.7794
2408800000		0.85632	-94.0262
2508750000		0.85567	-98.2586
2608700000		0.85575	-102.5308
2708650000		0.85286	-106.9327
2808600000		0.85674	-111.0142
2908550000		0.85426	-115.5242
3008500000		0.85134	-120.048
3108450000		0.85082	-124.4626
3208400000		0.85205	-128.5751
3308350000		0.85189	-132.8372
3408300000		0.8505	-137.2064
3508250000		0.85005	-141.4267
3608200000		0.84887	-145.6609
3708150000		0.84776	-149.8816
3808100000		0.84745	-153.9697
3908050000		0.8471	-157.9323
4008000000		0.84636	-162.0688
4107950000		0.84735	-165.8831
4207900000		0.8497	-169.5191
4307850000		0.85267	-173.0431
4407800000		0.85358	-176.8345
4507750000		0.85617	179.6098
4607700000		0.85894	176.1088
4707650000		0.86409	172.9518
4807600000		0.86731	169.6342
4907550000		0.87155	166.4726
5007500000		0.8746	163.2239
5107450000		0.87762	160.0238
5207400000		0.88088	156.9798
5307350000		0.88439	154.1531
5407300000		0.88675	151.2174
5507250000		0.88872	148.3902
5607200000		0.89009	145.6229
5707150000		0.89247	143.0479
5807100000		0.89367	140.5857
5907050000		0.89464	138.0386
6007000000		0.89581	135.7673
6106950000		0.8972	133.4468
6206900000		0.89827	131.2828
6306850000		0.89933	129.0704
6406800000		0.89971	126.9829
6506750000		0.90082	124.918
6606700000		0.90161	122.9263
6706650000		0.90265	120.9443
6806600000		0.90394	119.061
!
!				Infineon Technologies AG
