! Infineon Technologies  Discrete & RF Semiconductors
! BAT68
! IAC = 1 mA
! One-Port S-Parameters
# Hz  S  MA  R  50
!f									S11
!Hz							Mag  Ang
309850000		0.20177	179.0843
409800000		0.20503	178.7328
509750000		0.20692	178.7352
609700000		0.21036	178.4427
709650000		0.21153	178.7577
809600000		0.21441	178.7862
909550000		0.21883	178.948
1009500000		0.22511	178.1409
1109450000		0.23026	177.8905
1209400000		0.23544	176.9721
1309350000		0.24111	176.6815
1409300000		0.24742	175.9665
1509250000		0.25609	175.0233
1609200000		0.26282	174.0777
1709150000		0.26947	172.9581
1809100000		0.27828	171.9169
1909050000		0.28736	170.5229
2009000000		0.29562	169.3571
2108950000		0.30468	168.3029
2208900000		0.31285	167.2622
2308850000		0.32217	165.8677
2408800000		0.32984	164.9237
2508750000		0.3391	163.4065
2608700000		0.34922	162.0727
2708650000		0.3587	160.4607
2808600000		0.36965	159.0507
2908550000		0.37901	157.4726
3008500000		0.38895	155.4695
3108450000		0.39889	154.0362
3208400000		0.40955	152.3703
3308350000		0.41986	151.0359
3408300000		0.43029	149.5497
3508250000		0.44051	148.0516
3608200000		0.45104	146.1874
3708150000		0.46194	144.6812
3808100000		0.47196	143.3285
3908050000		0.48172	141.8872
4008000000		0.49268	140.1992
4107950000		0.50297	138.6721
4207900000		0.51364	137.1942
4307850000		0.52407	135.7617
4407800000		0.53487	134.2012
4507750000		0.54523	132.7894
4607700000		0.55552	131.2419
4707650000		0.56594	129.9091
4807600000		0.57566	128.4816
4907550000		0.58559	127.1048
5007500000		0.5951	125.6496
5107450000		0.60433	124.0301
5207400000		0.61362	122.6939
5307350000		0.62215	121.3875
5407300000		0.63069	119.9471
5507250000		0.63879	118.553
5607200000		0.64622	117.1231
5707150000		0.65407	115.8503
5807100000		0.66067	114.5886
5907050000		0.6678	113.2438
6007000000		0.67434	112.0598
6106950000		0.68117	110.8214
6206900000		0.68722	109.6364
6306850000		0.69355	108.3843
6406800000		0.69928	107.1889
6506750000		0.70518	105.9701
6606700000		0.7107	104.7893
6706650000		0.71614	103.5644
6806600000		0.72179	102.4284
!
!				Infineon Technologies AG
