! Infineon Technologies  Discrete & RF Semiconductors
! BAT68
! VCA = 6 V
! One-Port S-Parameters
# Hz  S  MA  R  50
!f									S11
!Hz							Mag  Ang
309850000		0.99942	-5.938
409800000		0.99904	-7.861
509750000		0.99919	-9.7918
609700000		0.99889	-11.6896
709650000		0.99904	-13.6566
809600000		0.99874	-15.6053
909550000		0.99874	-17.6081
1009500000		0.99832	-19.5436
1109450000		0.99817	-21.6243
1209400000		0.9977	-23.622
1309350000		0.99713	-25.6781
1409300000		0.99623	-27.7043
1509250000		0.99561	-29.828
1609200000		0.99438	-31.8788
1709150000		0.99342	-33.995
1809100000		0.99229	-36.0981
1909050000		0.99122	-38.2702
2009000000		0.9895	-40.3859
2108950000		0.98871	-42.612
2208900000		0.98787	-44.8305
2308850000		0.98698	-47.0431
2408800000		0.98649	-49.3993
2508750000		0.98634	-51.6372
2608700000		0.9861	-54.0549
2708650000		0.98617	-56.4251
2808600000		0.98607	-58.9901
2908550000		0.98593	-61.4926
3008500000		0.98577	-64.1305
3108450000		0.98548	-66.7961
3208400000		0.98483	-69.56
3308350000		0.98389	-72.3669
3408300000		0.98275	-75.271
3508250000		0.98126	-78.1777
3608200000		0.97947	-81.1223
3708150000		0.97706	-84.1797
3808100000		0.97467	-87.2647
3908050000		0.97192	-90.3258
4008000000		0.96897	-93.4693
4107950000		0.96593	-96.5963
4207900000		0.96273	-99.7826
4307850000		0.95992	-103.0089
4407800000		0.95725	-106.2737
4507750000		0.955	-109.5213
4607700000		0.95305	-112.8158
4707650000		0.9515	-116.1563
4807600000		0.95054	-119.4967
4907550000		0.94998	-122.889
5007500000		0.94988	-126.291
5107450000		0.95014	-129.7014
5207400000		0.95021	-133.2333
5307350000		0.95091	-136.6855
5407300000		0.95093	-140.2375
5507250000		0.95165	-143.785
5607200000		0.95153	-147.2784
5707150000		0.95158	-150.8329
5807100000		0.95126	-154.2607
5907050000		0.95064	-157.7574
6007000000		0.94991	-161.1353
6106950000		0.94896	-164.5443
6206900000		0.948	-167.8486
6306850000		0.94704	-171.1073
6406800000		0.94585	-174.3187
6506750000		0.94495	-177.4539
6606700000		0.94368	179.4591
6706650000		0.94307	176.4218
6806600000		0.94223	173.4215
!
!				Infineon Technologies AG
