! Infineon Technologies  Discrete & RF Semiconductors
! BAT68
! IAC = 4 mA
! One-Port S-Parameters
# Hz  S  MA  R  50
!f									S11
!Hz							Mag  Ang
309850000		0.67452	174.2186
409800000		0.67432	172.4519
509750000		0.67377	170.7112
609700000		0.67389	168.9293
709650000		0.6735	167.2818
809600000		0.67361	165.5695
909550000		0.67376	163.8954
1009500000		0.67455	162.1413
1109450000		0.67535	160.5503
1209400000		0.67599	158.8427
1309350000		0.67684	157.1904
1409300000		0.67803	155.5122
1509250000		0.67957	153.9032
1609200000		0.68086	152.2072
1709150000		0.68282	150.5727
1809100000		0.68443	148.9389
1909050000		0.68656	147.316
2009000000		0.6883	145.6607
2108950000		0.6906	144.0747
2208900000		0.69219	142.5174
2308850000		0.6944	140.8813
2408800000		0.69598	139.3799
2508750000		0.69814	137.7377
2608700000		0.70017	136.2491
2708650000		0.70209	134.6908
2808600000		0.70455	133.2167
2908550000		0.70603	131.7207
3008500000		0.70871	130.2369
3108450000		0.71052	128.8529
3208400000		0.71317	127.4419
3308350000		0.71557	126.0848
3408300000		0.71809	124.7776
3508250000		0.72048	123.4705
3608200000		0.72364	122.1244
3708150000		0.72674	120.8792
3808100000		0.72982	119.6295
3908050000		0.73248	118.3779
4008000000		0.73585	117.1251
4107950000		0.73908	115.9171
4207900000		0.74281	114.6877
4307850000		0.74631	113.5062
4407800000		0.75008	112.3261
4507750000		0.75369	111.1684
4607700000		0.75725	109.9629
4707650000		0.76098	108.8358
4807600000		0.76405	107.6602
4907550000		0.7672	106.5224
5007500000		0.76993	105.378
5107450000		0.77271	104.2021
5207400000		0.77507	103.1089
5307350000		0.77699	102.0257
5407300000		0.77914	100.9126
5507250000		0.78097	99.9225
5607200000		0.78245	98.8383
5707150000		0.78426	97.8976
5807100000		0.78521	96.8934
5907050000		0.78691	95.9167
6007000000		0.78815	94.9828
6106950000		0.78981	94.0329
6206900000		0.79108	93.1355
6306850000		0.79275	92.1803
6406800000		0.794	91.2808
6506750000		0.79572	90.3371
6606700000		0.79717	89.4287
6706650000		0.79857	88.4761
6806600000		0.80023	87.585
!
!				Infineon Technologies AG
