! Infineon Technologies  Discrete & RF Semiconductors
! BAT68
! VCA = 0.7 V
! One-Port S-Parameters
# Hz  S  MA  R  50
!f									S11
!Hz							Mag  Ang
309850000		0.99945	-7.2046
409800000		0.99904	-9.5255
509750000		0.9991	-11.8568
609700000		0.99843	-14.1362
709650000		0.99872	-16.555
809600000		0.9983	-18.9191
909550000		0.99824	-21.3376
1009500000		0.99768	-23.6993
1109450000		0.99731	-26.2098
1209400000		0.99663	-28.64
1309350000		0.99584	-31.1364
1409300000		0.99469	-33.603
1509250000		0.99385	-36.1725
1609200000		0.99233	-38.6709
1709150000		0.99111	-41.257
1809100000		0.98963	-43.8154
1909050000		0.98834	-46.4635
2009000000		0.98676	-49.0846
2108950000		0.98517	-51.743
2208900000		0.98439	-54.4828
2308850000		0.98334	-57.2082
2408800000		0.98251	-60.0724
2508750000		0.98212	-62.843
2608700000		0.98166	-65.7894
2708650000		0.98121	-68.7066
2808600000		0.98062	-71.7831
2908550000		0.98025	-74.8703
3008500000		0.97937	-78.0763
3108450000		0.97866	-81.3336
3208400000		0.97714	-84.6111
3308350000		0.97552	-87.9671
3408300000		0.97355	-91.416
3508250000		0.97149	-94.8738
3608200000		0.96881	-98.315
3708150000		0.9658	-101.8661
3808100000		0.963	-105.4263
3908050000		0.95973	-108.9427
4008000000		0.95657	-112.5458
4107950000		0.95358	-116.0879
4207900000		0.95054	-119.6948
4307850000		0.948	-123.295
4407800000		0.94571	-126.9203
4507750000		0.94415	-130.4885
4607700000		0.94283	-134.101
4707650000		0.94205	-137.7101
4807600000		0.94176	-141.2981
4907550000		0.94198	-144.9081
5007500000		0.94246	-148.4963
5107450000		0.94327	-152.0686
5207400000		0.94371	-155.7178
5307350000		0.94475	-159.236
5407300000		0.94492	-162.8436
5507250000		0.94584	-166.3553
5607200000		0.94563	-169.8153
5707150000		0.94585	-173.2572
5807100000		0.94527	-176.559
5907050000		0.94475	-179.896
6007000000		0.94394	176.9272
6106950000		0.94314	173.7361
6206900000		0.94233	170.6964
6306850000		0.94154	167.6942
6406800000		0.94041	164.7732
6506750000		0.93986	161.9258
6606700000		0.93897	159.1498
6706650000		0.93848	156.4177
6806600000		0.93803	153.7474
!
!				Infineon Technologies AG
