! Infineon Technologies  Discrete & RF Semiconductors
! BAT68
! VCA = 0.9 V
! One-Port S-Parameters
# Hz  S  MA  R  50
!f									S11
!Hz							Mag  Ang
309850000		0.9997	-7.008
409800000		0.99907	-9.2168
509750000		0.99917	-11.4728
609700000		0.99872	-13.7084
709650000		0.99857	-15.9875
809600000		0.9984	-18.3072
909550000		0.99841	-20.6496
1009500000		0.99787	-22.9297
1109450000		0.99754	-25.3617
1209400000		0.99684	-27.7114
1309350000		0.99617	-30.1282
1409300000		0.99511	-32.513
1509250000		0.99431	-35.0026
1609200000		0.99282	-37.4169
1709150000		0.99162	-39.9163
1809100000		0.99009	-42.3617
1909050000		0.98896	-44.9567
2009000000		0.98741	-47.49
2108950000		0.98611	-50.0887
2208900000		0.98515	-52.7061
2308850000		0.98397	-55.3088
2408800000		0.9834	-58.1149
2508750000		0.98305	-60.788
2608700000		0.9826	-63.6421
2708650000		0.9823	-66.4634
2808600000		0.98194	-69.4771
2908550000		0.98148	-72.4324
3008500000		0.98076	-75.5419
3108450000		0.98028	-78.7049
3208400000		0.97883	-81.8906
3308350000		0.97727	-85.153
3408300000		0.97545	-88.5122
3508250000		0.97358	-91.8857
3608200000		0.97099	-95.2392
3708150000		0.96809	-98.7162
3808100000		0.96536	-102.2048
3908050000		0.96213	-105.6499
4008000000		0.95898	-109.1868
4107950000		0.95595	-112.6673
4207900000		0.95283	-116.2146
4307850000		0.95024	-119.7651
4407800000		0.9479	-123.3464
4507750000		0.94616	-126.8741
4607700000		0.94468	-130.4491
4707650000		0.94383	-134.0303
4807600000		0.94341	-137.5947
4907550000		0.94348	-141.1872
5007500000		0.94389	-144.7617
5107450000		0.94458	-148.323
5207400000		0.945	-151.9756
5307350000		0.94601	-155.5031
5407300000		0.94612	-159.1195
5507250000		0.94694	-162.6557
5607200000		0.94677	-166.1431
5707150000		0.94702	-169.6218
5807100000		0.94648	-172.9611
5907050000		0.9459	-176.3423
6007000000		0.94514	-179.5682
6106950000		0.9443	177.1907
6206900000		0.94345	174.0976
6306850000		0.94265	171.04
6406800000		0.94149	168.0621
6506750000		0.9409	165.1565
6606700000		0.93991	162.3244
6706650000		0.93941	159.533
6806600000		0.93884	156.8016
!
!				Infineon Technologies AG
