! Infineon Technologies  Discrete & RF Semiconductors
! BAT68
! IAC = 0.1 mA
! One-Port S-Parameters
# Hz  S  MA  R  50
!f									S11
!Hz							Mag  Ang
309850000		0.77495	-11.6616
409800000		0.77476	-15.4408
509750000		0.77437	-19.2226
609700000		0.774	-23.0322
709650000		0.77668	-26.9465
809600000		0.77049	-30.9481
909550000		0.77199	-34.9588
1009500000		0.77407	-38.7415
1109450000		0.77616	-42.6917
1209400000		0.77044	-46.65
1309350000		0.76824	-50.7732
1409300000		0.76513	-54.8429
1509250000		0.76199	-59.0163
1609200000		0.76116	-63.0398
1709150000		0.76913	-66.7102
1809100000		0.76626	-70.922
1909050000		0.761	-75.2337
2009000000		0.75596	-79.5085
2108950000		0.76056	-83.5939
2208900000		0.7593	-87.8277
2308850000		0.75863	-92.0947
2408800000		0.75913	-96.3971
2508750000		0.75933	-100.6214
2608700000		0.76088	-104.939
2708650000		0.75862	-109.3794
2808600000		0.76524	-113.5154
2908550000		0.76285	-117.9938
3008500000		0.76057	-122.5295
3108450000		0.76167	-126.8876
3208400000		0.76561	-131.0182
3308350000		0.76798	-135.2565
3408300000		0.76827	-139.6038
3508250000		0.76983	-143.7714
3608200000		0.77042	-147.9502
3708150000		0.77142	-152.1121
3808100000		0.77337	-156.1304
3908050000		0.77486	-160.0275
4008000000		0.77569	-164.0962
4107950000		0.77859	-167.8116
4207900000		0.78378	-171.3579
4307850000		0.78922	-174.7866
4407800000		0.79158	-178.5096
4507750000		0.79585	178.0416
4607700000		0.80034	174.64
4707650000		0.80793	171.5939
4807600000		0.81279	168.3779
4907550000		0.81881	165.303
5007500000		0.82332	162.1709
5107450000		0.82748	159.061
5207400000		0.83264	156.1389
5307350000		0.83781	153.3923
5407300000		0.84185	150.5605
5507250000		0.84505	147.8112
5607200000		0.84795	145.145
5707150000		0.85169	142.6563
5807100000		0.85431	140.2702
5907050000		0.85659	137.803
6007000000		0.85933	135.5962
6106950000		0.86206	133.371
6206900000		0.86411	131.2733
6306850000		0.86616	129.1256
6406800000		0.86775	127.0951
6506750000		0.86996	125.1033
6606700000		0.87173	123.1812
6706650000		0.87353	121.2469
6806600000		0.87574	119.4279
!
!				Infineon Technologies AG
