! Infineon Technologies  Discrete & RF Semiconductors
! BAT68
! IAC = 2 mA
! One-Port S-Parameters
# Hz  S  MA  R  50
!f									S11
!Hz							Mag  Ang
309850000		0.49244	174.7677
409800000		0.49319	173.19
509750000		0.49332	171.6685
609700000		0.4942	170.0615
709650000		0.49414	168.634
809600000		0.49432	167.1974
909550000		0.49558	165.765
1009500000		0.49782	164.1791
1109450000		0.49975	162.7901
1209400000		0.50133	161.2532
1309350000		0.50289	159.8131
1409300000		0.5051	158.3211
1509250000		0.50817	156.8885
1609200000		0.51066	155.3547
1709150000		0.51423	153.841
1809100000		0.51733	152.3838
1909050000		0.52108	150.9127
2009000000		0.52418	149.416
2108950000		0.5282	148.0125
2208900000		0.5312	146.6078
2308850000		0.53526	145.1141
2408800000		0.53795	143.8359
2508750000		0.54223	142.2835
2608700000		0.54628	140.9683
2708650000		0.55042	139.4848
2808600000		0.55538	138.1479
2908550000		0.55909	136.7311
3008500000		0.56418	135.2762
3108450000		0.56839	133.9615
3208400000		0.57365	132.6301
3308350000		0.57804	131.416
3408300000		0.58311	130.1463
3508250000		0.58775	128.9132
3608200000		0.59367	127.5482
3708150000		0.59898	126.3674
3808100000		0.60403	125.191
3908050000		0.60875	124.0025
4008000000		0.61473	122.7615
4107950000		0.62027	121.5811
4207900000		0.62625	120.3806
4307850000		0.63194	119.235
4407800000		0.63821	118.0645
4507750000		0.64399	116.9493
4607700000		0.64993	115.7478
4707650000		0.65586	114.6504
4807600000		0.66117	113.505
4907550000		0.66665	112.3958
5007500000		0.6718	111.2646
5107450000		0.67722	110.0489
5207400000		0.68205	108.9734
5307350000		0.68634	107.914
5407300000		0.69095	106.7844
5507250000		0.69539	105.7557
5607200000		0.69931	104.6408
5707150000		0.70359	103.6727
5807100000		0.70674	102.6611
5907050000		0.71078	101.6402
6007000000		0.71408	100.6925
6106950000		0.71792	99.7123
6206900000		0.7212	98.7855
6306850000		0.72483	97.7993
6406800000		0.72808	96.8614
6506750000		0.73163	95.8833
6606700000		0.73488	94.9389
6706650000		0.73812	93.9501
6806600000		0.74151	93.0289
!
!				Infineon Technologies AG
