! Infineon Technologies  Discrete & RF Semiconductors
! BAT68
! IAC = 0.7 mA
! One-Port S-Parameters
# Hz  S  MA  R  50
!f									S11
!Hz							Mag  Ang
309850000		0.03097	-121.9965
409800000		0.04007	-123.1407
509750000		0.05007	-121.4696
609700000		0.06029	-123.2876
709650000		0.07133	-121.2389
809600000		0.0826	-123.1743
909550000		0.09559	-124.283
1009500000		0.10557	-127.869
1109450000		0.1171	-129.6067
1209400000		0.12577	-133.0054
1309350000		0.1386	-135.2783
1409300000		0.15002	-138.0181
1509250000		0.16257	-141.8043
1609200000		0.17385	-144.3495
1709150000		0.18367	-146.2261
1809100000		0.1969	-149.4665
1909050000		0.20829	-153.0742
2009000000		0.22034	-156.0646
2108950000		0.23382	-158.3362
2208900000		0.24636	-160.6866
2308850000		0.25874	-163.5524
2408800000		0.27119	-165.3578
2508750000		0.28325	-168.1241
2608700000		0.2969	-170.7136
2708650000		0.30895	-173.5537
2808600000		0.32332	-176.0214
2908550000		0.33552	-178.6735
3008500000		0.34626	178.1593
3108450000		0.35949	175.7806
3208400000		0.37235	173.239
3308350000		0.38608	171.0739
3408300000		0.39913	168.6567
3508250000		0.412	166.395
3608200000		0.42376	163.7003
3708150000		0.43705	161.4051
3808100000		0.4497	159.3796
3908050000		0.46188	157.25
4008000000		0.47434	154.8557
4107950000		0.48649	152.7193
4207900000		0.49937	150.7231
4307850000		0.51188	148.8297
4407800000		0.52424	146.6244
4507750000		0.53653	144.703
4607700000		0.5484	142.6692
4707650000		0.561	140.9481
4807600000		0.57246	139.0862
4907550000		0.58427	137.3124
5007500000		0.5953	135.4299
5107450000		0.60554	133.4021
5207400000		0.61655	131.6949
5307350000		0.62678	130.0533
5407300000		0.63666	128.2667
5507250000		0.64559	126.5168
5607200000		0.65397	124.7731
5707150000		0.66287	123.198
5807100000		0.67062	121.6659
5907050000		0.67837	120.0256
6007000000		0.68593	118.5966
6106950000		0.69353	117.11
6206900000		0.70029	115.6916
6306850000		0.7071	114.2064
6406800000		0.71328	112.7928
6506750000		0.71972	111.3693
6606700000		0.72561	109.9927
6706650000		0.73138	108.5778
6806600000		0.7374	107.2622
!
!				Infineon Technologies AG
