! Infineon Technologies  Discrete & RF Semiconductors
! BAT68
! VCA = 0.2 V
! One-Port S-Parameters
# Hz  S  MA  R  50
!f									S11
!Hz							Mag  Ang
309850000		0.9996	-8.3434
409800000		0.99891	-10.9854
509750000		0.99864	-13.6414
609700000		0.9983	-16.3469
709650000		0.99819	-19.0937
809600000		0.99768	-21.8231
909550000		0.9975	-24.6113
1009500000		0.99673	-27.3436
1109450000		0.99616	-30.2272
1209400000		0.99525	-33.0299
1309350000		0.9942	-35.9078
1409300000		0.99278	-38.752
1509250000		0.99162	-41.7066
1609200000		0.98983	-44.5897
1709150000		0.98824	-47.5735
1809100000		0.98648	-50.517
1909050000		0.98492	-53.5675
2009000000		0.98316	-56.5815
2108950000		0.98144	-59.6863
2208900000		0.98018	-62.7903
2308850000		0.97868	-65.902
2408800000		0.97774	-69.2061
2508750000		0.97678	-72.3728
2608700000		0.97619	-75.764
2708650000		0.97536	-79.1106
2808600000		0.97452	-82.6322
2908550000		0.97339	-86.1012
3008500000		0.97192	-89.72
3108450000		0.97068	-93.3674
3208400000		0.96858	-97.0344
3308350000		0.96621	-100.7213
3408300000		0.96384	-104.5583
3508250000		0.96117	-108.3039
3608200000		0.95825	-112.1
3708150000		0.95496	-115.9315
3808100000		0.95194	-119.748
3908050000		0.94863	-123.495
4008000000		0.94559	-127.3222
4107950000		0.94278	-131.048
4207900000		0.94008	-134.8269
4307850000		0.93801	-138.5636
4407800000		0.93636	-142.3026
4507750000		0.9354	-145.9532
4607700000		0.93464	-149.6386
4707650000		0.93467	-153.2798
4807600000		0.93485	-156.8839
4907550000		0.93563	-160.4826
5007500000		0.93659	-164.0379
5107450000		0.93777	-167.5579
5207400000		0.93844	-171.1157
5307350000		0.93955	-174.5168
5407300000		0.93984	-177.9984
5507250000		0.94078	178.6696
5607200000		0.94055	175.3797
5707150000		0.94083	172.1592
5807100000		0.94017	169.0699
5907050000		0.93973	165.9673
6007000000		0.93901	163.0361
6106950000		0.93837	160.0949
6206900000		0.93755	157.323
6306850000		0.93697	154.5743
6406800000		0.93605	151.9196
6506750000		0.93569	149.3302
6606700000		0.93494	146.8187
6706650000		0.93466	144.3352
6806600000		0.93442	141.928
!
!				Infineon Technologies AG
