! Infineon Technologies  Discrete & RF Semiconductors
! BAT68
! IAC = 5 mA
! One-Port S-Parameters
# Hz  S  MA  R  50
!f									S11
!Hz							Mag  Ang
309850000		0.71461	174.1627
409800000		0.7142	172.3719
509750000		0.71342	170.6427
609700000		0.71336	168.8352
709650000		0.71306	167.1298
809600000		0.7131	165.3946
909550000		0.71309	163.6939
1009500000		0.71364	161.9202
1109450000		0.71422	160.3066
1209400000		0.71469	158.5803
1309350000		0.71541	156.9035
1409300000		0.7164	155.207
1509250000		0.71768	153.5774
1609200000		0.71877	151.8629
1709150000		0.72042	150.2116
1809100000		0.72184	148.5562
1909050000		0.72371	146.9124
2009000000		0.72525	145.2345
2108950000		0.72718	143.632
2208900000		0.72852	142.0467
2308850000		0.73057	140.3682
2408800000		0.73192	138.8398
2508750000		0.73359	137.2074
2608700000		0.73521	135.6996
2708650000		0.73678	134.1255
2808600000		0.73881	132.6328
2908550000		0.74005	131.09
3008500000		0.74201	129.6378
3108450000		0.7436	128.2019
3208400000		0.74566	126.8149
3308350000		0.74765	125.4407
3408300000		0.74975	124.1177
3508250000		0.75174	122.7999
3608200000		0.75442	121.4488
3708150000		0.75718	120.1917
3808100000		0.75991	118.9255
3908050000		0.76224	117.6626
4008000000		0.76523	116.3996
4107950000		0.76807	115.1805
4207900000		0.77141	113.9401
4307850000		0.77451	112.7487
4407800000		0.77795	111.5583
4507750000		0.78121	110.3876
4607700000		0.78438	109.1738
4707650000		0.78772	108.0345
4807600000		0.7904	106.8475
4907550000		0.79315	105.6986
5007500000		0.79542	104.5435
5107450000		0.79775	103.3619
5207400000		0.7997	102.2587
5307350000		0.80113	101.165
5407300000		0.80287	100.0475
5507250000		0.80418	99.051
5607200000		0.80521	97.965
5707150000		0.80654	97.0196
5807100000		0.8072	96.0093
5907050000		0.80844	95.0329
6007000000		0.80924	94.0921
6106950000		0.81051	93.1383
6206900000		0.81143	92.2387
6306850000		0.81269	91.281
6406800000		0.81359	90.3803
6506750000		0.81491	89.4356
6606700000		0.81601	88.524
6706650000		0.8171	87.5688
6806600000		0.81845	86.6779
!
!				Infineon Technologies AG
