! Infineon Technologies  Discrete & RF Semiconductors
! BAT68
! IAC = 0.03 mA
! One-Port S-Parameters
# Hz  S  MA  R  50
!f									S11
!Hz							Mag  Ang
309850000		0.92733	-11.0445
409800000		0.92698	-14.6297
509750000		0.92629	-18.1981
609700000		0.92596	-21.8037
709650000		0.92665	-25.4525
809600000		0.92336	-29.203
909550000		0.92337	-32.909
1009500000		0.92353	-36.4937
1109450000		0.92344	-40.221
1209400000		0.9201	-44.0316
1309350000		0.9179	-47.8755
1409300000		0.91499	-51.6981
1509250000		0.91257	-55.6222
1609200000		0.91043	-59.4148
1709150000		0.91207	-62.9684
1809100000		0.90933	-66.8899
1909050000		0.90551	-70.9984
2009000000		0.90186	-75.0894
2108950000		0.90211	-78.913
2208900000		0.90006	-82.9597
2308850000		0.89813	-87.0019
2408800000		0.89681	-91.2096
2508750000		0.89551	-95.2288
2608700000		0.89511	-99.4113
2708650000		0.89263	-103.7414
2808600000		0.89435	-107.7015
2908550000		0.89153	-112.1049
3008500000		0.8885	-116.5355
3108450000		0.88697	-120.8208
3208400000		0.88693	-124.877
3308350000		0.88571	-129.0764
3408300000		0.88328	-133.4069
3508250000		0.88171	-137.5693
3608200000		0.87974	-141.7145
3708150000		0.87774	-145.8956
3808100000		0.87634	-149.9725
3908050000		0.87469	-153.9265
4008000000		0.87317	-158.0306
4107950000		0.87297	-161.8076
4207900000		0.87398	-165.4228
4307850000		0.87553	-168.9342
4407800000		0.8758	-172.7492
4507750000		0.87727	-176.3057
4607700000		0.87906	-179.8122
4707650000		0.88287	177.0316
4807600000		0.88517	173.6855
4907550000		0.88829	170.4811
5007500000		0.89072	167.2163
5107450000		0.89308	163.9903
5207400000		0.89549	160.9268
5307350000		0.89814	158.0453
5407300000		0.89983	155.0744
5507250000		0.90139	152.1902
5607200000		0.90217	149.3958
5707150000		0.90374	146.7761
5807100000		0.90427	144.2632
5907050000		0.9048	141.6683
6007000000		0.90539	139.3497
6106950000		0.90615	137.0057
6206900000		0.9065	134.7951
6306850000		0.90707	132.5447
6406800000		0.90716	130.4089
6506750000		0.90784	128.323
6606700000		0.90819	126.3064
6706650000		0.90874	124.284
6806600000		0.90955	122.378
!
!				Infineon Technologies AG
