! Infineon Technologies  Discrete & RF Semiconductors
! BAT68
! VCA = 0.5 V
! One-Port S-Parameters
# Hz  S  MA  R  50
!f									S11
!Hz							Mag  Ang
309850000		0.99933	-7.532
409800000		0.99895	-9.9539
509750000		0.99902	-12.3893
609700000		0.99854	-14.806
709650000		0.99849	-17.2956
809600000		0.9979	-19.7368
909550000		0.99797	-22.2966
1009500000		0.99736	-24.7667
1109450000		0.99702	-27.3885
1209400000		0.99622	-29.9268
1309350000		0.9954	-32.5356
1409300000		0.99415	-35.1137
1509250000		0.99325	-37.7974
1609200000		0.9917	-40.4092
1709150000		0.99034	-43.1129
1809100000		0.98882	-45.7849
1909050000		0.98744	-48.5544
2009000000		0.98577	-51.2935
2108950000		0.98427	-54.1074
2208900000		0.98323	-56.9319
2308850000		0.98196	-59.7537
2408800000		0.98128	-62.7737
2508750000		0.98077	-65.6748
2608700000		0.98017	-68.7465
2708650000		0.97967	-71.7954
2808600000		0.97888	-75
2908550000		0.97833	-78.2179
3008500000		0.97732	-81.5511
3108450000		0.97647	-84.9331
3208400000		0.9746	-88.3061
3308350000		0.97295	-91.8084
3408300000		0.97084	-95.378
3508250000		0.96861	-98.9393
3608200000		0.9656	-102.4572
3708150000		0.96271	-106.138
3808100000		0.95975	-109.7903
3908050000		0.95642	-113.3869
4008000000		0.95321	-117.0751
4107950000		0.95033	-120.6869
4207900000		0.94732	-124.3592
4307850000		0.94485	-128.0173
4407800000		0.94277	-131.6928
4507750000		0.94141	-135.301
4607700000		0.9402	-138.9527
4707650000		0.9397	-142.5847
4807600000		0.93955	-146.1947
4907550000		0.93992	-149.8163
5007500000		0.94059	-153.4063
5107450000		0.94151	-156.9757
5207400000		0.942	-160.6128
5307350000		0.94311	-164.1069
5407300000		0.94334	-167.6893
5507250000		0.94423	-171.1536
5607200000		0.94402	-174.5745
5707150000		0.94428	-177.9562
5807100000		0.94365	178.8013
5907050000		0.94313	175.5274
6007000000		0.94242	172.4208
6106950000		0.94165	169.3032
6206900000		0.94082	166.3434
6306850000		0.9401	163.4157
6406800000		0.93905	160.5754
6506750000		0.93852	157.8072
6606700000		0.9377	155.1123
6706650000		0.93726	152.4558
6806600000		0.93681	149.8682
!
!				Infineon Technologies AG
