! Infineon Technologies  Discrete & RF Semiconductors
! BAT68
! IAC = 0.3 mA
! One-Port S-Parameters
# Hz  S  MA  R  50
!f									S11
!Hz							Mag  Ang
309850000		0.42495	-13.43
409800000		0.42407	-17.6542
509750000		0.42522	-22.1319
609700000		0.42466	-26.6317
709650000		0.43006	-31.2603
809600000		0.42524	-36.0267
909550000		0.42978	-40.9109
1009500000		0.43205	-45.219
1109450000		0.43712	-49.7672
1209400000		0.43282	-54.0888
1309350000		0.43348	-59.0573
1409300000		0.43368	-63.8106
1509250000		0.4318	-68.7894
1609200000		0.43483	-73.4246
1709150000		0.44695	-77.2299
1809100000		0.44728	-82.2848
1909050000		0.44458	-87.1837
2009000000		0.44366	-92.0848
2108950000		0.45337	-96.6349
2208900000		0.45734	-101.2406
2308850000		0.46128	-105.9142
2408800000		0.46916	-110.3666
2508750000		0.47422	-114.8508
2608700000		0.48141	-119.4401
2708650000		0.48506	-124.1145
2808600000		0.49694	-128.3279
2908550000		0.50134	-132.9212
3008500000		0.50379	-137.5218
3108450000		0.51212	-141.8256
3208400000		0.5218	-145.8652
3308350000		0.53194	-149.9355
3408300000		0.53973	-154.101
3508250000		0.54853	-158.0506
3608200000		0.55525	-162.1038
3708150000		0.56394	-166.033
3808100000		0.57335	-169.6609
3908050000		0.58201	-173.2177
4008000000		0.58958	-177.0292
4107950000		0.5988	179.5843
4207900000		0.61041	176.3916
4307850000		0.62183	173.3476
4407800000		0.63017	169.9563
4507750000		0.6401	166.8992
4607700000		0.64985	163.8487
4707650000		0.66247	161.1897
4807600000		0.67231	158.366
4907550000		0.6832	155.6773
5007500000		0.69226	152.9091
5107450000		0.70027	150.1089
5207400000		0.71019	147.5739
5307350000		0.71957	145.1803
5407300000		0.72791	142.6794
5507250000		0.73477	140.2485
5607200000		0.74139	137.8805
5707150000		0.74899	135.692
5807100000		0.75534	133.5914
5907050000		0.76112	131.3955
6007000000		0.76743	129.4541
6106950000		0.77361	127.4784
6206900000		0.77882	125.6094
6306850000		0.7839	123.6849
6406800000		0.78839	121.8608
6506750000		0.79326	120.0616
6606700000		0.79761	118.3246
6706650000		0.8019	116.5671
6806600000		0.80654	114.9203
!
!				Infineon Technologies AG
