! Infineon Technologies  Discrete & RF Semiconductors
! BAT68
! IAC = 0.6 mA
! One-Port S-Parameters
# Hz  S  MA  R  50
!f									S11
!Hz							Mag  Ang
309850000		0.07768	-30.9466
409800000		0.07912	-40.3694
509750000		0.0849	-49.6542
609700000		0.08958	-58.7785
709650000		0.10032	-65.7819
809600000		0.10754	-73.7462
909550000		0.11898	-80.5612
1009500000		0.12562	-87.0045
1109450000		0.13627	-92.3013
1209400000		0.14187	-97.9582
1309350000		0.1534	-103.5165
1409300000		0.16335	-108.6629
1509250000		0.17302	-114.6775
1609200000		0.18371	-119.0478
1709150000		0.19436	-122.0054
1809100000		0.20605	-127.0447
1909050000		0.21522	-132.0629
2009000000		0.22603	-136.4914
2108950000		0.24003	-139.9209
2208900000		0.25254	-143.4374
2308850000		0.26437	-147.296
2408800000		0.27769	-150.0414
2508750000		0.28944	-153.6085
2608700000		0.3031	-157.0392
2708650000		0.31475	-160.6307
2808600000		0.32949	-163.7156
2908550000		0.3416	-167.0824
3008500000		0.35147	-170.8206
3108450000		0.36502	-173.7946
3208400000		0.37799	-176.8137
3308350000		0.39228	-179.5031
3408300000		0.40541	177.5734
3508250000		0.41856	174.8524
3608200000		0.43012	171.7214
3708150000		0.44348	169.0319
3808100000		0.45656	166.6127
3908050000		0.46891	164.1574
4008000000		0.48146	161.3279
4107950000		0.49367	158.9177
4207900000		0.50704	156.6489
4307850000		0.52004	154.4909
4407800000		0.53236	151.9899
4507750000		0.54486	149.809
4607700000		0.55692	147.5356
4707650000		0.57014	145.6114
4807600000		0.58186	143.5361
4907550000		0.59411	141.5572
5007500000		0.6053	139.4731
5107450000		0.6155	137.2612
5207400000		0.62687	135.3766
5307350000		0.63742	133.5703
5407300000		0.64742	131.6248
5507250000		0.65639	129.7163
5607200000		0.6648	127.83
5707150000		0.67388	126.1193
5807100000		0.68173	124.4613
5907050000		0.68946	122.6945
6007000000		0.69712	121.1528
6106950000		0.70478	119.5564
6206900000		0.71154	118.0355
6306850000		0.71828	116.4508
6406800000		0.7244	114.9445
6506750000		0.73076	113.435
6606700000		0.73662	111.9753
6706650000		0.74226	110.4805
6806600000		0.74826	109.0903
!
!				Infineon Technologies AG
