! Infineon Technologies  Discrete & RF Semiconductors
! BAT68
! IAC = 6 mA
! One-Port S-Parameters
# Hz  S  MA  R  50
!f									S11
!Hz							Mag  Ang
309850000		0.74204	174.128
409800000		0.74136	172.3646
509750000		0.74072	170.584
609700000		0.74056	168.7678
709650000		0.74017	167.0479
809600000		0.74018	165.2977
909550000		0.74006	163.5841
1009500000		0.74039	161.8021
1109450000		0.74083	160.1739
1209400000		0.74127	158.4389
1309350000		0.74186	156.7519
1409300000		0.74276	155.0422
1509250000		0.74385	153.4038
1609200000		0.74483	151.6778
1709150000		0.74627	150.0164
1809100000		0.74754	148.3493
1909050000		0.74924	146.6964
2009000000		0.75064	145.0054
2108950000		0.75232	143.3893
2208900000		0.75354	141.7936
2308850000		0.75516	140.1288
2408800000		0.75659	138.5618
2508750000		0.75799	136.9207
2608700000		0.75936	135.3985
2708650000		0.76086	133.7832
2808600000		0.76236	132.3147
2908550000		0.7634	130.7648
3008500000		0.76494	129.3406
3108450000		0.7664	127.8604
3208400000		0.76812	126.4656
3308350000		0.76991	125.0832
3408300000		0.77174	123.7536
3508250000		0.77348	122.4266
3608200000		0.77584	121.0721
3708150000		0.77836	119.8067
3808100000		0.78089	118.5352
3908050000		0.78307	117.2646
4008000000		0.78573	115.995
4107950000		0.78833	114.7707
4207900000		0.79136	113.5251
4307850000		0.7943	112.3223
4407800000		0.79748	111.1278
4507750000		0.80056	109.9513
4607700000		0.80343	108.7309
4707650000		0.80654	107.5834
4807600000		0.80899	106.388
4907550000		0.81149	105.2305
5007500000		0.81351	104.0684
5107450000		0.8155	102.8823
5207400000		0.81717	101.7721
5307350000		0.81838	100.6742
5407300000		0.81976	99.5502
5507250000		0.82082	98.55
5607200000		0.82155	97.461
5707150000		0.82265	96.512
5807100000		0.82296	95.4967
5907050000		0.8239	94.5176
6007000000		0.82448	93.5723
6106950000		0.82555	92.6196
6206900000		0.82616	91.7153
6306850000		0.82725	90.753
6406800000		0.82789	89.8508
6506750000		0.82902	88.9045
6606700000		0.82993	87.9915
6706650000		0.83079	87.0325
6806600000		0.83193	86.1365
!
!				Infineon Technologies AG
