! Infineon Technologies  Discrete & RF Semiconductors
! BAT68
! IAC = 0.2 mA
! One-Port S-Parameters
# Hz  S  MA  R  50
!f									S11
!Hz							Mag  Ang
309850000		0.58567	-12.3911
409800000		0.5852	-16.352
509750000		0.58565	-20.4394
609700000		0.58516	-24.5427
709650000		0.5894	-28.7395
809600000		0.58275	-33.0616
909550000		0.58602	-37.4865
1009500000		0.58864	-41.484
1109450000		0.59262	-45.6987
1209400000		0.58672	-49.771
1309350000		0.5855	-54.2865
1409300000		0.5836	-58.6611
1509250000		0.58043	-63.1772
1609200000		0.58146	-67.4854
1709150000		0.59315	-71.2345
1809100000		0.59127	-75.8366
1909050000		0.5863	-80.3715
2009000000		0.58244	-84.9406
2108950000		0.59019	-89.2637
2208900000		0.59122	-93.7012
2308850000		0.59263	-98.1725
2408800000		0.59686	-102.5742
2508750000		0.59931	-106.9468
2608700000		0.6037	-111.429
2708650000		0.60406	-116.0275
2808600000		0.61411	-120.2451
2908550000		0.6148	-124.8353
3008500000		0.61438	-129.3811
3108450000		0.61929	-133.7638
3208400000		0.6268	-137.9096
3308350000		0.63351	-142.1236
3408300000		0.63775	-146.4267
3508250000		0.6432	-150.5032
3608200000		0.64717	-154.694
3708150000		0.65229	-158.7723
3808100000		0.6585	-162.6585
3908050000		0.66398	-166.432
4008000000		0.66836	-170.4136
4107950000		0.67492	-174.0005
4207900000		0.68403	-177.4112
4307850000		0.69324	179.3179
4407800000		0.69872	175.7301
4507750000		0.70617	172.4481
4607700000		0.71379	169.1999
4707650000		0.72463	166.3212
4807600000		0.7324	163.2851
4907550000		0.74141	160.3858
5007500000		0.74854	157.4195
5107450000		0.75487	154.4528
5207400000		0.76286	151.7139
5307350000		0.77062	149.1352
5407300000		0.77723	146.4606
5507250000		0.78252	143.8664
5607200000		0.78762	141.3446
5707150000		0.79364	139.0016
5807100000		0.79851	136.753
5907050000		0.80279	134.4225
6007000000		0.80765	132.3467
6106950000		0.81244	130.245
6206900000		0.81637	128.2588
6306850000		0.82008	126.2242
6406800000		0.8234	124.296
6506750000		0.82714	122.4015
6606700000		0.83043	120.5745
6706650000		0.83364	118.7301
6806600000		0.8373	116.997
!
!				Infineon Technologies AG
