! Infineon Technologies  Discrete & RF Semiconductors
! BAT68
! IAC = 0.06 mA
! One-Port S-Parameters
# Hz  S  MA  R  50
!f									S11
!Hz							Mag  Ang
309850000		0.85989	-11.3725
409800000		0.85941	-15.0318
509750000		0.85886	-18.7042
609700000		0.85861	-22.4269
709650000		0.86023	-26.207
809600000		0.8553	-30.0831
909550000		0.85599	-33.9317
1009500000		0.85723	-37.6171
1109450000		0.85821	-41.4551
1209400000		0.85353	-45.355
1309350000		0.85124	-49.3286
1409300000		0.84807	-53.2742
1509250000		0.8453	-57.3203
1609200000		0.84372	-61.224
1709150000		0.84855	-64.8418
1809100000		0.84565	-68.8993
1909050000		0.84097	-73.1179
2009000000		0.83654	-77.3193
2108950000		0.83883	-81.2504
2208900000		0.83704	-85.3941
2308850000		0.83564	-89.5699
2408800000		0.83483	-93.8088
2508750000		0.83424	-97.9559
2608700000		0.83465	-102.191
2708650000		0.83211	-106.6027
2808600000		0.83599	-110.5986
2908550000		0.83338	-115.0952
3008500000		0.83045	-119.5706
3108450000		0.83022	-123.9297
3208400000		0.83192	-127.9942
3308350000		0.83229	-132.2186
3408300000		0.83095	-136.5647
3508250000		0.83074	-140.7321
3608200000		0.82969	-144.8676
3708150000		0.82918	-149.0776
3808100000		0.82925	-153.1294
3908050000		0.82896	-157.0612
4008000000		0.82838	-161.1533
4107950000		0.82964	-164.9023
4207900000		0.8326	-168.4898
4307850000		0.83599	-171.9642
4407800000		0.83713	-175.7345
4507750000		0.83986	-179.2405
4607700000		0.84289	177.3025
4707650000		0.8485	174.1952
4807600000		0.85198	170.9119
4907550000		0.8565	167.7709
5007500000		0.85979	164.5715
5107450000		0.86295	161.4023
5207400000		0.86666	158.4075
5307350000		0.87049	155.5914
5407300000		0.87323	152.6916
5507250000		0.87552	149.8752
5607200000		0.87724	147.1433
5707150000		0.87987	144.5895
5807100000		0.88136	142.1394
5907050000		0.88263	139.6126
6007000000		0.88421	137.3485
6106950000		0.88588	135.067
6206900000		0.88707	132.9152
6306850000		0.88829	130.7157
6406800000		0.88904	128.6349
6506750000		0.89046	126.5956
6606700000		0.89151	124.6292
6706650000		0.8926	122.6525
6806600000		0.894	120.7928
!
!				Infineon Technologies AG
