! Infineon Technologies  Discrete & RF Semiconductors
! BAT68
! VCA = 0.8 V
! One-Port S-Parameters
# Hz  S  MA  R  50
!f									S11
!Hz							Mag  Ang
309850000		0.99944	-7.08
409800000		0.99903	-9.3593
509750000		0.99914	-11.6506
609700000		0.99868	-13.9217
709650000		0.99875	-16.2647
809600000		0.9984	-18.5863
909550000		0.99831	-20.9657
1009500000		0.99773	-23.2837
1109450000		0.99746	-25.753
1209400000		0.99682	-28.1417
1309350000		0.996	-30.5921
1409300000		0.9949	-33.0129
1509250000		0.99408	-35.5395
1609200000		0.9926	-37.9942
1709150000		0.99134	-40.5345
1809100000		0.98997	-43.0484
1909050000		0.9887	-45.6506
2009000000		0.98715	-48.2241
2108950000		0.9858	-50.8681
2208900000		0.9848	-53.5267
2308850000		0.9836	-56.1686
2408800000		0.983	-59.0169
2508750000		0.98259	-61.7381
2608700000		0.98195	-64.5978
2708650000		0.98184	-67.4991
2808600000		0.98139	-70.557
2908550000		0.98063	-73.5208
3008500000		0.98012	-76.7127
3108450000		0.97953	-79.9187
3208400000		0.97807	-83.15
3308350000		0.97648	-86.4529
3408300000		0.97467	-89.8561
3508250000		0.97266	-93.2672
3608200000		0.96999	-96.6652
3708150000		0.96708	-100.1762
3808100000		0.96424	-103.6971
3908050000		0.96113	-107.1758
4008000000		0.95791	-110.7446
4107950000		0.95483	-114.2576
4207900000		0.95175	-117.8311
4307850000		0.9492	-121.4058
4407800000		0.94692	-125.0072
4507750000		0.94523	-128.5552
4607700000		0.94384	-132.1481
4707650000		0.94304	-135.7445
4807600000		0.94261	-139.3194
4907550000		0.94277	-142.9204
5007500000		0.94324	-146.5021
5107450000		0.94399	-150.0728
5207400000		0.94443	-153.7223
5307350000		0.94545	-157.2453
5407300000		0.94559	-160.8613
5507250000		0.94641	-164.3871
5607200000		0.94629	-167.8619
5707150000		0.94647	-171.3226
5807100000		0.94591	-174.6465
5907050000		0.94536	-178.0076
6007000000		0.94461	178.7894
6106950000		0.94379	175.5707
6206900000		0.94288	172.5007
6306850000		0.94213	169.4688
6406800000		0.94107	166.5165
6506750000		0.94041	163.6387
6606700000		0.93942	160.8333
6706650000		0.93897	158.0673
6806600000		0.93846	155.3643
!
!				Infineon Technologies AG
