! Infineon Technologies  Discrete & RF Semiconductors
! BAT68
! IAC = 0.09 mA
! One-Port S-Parameters
# Hz  S  MA  R  50
!f									S11
!Hz							Mag  Ang
309850000		0.79568	-11.5941
409800000		0.79526	-15.3198
509750000		0.79474	-19.0786
609700000		0.79459	-22.8936
709650000		0.79703	-26.7725
809600000		0.7909	-30.7099
909550000		0.79236	-34.7152
1009500000		0.79431	-38.4774
1109450000		0.79618	-42.4013
1209400000		0.79072	-46.3462
1309350000		0.78842	-50.4334
1409300000		0.78522	-54.4701
1509250000		0.78223	-58.6161
1609200000		0.78114	-62.6096
1709150000		0.78848	-66.2688
1809100000		0.78562	-70.4413
1909050000		0.78038	-74.7302
2009000000		0.77555	-79.0129
2108950000		0.77958	-83.0401
2208900000		0.77812	-87.2518
2308850000		0.77723	-91.4976
2408800000		0.77726	-95.7515
2508750000		0.77741	-99.9951
2608700000		0.77867	-104.2929
2708650000		0.77621	-108.7171
2808600000		0.78235	-112.8356
2908550000		0.77975	-117.3057
3008500000		0.7773	-121.8346
3108450000		0.77823	-126.2219
3208400000		0.78157	-130.3119
3308350000		0.78341	-134.5496
3408300000		0.78327	-138.8941
3508250000		0.78441	-143.0642
3608200000		0.78466	-147.2428
3708150000		0.78523	-151.4072
3808100000		0.78668	-155.4404
3908050000		0.78774	-159.3428
4008000000		0.78821	-163.4176
4107950000		0.7908	-167.1407
4207900000		0.79544	-170.7017
4307850000		0.8004	-174.1386
4407800000		0.80247	-177.8737
4507750000		0.80624	178.6634
4607700000		0.8105	175.2472
4707650000		0.81766	172.1859
4807600000		0.82214	168.955
4907550000		0.82777	165.8644
5007500000		0.83202	162.7141
5107450000		0.83594	159.5914
5207400000		0.84072	156.6518
5307350000		0.84556	153.8902
5407300000		0.84934	151.0371
5507250000		0.85235	148.2753
5607200000		0.8549	145.5935
5707150000		0.85839	143.089
5807100000		0.86078	140.6867
5907050000		0.8628	138.2074
6007000000		0.86522	135.9907
6106950000		0.86771	133.7495
6206900000		0.86962	131.6359
6306850000		0.87145	129.4786
6406800000		0.87284	127.4379
6506750000		0.87488	125.4327
6606700000		0.87641	123.5001
6706650000		0.87802	121.5575
6806600000		0.88007	119.7294
!
!				Infineon Technologies AG
