! Infineon Technologies  Discrete & RF Semiconductors
! BAT68
! IAC = 7 mA
! One-Port S-Parameters
# Hz  S  MA  R  50
!f									S11
!Hz							Mag  Ang
309850000		0.76195	174.1105
409800000		0.76135	172.3047
509750000		0.76048	170.5527
609700000		0.76024	168.7303
709650000		0.7598	167.0001
809600000		0.75982	165.2427
909550000		0.75954	163.5191
1009500000		0.75982	161.7318
1109450000		0.7602	160.0961
1209400000		0.76049	158.353
1309350000		0.76096	156.6609
1409300000		0.76179	154.9445
1509250000		0.76279	153.2972
1609200000		0.76369	151.5655
1709150000		0.76502	149.8986
1809100000		0.76616	148.2254
1909050000		0.7677	146.5656
2009000000		0.76907	144.8661
2108950000		0.77059	143.2436
2208900000		0.77172	141.6393
2308850000		0.7732	139.9715
2408800000		0.77445	138.3934
2508750000		0.77565	136.7466
2608700000		0.77677	135.2517
2708650000		0.77823	133.5952
2808600000		0.77953	132.1205
2908550000		0.78019	130.5962
3008500000		0.78181	129.1061
3108450000		0.78297	127.6552
3208400000		0.78446	126.2525
3308350000		0.78607	124.8663
3408300000		0.78773	123.5328
3508250000		0.78924	122.2026
3608200000		0.79147	120.8445
3708150000		0.79377	119.5774
3808100000		0.79614	118.2976
3908050000		0.79823	117.0231
4008000000		0.80071	115.7497
4107950000		0.80311	114.5179
4207900000		0.80601	113.2682
4307850000		0.8088	112.0649
4407800000		0.81181	110.8626
4507750000		0.81467	109.6815
4607700000		0.81744	108.4561
4707650000		0.82041	107.3036
4807600000		0.82263	106.1043
4907550000		0.82498	104.9408
5007500000		0.8268	103.7729
5107450000		0.82858	102.5838
5207400000		0.83008	101.4709
5307350000		0.83109	100.3637
5407300000		0.83228	99.2371
5507250000		0.8331	98.2347
5607200000		0.83364	97.1453
5707150000		0.83452	96.1893
5807100000		0.8347	95.1728
5907050000		0.83543	94.1919
6007000000		0.83587	93.2455
6106950000		0.83673	92.2889
6206900000		0.83719	91.3832
6306850000		0.83811	90.4198
6406800000		0.83864	89.5156
6506750000		0.83955	88.5675
6606700000		0.8403	87.6524
6706650000		0.84102	86.6907
6806600000		0.84206	85.7927
!
!				Infineon Technologies AG
