! Infineon Technologies  Discrete & RF Semiconductors
! BAT68
! VCA = 0.4 V
! One-Port S-Parameters
# Hz  S  MA  R  50
!f									S11
!Hz							Mag  Ang
309850000		0.99961	-7.7719
409800000		0.99893	-10.2309
509750000		0.999	-12.7348
609700000		0.99844	-15.2206
709650000		0.99841	-17.7817
809600000		0.99798	-20.3215
909550000		0.99786	-22.9185
1009500000		0.99724	-25.4608
1109450000		0.99677	-28.1525
1209400000		0.99603	-30.7624
1309350000		0.99513	-33.4448
1409300000		0.99379	-36.094
1509250000		0.99284	-38.8517
1609200000		0.99124	-41.5396
1709150000		0.98978	-44.318
1809100000		0.98822	-47.0645
1909050000		0.9868	-49.9102
2009000000		0.98511	-52.724
2108950000		0.98361	-55.6181
2208900000		0.98247	-58.5189
2308850000		0.98111	-61.4228
2408800000		0.98039	-64.5204
2508750000		0.97981	-67.5057
2608700000		0.97889	-70.6248
2708650000		0.97852	-73.7902
2808600000		0.97771	-77.074
2908550000		0.97704	-80.3744
3008500000		0.97588	-83.7889
3108450000		0.97493	-87.2467
3208400000		0.97314	-90.7237
3308350000		0.97124	-94.2687
3408300000		0.96896	-97.9077
3508250000		0.96671	-101.5369
3608200000		0.96377	-105.1482
3708150000		0.96059	-108.8531
3808100000		0.95769	-112.5567
3908050000		0.95431	-116.202
4008000000		0.95112	-119.9352
4107950000		0.94825	-123.5845
4207900000		0.94533	-127.292
4307850000		0.94293	-130.9803
4407800000		0.94097	-134.6812
4507750000		0.93975	-138.3065
4607700000		0.9386	-141.9732
4707650000		0.93828	-145.6174
4807600000		0.93825	-149.2307
4907550000		0.93871	-152.8541
5007500000		0.93941	-156.4418
5107450000		0.94043	-160.0045
5207400000		0.94099	-163.6249
5307350000		0.94207	-167.0983
5407300000		0.94231	-170.6573
5507250000		0.94324	-174.0903
5607200000		0.94305	-177.4774
5707150000		0.94328	179.1822
5807100000		0.94266	175.9793
5907050000		0.94219	172.7509
6007000000		0.94139	169.6918
6106950000		0.94068	166.6212
6206900000		0.93987	163.714
6306850000		0.93921	160.8333
6406800000		0.93818	158.0454
6506750000		0.93773	155.3258
6606700000		0.93693	152.6834
6706650000		0.93652	150.0741
6806600000		0.93612	147.5379
!
!				Infineon Technologies AG
