! Infineon Technologies  Discrete & RF Semiconductors
! BAT68
! VCA = 8 V
! One-Port S-Parameters
# Hz  S  MA  R  50
!f									S11
!Hz							Mag  Ang
309850000		0.99961	-5.8663
409800000		0.99893	-7.734
509750000		0.99901	-9.6068
609700000		0.99893	-11.5048
709650000		0.9991	-13.4387
809600000		0.99869	-15.3579
909550000		0.99872	-17.3275
1009500000		0.99834	-19.235
1109450000		0.99833	-21.2848
1209400000		0.99779	-23.248
1309350000		0.9973	-25.2713
1409300000		0.99632	-27.2678
1509250000		0.99577	-29.3595
1609200000		0.99449	-31.3733
1709150000		0.99358	-33.454
1809100000		0.99243	-35.5215
1909050000		0.99136	-37.6609
2009000000		0.98991	-39.7728
2108950000		0.98894	-41.9273
2208900000		0.9881	-44.1093
2308850000		0.98724	-46.2829
2408800000		0.98672	-48.5995
2508750000		0.98641	-50.7661
2608700000		0.98636	-53.1763
2708650000		0.98644	-55.5048
2808600000		0.98635	-58.0249
2908550000		0.98628	-60.4855
3008500000		0.98612	-63.078
3108450000		0.98609	-65.7305
3208400000		0.98528	-68.4164
3308350000		0.98418	-71.144
3408300000		0.9833	-74.037
3508250000		0.98211	-76.9318
3608200000		0.98015	-79.798
3708150000		0.9778	-82.8109
3808100000		0.97537	-85.8527
3908050000		0.97272	-88.8738
4008000000		0.96979	-91.9733
4107950000		0.96678	-95.0599
4207900000		0.9636	-98.2084
4307850000		0.9608	-101.3929
4407800000		0.95813	-104.6218
4507750000		0.95584	-107.8341
4607700000		0.95382	-111.0938
4707650000		0.95225	-114.4023
4807600000		0.95122	-117.7113
4907550000		0.95056	-121.0728
5007500000		0.95043	-124.45
5107450000		0.95067	-127.8341
5207400000		0.95072	-131.3413
5307350000		0.95134	-134.7758
5407300000		0.95134	-138.3096
5507250000		0.952	-141.8499
5607200000		0.9519	-145.3321
5707150000		0.95197	-148.883
5807100000		0.95167	-152.3113
5907050000		0.95107	-155.8061
6007000000		0.95027	-159.1911
6106950000		0.94929	-162.6087
6206900000		0.94843	-165.9254
6306850000		0.94743	-169.1967
6406800000		0.94624	-172.4224
6506750000		0.94528	-175.572
6606700000		0.94401	-178.6842
6706650000		0.94332	178.259
6806600000		0.94249	175.2346
!
!				Infineon Technologies AG
