! Infineon Technologies  Discrete & RF Semiconductors
! BAT68
! VCA = 7 V
! One-Port S-Parameters
# Hz  S  MA  R  50
!f									S11
!Hz							Mag  Ang
309850000		0.9994	-5.8838
409800000		0.999	-7.7927
509750000		0.99922	-9.7073
609700000		0.99891	-11.5879
709650000		0.99898	-13.5371
809600000		0.99864	-15.4706
909550000		0.99873	-17.4578
1009500000		0.9984	-19.3764
1109450000		0.9983	-21.4401
1209400000		0.99767	-23.4184
1309350000		0.99716	-25.4581
1409300000		0.99628	-27.4679
1509250000		0.99572	-29.5739
1609200000		0.99447	-31.6041
1709150000		0.99349	-33.7
1809100000		0.99228	-35.7837
1909050000		0.9913	-37.9411
2009000000		0.98983	-40.0688
2108950000		0.98876	-42.2383
2208900000		0.98802	-44.4372
2308850000		0.9871	-46.6303
2408800000		0.98658	-48.9664
2508750000		0.98628	-51.1446
2608700000		0.98627	-53.5766
2708650000		0.98626	-55.9246
2808600000		0.98597	-58.4322
2908550000		0.98615	-60.9437
3008500000		0.98597	-63.5591
3108450000		0.98598	-66.234
3208400000		0.98508	-68.9375
3308350000		0.98397	-71.6855
3408300000		0.98306	-74.6003
3508250000		0.98181	-77.5158
3608200000		0.97984	-80.4031
3708150000		0.97739	-83.4334
3808100000		0.97506	-86.4989
3908050000		0.97232	-89.5366
4008000000		0.96936	-92.6577
4107950000		0.96638	-95.7629
4207900000		0.96321	-98.9272
4307850000		0.96035	-102.1316
4407800000		0.95767	-105.3791
4507750000		0.95545	-108.6048
4607700000		0.9535	-111.883
4707650000		0.9519	-115.2043
4807600000		0.95091	-118.5281
4907550000		0.9503	-121.9051
5007500000		0.95018	-125.2926
5107450000		0.95039	-128.6866
5207400000		0.9505	-132.2089
5307350000		0.95121	-135.6522
5407300000		0.95121	-139.1938
5507250000		0.95183	-142.7373
5607200000		0.95173	-146.226
5707150000		0.95185	-149.7785
5807100000		0.95152	-153.2032
5907050000		0.95087	-156.7011
6007000000		0.95013	-160.0854
6106950000		0.94909	-163.4989
6206900000		0.94823	-166.8065
6306850000		0.94728	-170.0729
6406800000		0.94612	-173.2937
6506750000		0.94512	-176.4377
6606700000		0.94392	-179.5352
6706650000		0.94318	177.4164
6806600000		0.94233	174.4034
!
!				Infineon Technologies AG
