! Infineon Technologies  Discrete & RF Semiconductors
! BAT68
! IAC = 0.9 mA
! One-Port S-Parameters
# Hz  S  MA  R  50
!f									S11
!Hz							Mag  Ang
309850000		0.14885	-178.0543
409800000		0.15275	-177.6777
509750000		0.15544	-176.8152
609700000		0.15999	-176.4649
709650000		0.16214	-175.1387
809600000		0.16659	-174.4427
909550000		0.17251	-173.5895
1009500000		0.17993	-174.2336
1109450000		0.18644	-174.1144
1209400000		0.19286	-174.9959
1309350000		0.20038	-175.0416
1409300000		0.20819	-175.6817
1509250000		0.21848	-176.7747
1609200000		0.22658	-177.7221
1709150000		0.23403	-178.8122
1809100000		0.24449	179.9857
1909050000		0.25477	178.3189
2009000000		0.26449	176.9712
2108950000		0.27493	175.7984
2208900000		0.28453	174.6665
2308850000		0.29512	173.03
2408800000		0.30409	172.0871
2508750000		0.31449	170.3494
2608700000		0.32592	168.8074
2708650000		0.33645	166.9747
2808600000		0.34865	165.3419
2908550000		0.35908	163.5934
3008500000		0.36956	161.3189
3108450000		0.3807	159.7067
3208400000		0.39221	157.8448
3308350000		0.40367	156.3488
3408300000		0.4152	154.6325
3508250000		0.42632	152.9996
3608200000		0.43756	150.8904
3708150000		0.44925	149.2425
3808100000		0.46022	147.7439
3908050000		0.47082	146.1519
4008000000		0.48244	144.2801
4107950000		0.49344	142.6023
4207900000		0.50489	140.9995
4307850000		0.51595	139.4766
4407800000		0.52754	137.7294
4507750000		0.53858	136.1934
4607700000		0.54949	134.5217
4707650000		0.56063	133.0907
4807600000		0.57097	131.5508
4907550000		0.58157	130.0747
5007500000		0.59171	128.5081
5107450000		0.60137	126.7778
5207400000		0.61123	125.347
5307350000		0.62038	123.9502
5407300000		0.62943	122.4184
5507250000		0.63788	120.923
5607200000		0.64571	119.4079
5707150000		0.654	118.0528
5807100000		0.66104	116.7176
5907050000		0.66846	115.2906
6007000000		0.6754	114.0404
6106950000		0.68256	112.7317
6206900000		0.68892	111.4818
6306850000		0.69545	110.162
6406800000		0.70141	108.9065
6506750000		0.70757	107.6281
6606700000		0.71332	106.3914
6706650000		0.7189	105.1108
6806600000		0.72471	103.9217
!
!				Infineon Technologies AG
