! Infineon Technologies  Discrete & RF Semiconductors
! BAT68
! IAC = 0.01 mA
! One-Port S-Parameters
# Hz  S  MA  R  50
!f									S11
!Hz							Mag  Ang
309850000		0.97469	-10.6594
409800000		0.97412	-14.0976
509750000		0.97374	-17.5604
609700000		0.97303	-20.9952
709650000		0.97296	-24.4944
809600000		0.97126	-28.0856
909550000		0.97082	-31.6391
1009500000		0.9701	-35.0906
1109450000		0.96928	-38.6848
1209400000		0.96708	-42.3586
1309350000		0.96513	-46.0505
1409300000		0.96271	-49.7295
1509250000		0.96059	-53.502
1609200000		0.95826	-57.1623
1709150000		0.95725	-60.6306
1809100000		0.95467	-64.3972
1909050000		0.95184	-68.3563
2009000000		0.94902	-72.3025
2108950000		0.94755	-76.0029
2208900000		0.94557	-79.9253
2308850000		0.94368	-83.8775
2408800000		0.94191	-87.9495
2508750000		0.94052	-91.8777
2608700000		0.93945	-95.9168
2708650000		0.9373	-100.1336
2808600000		0.9371	-104.018
2908550000		0.93462	-108.3228
3008500000		0.93181	-112.6745
3108450000		0.9297	-116.8964
3208400000		0.92808	-120.8921
3308350000		0.92564	-125.0243
3408300000		0.92289	-129.3618
3508250000		0.92034	-133.5042
3608200000		0.91746	-137.6047
3708150000		0.91468	-141.7798
3808100000		0.91233	-145.8709
3908050000		0.90975	-149.8472
4008000000		0.90758	-153.9594
4107950000		0.90632	-157.7576
4207900000		0.90567	-161.3997
4307850000		0.90572	-164.9596
4407800000		0.90535	-168.8093
4507750000		0.90601	-172.4273
4607700000		0.90685	-175.9887
4707650000		0.90907	-179.2058
4807600000		0.91047	177.3762
4907550000		0.91264	174.1016
5007500000		0.91434	170.761
5107450000		0.91615	167.4691
5207400000		0.91768	164.3201
5307350000		0.91944	161.3567
5407300000		0.92028	158.3045
5507250000		0.9213	155.3373
5607200000		0.92147	152.466
5707150000		0.92235	149.7626
5807100000		0.92201	147.1691
5907050000		0.92201	144.4938
6007000000		0.92185	142.0944
6106950000		0.92189	139.6765
6206900000		0.92155	137.397
6306850000		0.92156	135.0721
6406800000		0.92115	132.8656
6506750000		0.92133	130.7157
6606700000		0.92118	128.6388
6706650000		0.92136	126.5529
6806600000		0.92169	124.5865
!
!				Infineon Technologies AG
