! Infineon Technologies  Discrete & RF Semiconductors
! BAT68
! VCA = 4 V
! One-Port S-Parameters
# Hz  S  MA  R  50
!f									S11
!Hz							Mag  Ang
309850000		0.99942	-6.0916
409800000		0.99904	-8.0539
509750000		0.99921	-10.0301
609700000		0.99886	-11.9743
709650000		0.99898	-13.9911
809600000		0.99862	-15.9886
909550000		0.99867	-18.0355
1009500000		0.99827	-20.021
1109450000		0.99815	-22.1505
1209400000		0.99741	-24.1685
1309350000		0.997	-26.3063
1409300000		0.99609	-28.3834
1509250000		0.99549	-30.5577
1609200000		0.99417	-32.6596
1709150000		0.9932	-34.8304
1809100000		0.99202	-36.984
1909050000		0.99094	-39.2152
2009000000		0.98945	-41.4174
2108950000		0.98836	-43.6683
2208900000		0.98756	-45.9439
2308850000		0.98668	-48.2174
2408800000		0.98606	-50.6305
2508750000		0.9859	-52.9337
2608700000		0.98565	-55.414
2708650000		0.98567	-57.8521
2808600000		0.98534	-60.4464
2908550000		0.98542	-63.0468
3008500000		0.98523	-65.7582
3108450000		0.98505	-68.5276
3208400000		0.98394	-71.2928
3308350000		0.98308	-74.1982
3408300000		0.98183	-77.1728
3508250000		0.98051	-80.1789
3608200000		0.97839	-83.1585
3708150000		0.9759	-86.2812
3808100000		0.97346	-89.43
3908050000		0.97059	-92.5548
4008000000		0.96758	-95.7649
4107950000		0.96456	-98.9494
4207900000		0.9614	-102.1979
4307850000		0.95857	-105.4779
4407800000		0.95593	-108.7999
4507750000		0.95374	-112.0978
4607700000		0.95189	-115.4444
4707650000		0.95039	-118.8306
4807600000		0.9495	-122.217
4907550000		0.94903	-125.6508
5007500000		0.94903	-129.0892
5107450000		0.94936	-132.5326
5207400000		0.94948	-136.0957
5307350000		0.95026	-139.5752
5407300000		0.95032	-143.1477
5507250000		0.95101	-146.7074
5607200000		0.95088	-150.2137
5707150000		0.95104	-153.7697
5807100000		0.95062	-157.196
5907050000		0.94998	-160.686
6007000000		0.94924	-164.0529
6106950000		0.94829	-167.4466
6206900000		0.94743	-170.7261
6306850000		0.94647	-173.9629
6406800000		0.94529	-177.1478
6506750000		0.94438	179.7473
6606700000		0.94323	176.692
6706650000		0.94257	173.6881
6806600000		0.94178	170.7221
!
!				Infineon Technologies AG
