! Infineon Technologies  Discrete & RF Semiconductors
! BAT68
! IAC = 0.5 mA
! One-Port S-Parameters
# Hz  S  MA  R  50
!f									S11
!Hz							Mag  Ang
309850000		0.1734	-18.9466
409800000		0.17267	-24.8167
509750000		0.17562	-31.2389
609700000		0.17673	-37.6757
709650000		0.18448	-43.9258
809600000		0.18625	-50.5865
909550000		0.19414	-57.1498
1009500000		0.19755	-62.8399
1109450000		0.20542	-68.4351
1209400000		0.20667	-73.8341
1309350000		0.21399	-80.0169
1409300000		0.22025	-85.6945
1509250000		0.22502	-91.9857
1609200000		0.23312	-97.127
1709150000		0.2441	-100.7807
1809100000		0.25189	-106.5623
1909050000		0.25686	-112.1073
2009000000		0.26417	-117.3516
2108950000		0.27724	-121.6609
2208900000		0.28785	-126.1224
2308850000		0.29761	-130.7003
2408800000		0.31035	-134.3667
2508750000		0.3206	-138.5938
2608700000		0.33291	-142.752
2708650000		0.34283	-147.0004
2808600000		0.35726	-150.7279
2908550000		0.3679	-154.7231
3008500000		0.37588	-158.9413
3108450000		0.3888	-162.5315
3208400000		0.40128	-166.0178
3308350000		0.41527	-169.2806
3408300000		0.4276	-172.7294
3508250000		0.44032	-175.9443
3608200000		0.45095	-179.4671
3708150000		0.46371	177.3706
3808100000		0.47654	174.5129
3908050000		0.48853	171.656
4008000000		0.5002	168.4716
4107950000		0.51222	165.6906
4207900000		0.52569	163.1034
4307850000		0.53881	160.6493
4407800000		0.55047	157.8312
4507750000		0.56283	155.3501
4607700000		0.5747	152.8162
4707650000		0.58823	150.6594
4807600000		0.5999	148.3345
4907550000		0.61218	146.1266
5007500000		0.6232	143.8176
5107450000		0.63312	141.4075
5207400000		0.64451	139.3137
5307350000		0.65513	137.3212
5407300000		0.66504	135.1973
5507250000		0.6737	133.1166
5607200000		0.68191	131.0769
5707150000		0.69085	129.2122
5807100000		0.6986	127.413
5907050000		0.70604	125.5062
6007000000		0.71357	123.8393
6106950000		0.72105	122.1215
6206900000		0.72764	120.4881
6306850000		0.73411	118.7947
6406800000		0.73998	117.1834
6506750000		0.74606	115.5814
6606700000		0.75168	114.0331
6706650000		0.75709	112.4512
6806600000		0.76289	110.9808
!
!				Infineon Technologies AG
