! Infineon Technologies  Discrete & RF Semiconductors
! BAT68
! VCA = 1 V
! One-Port S-Parameters
# Hz  S  MA  R  50
!f									S11
!Hz							Mag  Ang
309850000		0.99946	-6.8831
409800000		0.99908	-9.097
509750000		0.99914	-11.3246
609700000		0.99871	-13.5293
709650000		0.99876	-15.8062
809600000		0.99818	-18.0311
909550000		0.99836	-20.376
1009500000		0.99785	-22.6281
1109450000		0.99759	-25.0279
1209400000		0.99695	-27.3453
1309350000		0.99624	-29.7303
1409300000		0.99518	-32.0833
1509250000		0.99437	-34.5387
1609200000		0.99292	-36.9241
1709150000		0.99175	-39.3878
1809100000		0.99039	-41.8302
1909050000		0.9892	-44.3581
2009000000		0.98766	-46.8565
2108950000		0.98618	-49.3916
2208900000		0.98544	-52.0067
2308850000		0.98444	-54.6053
2408800000		0.98375	-57.3393
2508750000		0.98341	-59.9775
2608700000		0.98298	-62.7925
2708650000		0.98264	-65.5736
2808600000		0.9824	-68.5495
2908550000		0.98196	-71.4673
3008500000		0.98112	-74.5033
3108450000		0.98084	-77.6612
3208400000		0.97925	-80.7768
3308350000		0.97797	-84.0321
3408300000		0.97607	-87.323
3508250000		0.97434	-90.6955
3608200000		0.97183	-94.0152
3708150000		0.96894	-97.4574
3808100000		0.96618	-100.916
3908050000		0.96306	-104.3313
4008000000		0.95989	-107.8396
4107950000		0.95667	-111.2637
4207900000		0.9538	-114.8195
4307850000		0.95114	-118.3456
4407800000		0.94877	-121.9061
4507750000		0.94699	-125.4169
4607700000		0.94549	-128.973
4707650000		0.94453	-132.5405
4807600000		0.94407	-136.0943
4907550000		0.94406	-139.6769
5007500000		0.94446	-143.2444
5107450000		0.94506	-146.8009
5207400000		0.94547	-150.4497
5307350000		0.94646	-153.9795
5407300000		0.94659	-157.5993
5507250000		0.94742	-161.1446
5607200000		0.94727	-164.6374
5707150000		0.94749	-168.1283
5807100000		0.94693	-171.4827
5907050000		0.94638	-174.8784
6007000000		0.9456	-178.1237
6106950000		0.94477	178.6158
6206900000		0.94386	175.5032
6306850000		0.94303	172.4222
6406800000		0.94192	169.4212
6506750000		0.94126	166.4945
6606700000		0.94031	163.6373
6706650000		0.93973	160.8235
6806600000		0.93916	158.069
!
!				Infineon Technologies AG
