! Infineon Technologies  Discrete & RF Semiconductors
! BAT68
! IAC = 0.05 mA
! One-Port S-Parameters
# Hz  S  MA  R  50
!f									S11
!Hz							Mag  Ang
309850000		0.88203	-11.2893
409800000		0.88159	-14.9198
509750000		0.88112	-18.5916
609700000		0.88067	-22.2482
709650000		0.882	-25.9887
809600000		0.87756	-29.8282
909550000		0.87801	-33.6329
1009500000		0.879	-37.2896
1109450000		0.87957	-41.0974
1209400000		0.8752	-44.9735
1309350000		0.87297	-48.9075
1409300000		0.86988	-52.8173
1509250000		0.86725	-56.8257
1609200000		0.86548	-60.6978
1709150000		0.86931	-64.2973
1809100000		0.86643	-68.3142
1909050000		0.86199	-72.5024
2009000000		0.8578	-76.6748
2108950000		0.85923	-80.5397
2208900000		0.85752	-84.6872
2308850000		0.8558	-88.8004
2408800000		0.85476	-93.0224
2508750000		0.85415	-97.1784
2608700000		0.85424	-101.3895
2708650000		0.85167	-105.7763
2808600000		0.85488	-109.7513
2908550000		0.85224	-114.2328
3008500000		0.84915	-118.6971
3108450000		0.84856	-123.0451
3208400000		0.84965	-127.0984
3308350000		0.8495	-131.3155
3408300000		0.84779	-135.6581
3508250000		0.84716	-139.8273
3608200000		0.84592	-143.9883
3708150000		0.84478	-148.1677
3808100000		0.84437	-152.2289
3908050000		0.84357	-156.1683
4008000000		0.84269	-160.2637
4107950000		0.84349	-164.0211
4207900000		0.84586	-167.618
4307850000		0.84868	-171.1053
4407800000		0.84948	-174.8855
4507750000		0.85181	-178.4095
4607700000		0.85449	178.1191
4707650000		0.85954	174.9983
4807600000		0.86265	171.6958
4907550000		0.86668	168.5352
5007500000		0.86974	165.3167
5107450000		0.87262	162.1309
5207400000		0.87596	159.1155
5307350000		0.87934	156.2799
5407300000		0.88177	153.3583
5507250000		0.88382	150.5225
5607200000		0.88524	147.773
5707150000		0.88753	145.1985
5807100000		0.88867	142.7334
5907050000		0.88973	140.1837
6007000000		0.89099	137.9054
6106950000		0.89239	135.6054
6206900000		0.89331	133.4369
6306850000		0.89428	131.2251
6406800000		0.89486	129.1292
6506750000		0.89603	127.0744
6606700000		0.89688	125.0955
6706650000		0.89779	123.1059
6806600000		0.89898	121.2339
!
!				Infineon Technologies AG
