! Infineon Technologies  Discrete & RF Semiconductors
! BAT68
! IAC = 0.4 mA
! One-Port S-Parameters
# Hz  S  MA  R  50
!f									S11
!Hz							Mag  Ang
309850000		0.28864	-15.2068
409800000		0.28754	-19.9465
509750000		0.28939	-25.0668
609700000		0.28924	-30.2188
709650000		0.29556	-35.4649
809600000		0.29363	-40.9316
909550000		0.29954	-46.5417
1009500000		0.30179	-51.3623
1109450000		0.30795	-56.3824
1209400000		0.30597	-61.098
1309350000		0.30953	-66.7037
1409300000		0.31244	-71.938
1509250000		0.31318	-77.5644
1609200000		0.31849	-82.5571
1709150000		0.33002	-86.3775
1809100000		0.33366	-91.9252
1909050000		0.3343	-97.2044
2009000000		0.33728	-102.4391
2108950000		0.34878	-107.0758
2208900000		0.35619	-111.8003
2308850000		0.36302	-116.5867
2408800000		0.37384	-120.8307
2508750000		0.38156	-125.315
2608700000		0.39153	-129.8477
2708650000		0.3986	-134.4513
2808600000		0.41199	-138.565
2908550000		0.41988	-142.9531
3008500000		0.42515	-147.4095
3108450000		0.43621	-151.4878
3208400000		0.44775	-155.3932
3308350000		0.46037	-159.1443
3408300000		0.47079	-162.9987
3508250000		0.4821	-166.6465
3608200000		0.49105	-170.4967
3708150000		0.50225	-174.0809
3808100000		0.5141	-177.4282
3908050000		0.52485	179.3604
4008000000		0.53492	175.8221
4107950000		0.54588	172.7117
4207900000		0.55888	169.8055
4307850000		0.57153	167.046
4407800000		0.58195	163.9147
4507750000		0.59344	161.1335
4607700000		0.60462	158.33
4707650000		0.61805	155.9218
4807600000		0.6291	153.3422
4907550000		0.64101	150.8915
5007500000		0.65138	148.3439
5107450000		0.6606	145.7349
5207400000		0.67151	143.4199
5307350000		0.68179	141.2287
5407300000		0.69119	138.9149
5507250000		0.69919	136.656
5607200000		0.70684	134.4507
5707150000		0.71531	132.4247
5807100000		0.72263	130.4773
5907050000		0.72948	128.4259
6007000000		0.73657	126.6244
6106950000		0.74361	124.7765
6206900000		0.74974	123.0245
6306850000		0.75563	121.2173
6406800000		0.76098	119.5007
6506750000		0.76659	117.8002
6606700000		0.77174	116.1562
6706650000		0.77669	114.4866
6806600000		0.78207	112.9283
!
!				Infineon Technologies AG
