! Infineon Technologies  Discrete & RF Semiconductors
! BAT68
! IAC = 0.08 mA
! One-Port S-Parameters
# Hz  S  MA  R  50
!f									S11
!Hz							Mag  Ang
309850000		0.81676	-11.5215
409800000		0.81634	-15.2315
509750000		0.81596	-18.9926
609700000		0.81563	-22.745
709650000		0.8178	-26.5945
809600000		0.81211	-30.5335
909550000		0.81321	-34.4664
1009500000		0.81497	-38.2041
1109450000		0.81654	-42.0995
1209400000		0.81126	-46.0323
1309350000		0.809	-50.0827
1409300000		0.80578	-54.0903
1509250000		0.80285	-58.2018
1609200000		0.80159	-62.168
1709150000		0.80813	-65.8153
1809100000		0.80526	-69.9493
1909050000		0.80027	-74.2174
2009000000		0.79549	-78.4761
2108950000		0.79891	-82.4678
2208900000		0.79735	-86.6592
2308850000		0.79628	-90.8829
2408800000		0.79611	-95.1579
2508750000		0.79576	-99.309
2608700000		0.79689	-103.6275
2708650000		0.79451	-108.0717
2808600000		0.79991	-112.1369
2908550000		0.79734	-116.6294
3008500000		0.7946	-121.1191
3108450000		0.79491	-125.4607
3208400000		0.79792	-129.5804
3308350000		0.7991	-133.7824
3408300000		0.79875	-138.1597
3508250000		0.79946	-142.3302
3608200000		0.79928	-146.5062
3708150000		0.79948	-150.6748
3808100000		0.80048	-154.7122
3908050000		0.80107	-158.6266
4008000000		0.8012	-162.7076
4107950000		0.80331	-166.4406
4207900000		0.80745	-170.0082
4307850000		0.81192	-173.4602
4407800000		0.81366	-177.2063
4507750000		0.81711	179.316
4607700000		0.82097	175.8881
4707650000		0.82759	172.8115
4807600000		0.83176	169.5633
4907550000		0.83711	166.4546
5007500000		0.84102	163.2887
5107450000		0.8447	160.1487
5207400000		0.84916	157.1939
5307350000		0.85367	154.4148
5407300000		0.85712	151.5483
5507250000		0.85983	148.7695
5607200000		0.86218	146.0709
5707150000		0.86538	143.5492
5807100000		0.86743	141.1337
5907050000		0.86923	138.6385
6007000000		0.87143	136.4068
6106950000		0.87362	134.1535
6206900000		0.87528	132.028
6306850000		0.8769	129.8568
6406800000		0.87811	127.8042
6506750000		0.87992	125.7902
6606700000		0.88124	123.8489
6706650000		0.88279	121.8917
6806600000		0.88461	120.0535
!
!				Infineon Technologies AG
