! Infineon Technologies  Discrete & RF Semiconductors
! BAT68
! VCA = 0.6 V
! One-Port S-Parameters
# Hz  S  MA  R  50
!f									S11
!Hz							Mag  Ang
309850000		0.99965	-7.3863
409800000		0.99906	-9.7208
509750000		0.99914	-12.0992
609700000		0.99836	-14.4292
709650000		0.99865	-16.8934
809600000		0.99827	-19.3075
909550000		0.99821	-21.7765
1009500000		0.99758	-24.1881
1109450000		0.99721	-26.7472
1209400000		0.99649	-29.2284
1309350000		0.99575	-31.7758
1409300000		0.99451	-34.2935
1509250000		0.99363	-36.9129
1609200000		0.99207	-39.4679
1709150000		0.99077	-42.106
1809100000		0.98934	-44.7171
1909050000		0.98798	-47.4224
2009000000		0.98634	-50.0954
2108950000		0.98498	-52.8441
2208900000		0.98394	-55.6046
2308850000		0.98281	-58.3885
2408800000		0.98197	-61.3101
2508750000		0.9815	-64.1382
2608700000		0.981	-67.1466
2708650000		0.98049	-70.1235
2808600000		0.98	-73.2916
2908550000		0.97939	-76.4062
3008500000		0.97824	-79.6398
3108450000		0.9777	-82.9858
3208400000		0.97611	-86.3243
3308350000		0.97434	-89.7327
3408300000		0.9723	-93.2404
3508250000		0.9702	-96.7448
3608200000		0.96746	-100.2374
3708150000		0.96439	-103.8353
3808100000		0.96158	-107.4394
3908050000		0.95824	-110.9926
4008000000		0.95505	-114.6365
4107950000		0.95211	-118.2133
4207900000		0.94913	-121.8508
4307850000		0.9466	-125.4803
4407800000		0.94437	-129.1318
4507750000		0.94291	-132.7206
4607700000		0.94161	-136.3506
4707650000		0.94099	-139.9726
4807600000		0.94074	-143.5721
4907550000		0.94103	-147.1908
5007500000		0.9416	-150.7817
5107450000		0.94247	-154.3523
5207400000		0.94295	-157.9981
5307350000		0.94402	-161.5074
5407300000		0.94419	-165.1053
5507250000		0.94508	-168.5954
5607200000		0.9449	-172.0404
5707150000		0.94508	-175.4544
5807100000		0.94453	-178.7306
5907050000		0.94405	177.9597
6007000000		0.94329	174.8163
6106950000		0.94246	171.6564
6206900000		0.94161	168.6547
6306850000		0.94091	165.6846
6406800000		0.9398	162.801
6506750000		0.93928	159.9907
6606700000		0.9384	157.2532
6706650000		0.93795	154.5532
6806600000		0.93746	151.9219
!
!				Infineon Technologies AG
