! Infineon Technologies  Discrete & RF Semiconductors
! BAT68
! VCA = 3 V
! One-Port S-Parameters
# Hz  S  MA  R  50
!f									S11
!Hz							Mag  Ang
309850000		0.99947	-6.2119
409800000		0.99909	-8.2079
509750000		0.99919	-10.2199
609700000		0.99886	-12.1999
709650000		0.99891	-14.2573
809600000		0.99861	-16.2919
909550000		0.99865	-18.3798
1009500000		0.99821	-20.4036
1109450000		0.99799	-22.5724
1209400000		0.99749	-24.661
1309350000		0.99689	-26.8083
1409300000		0.99595	-28.9253
1509250000		0.99533	-31.1402
1609200000		0.99399	-33.286
1709150000		0.99299	-35.4996
1809100000		0.99182	-37.6963
1909050000		0.99067	-39.9706
2009000000		0.9892	-42.217
2108950000		0.98811	-44.5121
2208900000		0.98725	-46.8351
2308850000		0.98639	-49.1566
2408800000		0.9856	-51.5819
2508750000		0.98563	-53.9719
2608700000		0.98534	-56.5026
2708650000		0.98529	-58.989
2808600000		0.98517	-61.6728
2908550000		0.98496	-64.293
3008500000		0.98463	-67.0563
3108450000		0.98446	-69.8786
3208400000		0.9835	-72.7305
3308350000		0.98238	-75.6582
3408300000		0.98105	-78.6886
3508250000		0.97961	-81.7472
3608200000		0.97749	-84.7804
3708150000		0.97493	-87.9547
3808100000		0.97236	-91.1541
3908050000		0.96952	-94.3268
4008000000		0.96645	-97.5835
4107950000		0.96341	-100.8158
4207900000		0.96026	-104.1083
4307850000		0.95748	-107.4343
4407800000		0.95485	-110.7959
4507750000		0.95274	-114.1325
4607700000		0.95089	-117.5172
4707650000		0.94952	-120.9368
4807600000		0.94873	-124.3567
4907550000		0.94824	-127.8179
5007500000		0.94834	-131.2866
5107450000		0.94875	-134.7564
5207400000		0.94885	-138.3379
5307350000		0.94966	-141.8317
5407300000		0.94973	-145.4229
5507250000		0.95049	-148.9884
5607200000		0.95033	-152.497
5707150000		0.95047	-156.0503
5807100000		0.9501	-159.4734
5907050000		0.94954	-162.9555
6007000000		0.94872	-166.3109
6106950000		0.94781	-169.6886
6206900000		0.9469	-172.9492
6306850000		0.946	-176.167
6406800000		0.94479	-179.3268
6506750000		0.94394	177.5923
6606700000		0.94281	174.5651
6706650000		0.94215	171.5861
6806600000		0.9414	168.6501
!
!				Infineon Technologies AG
