! Infineon Technologies  Discrete & RF Semiconductors
! BAT68
! IAC = 10 mA
! One-Port S-Parameters
# Hz  S  MA  R  50
!f									S11
!Hz							Mag  Ang
309850000		0.79792	174.1211
409800000		0.79713	172.301
509750000		0.79638	170.5044
609700000		0.79609	168.6711
709650000		0.79552	166.9323
809600000		0.79539	165.1626
909550000		0.79494	163.4303
1009500000		0.79504	161.6313
1109450000		0.79526	159.9865
1209400000		0.79546	158.2333
1309350000		0.79576	156.5346
1409300000		0.79643	154.8071
1509250000		0.79728	153.1524
1609200000		0.79802	151.4104
1709150000		0.79904	149.7342
1809100000		0.80008	148.0528
1909050000		0.80142	146.383
2009000000		0.80259	144.67
2108950000		0.80382	143.0381
2208900000		0.80475	141.4241
2308850000		0.80598	139.7415
2408800000		0.80699	138.1571
2508750000		0.80786	136.4986
2608700000		0.8089	134.9595
2708650000		0.80982	133.3286
2808600000		0.81078	131.8427
2908550000		0.81114	130.3115
3008500000		0.81237	128.8173
3108450000		0.81303	127.3915
3208400000		0.81431	125.9522
3308350000		0.81561	124.5574
3408300000		0.81692	123.2196
3508250000		0.81815	121.8778
3608200000		0.81996	120.5154
3708150000		0.82206	119.2434
3808100000		0.82414	117.9585
3908050000		0.82594	116.676
4008000000		0.82812	115.3951
4107950000		0.83026	114.1573
4207900000		0.83289	112.9016
4307850000		0.83542	111.6892
4407800000		0.83808	110.4828
4507750000		0.84073	109.2923
4607700000		0.84316	108.0593
4707650000		0.84586	106.895
4807600000		0.84786	105.6881
4907550000		0.84991	104.5183
5007500000		0.85138	103.3405
5107450000		0.85287	102.1434
5207400000		0.85403	101.0231
5307350000		0.85472	99.909
5407300000		0.85554	98.7779
5507250000		0.85596	97.7675
5607200000		0.85624	96.6732
5707150000		0.85674	95.7122
5807100000		0.85653	94.6901
5907050000		0.857	93.7039
6007000000		0.85718	92.7537
6106950000		0.85771	91.7942
6206900000		0.85787	90.8855
6306850000		0.85855	89.9162
6406800000		0.85877	89.0072
6506750000		0.85948	88.057
6606700000		0.85995	87.1416
6706650000		0.86046	86.175
6806600000		0.86128	85.2724
!
!				Infineon Technologies AG
