! Infineon Technologies  Discrete & RF Semiconductors
! BAT68
! VCA = 5 V
! One-Port S-Parameters
# Hz  S  MA  R  50
!f									S11
!Hz							Mag  Ang
309850000		0.99964	-6.0393
409800000		0.99903	-7.9457
509750000		0.9992	-9.8959
609700000		0.9989	-11.8124
709650000		0.99898	-13.8011
809600000		0.99863	-15.7718
909550000		0.99872	-17.7939
1009500000		0.99833	-19.7505
1109450000		0.99815	-21.8522
1209400000		0.99762	-23.8704
1309350000		0.9971	-25.9513
1409300000		0.99613	-28.0002
1509250000		0.99558	-30.1455
1609200000		0.99429	-32.2185
1709150000		0.99331	-34.3573
1809100000		0.99217	-36.4823
1909050000		0.99104	-38.6812
2009000000		0.9896	-40.8507
2108950000		0.98852	-43.0682
2208900000		0.9877	-45.3132
2308850000		0.98687	-47.5526
2408800000		0.98628	-49.9359
2508750000		0.98613	-52.1984
2608700000		0.9859	-54.6443
2708650000		0.98595	-57.046
2808600000		0.98581	-59.636
2908550000		0.9857	-62.1647
3008500000		0.98553	-64.8363
3108450000		0.98549	-67.5686
3208400000		0.98455	-70.3246
3308350000		0.98351	-73.1611
3408300000		0.98215	-76.0634
3508250000		0.98107	-79.0654
3608200000		0.97897	-82.0063
3708150000		0.97654	-85.0923
3808100000		0.97409	-88.2051
3908050000		0.97128	-91.2935
4008000000		0.96826	-94.4686
4107950000		0.96522	-97.6206
4207900000		0.96213	-100.8357
4307850000		0.95928	-104.0842
4407800000		0.95661	-107.3762
4507750000		0.95447	-110.6446
4607700000		0.95253	-113.9621
4707650000		0.95101	-117.3219
4807600000		0.95011	-120.6829
4907550000		0.94955	-124.0928
5007500000		0.94949	-127.5133
5107450000		0.94976	-130.9384
5207400000		0.94983	-134.4851
5307350000		0.95062	-137.9502
5407300000		0.95065	-141.511
5507250000		0.95132	-145.0645
5607200000		0.9512	-148.5645
5707150000		0.95134	-152.1193
5807100000		0.95098	-155.5467
5907050000		0.95037	-159.0414
6007000000		0.9496	-162.4171
6106950000		0.94864	-165.82
6206900000		0.94772	-169.1107
6306850000		0.94677	-172.362
6406800000		0.94556	-175.5641
6506750000		0.94468	-178.6842
6606700000		0.9435	178.241
6706650000		0.9428	175.2201
6806600000		0.94195	172.2339
!
!				Infineon Technologies AG
