! Infineon Technologies  Discrete & RF Semiconductors
! BAT68
! IAC = 0.07 mA
! One-Port S-Parameters
# Hz  S  MA  R  50
!f									S11
!Hz							Mag  Ang
309850000		0.83811	-11.4489
409800000		0.8377	-15.1342
509750000		0.83738	-18.8689
609700000		0.83694	-22.5905
709650000		0.8389	-26.4061
809600000		0.83353	-30.3112
909550000		0.83445	-34.205
1009500000		0.83597	-37.9178
1109450000		0.83721	-41.7874
1209400000		0.8322	-45.7016
1309350000		0.82995	-49.7149
1409300000		0.82672	-53.692
1509250000		0.82386	-57.7745
1609200000		0.82243	-61.708
1709150000		0.82821	-65.3429
1809100000		0.82528	-69.4383
1909050000		0.82038	-73.6839
2009000000		0.8156	-77.8792
2108950000		0.81872	-81.879
2208900000		0.81696	-86.0456
2308850000		0.81555	-90.2113
2408800000		0.81525	-94.5034
2508750000		0.81484	-98.6726
2608700000		0.81553	-102.9295
2708650000		0.81291	-107.3211
2808600000		0.81766	-111.3752
2908550000		0.81512	-115.888
3008500000		0.8122	-120.3687
3108450000		0.81242	-124.7397
3208400000		0.81471	-128.8146
3308350000		0.81555	-133.0427
3408300000		0.81447	-137.3553
3508250000		0.81491	-141.5591
3608200000		0.81437	-145.7297
3708150000		0.81414	-149.903
3808100000		0.81462	-153.9504
3908050000		0.81481	-157.874
4008000000		0.8146	-161.9567
4107950000		0.81627	-165.6992
4207900000		0.81985	-169.278
4307850000		0.82377	-172.7391
4407800000		0.8252	-176.4968
4507750000		0.82826	-179.9896
4607700000		0.83174	176.5676
4707650000		0.83792	173.4773
4807600000		0.84173	170.2112
4907550000		0.84663	167.0873
5007500000		0.85027	163.9057
5107450000		0.8537	160.7492
5207400000		0.85773	157.7747
5307350000		0.86191	154.9778
5407300000		0.86508	152.0928
5507250000		0.86757	149.2971
5607200000		0.86958	146.5841
5707150000		0.87249	144.0464
5807100000		0.87429	141.6148
5907050000		0.87583	139.1016
6007000000		0.87774	136.8581
6106950000		0.87966	134.5899
6206900000		0.88112	132.4482
6306850000		0.88248	130.2671
6406800000		0.88353	128.2019
6506750000		0.88509	126.1744
6606700000		0.88629	124.2181
6706650000		0.88761	122.2554
6806600000		0.88923	120.4082
!
!				Infineon Technologies AG
