! Infineon Technologies  Discrete & RF Semiconductors
! BAT68
! VCA = 0.3 V
! One-Port S-Parameters
# Hz  S  MA  R  50
!f									S11
!Hz							Mag  Ang
309850000		0.99961	-8.0272
409800000		0.99895	-10.5672
509750000		0.99896	-13.156
609700000		0.99837	-15.7233
709650000		0.99831	-18.3691
809600000		0.99795	-20.9957
909550000		0.99772	-23.6774
1009500000		0.99703	-26.3039
1109450000		0.9965	-29.0828
1209400000		0.99566	-31.7799
1309350000		0.99473	-34.5484
1409300000		0.99335	-37.2854
1509250000		0.99228	-40.1317
1609200000		0.99064	-42.9068
1709150000		0.98907	-45.778
1809100000		0.98744	-48.6141
1909050000		0.98596	-51.5523
2009000000		0.98422	-54.455
2108950000		0.98261	-57.445
2208900000		0.98145	-60.4383
2308850000		0.98002	-63.4376
2408800000		0.97921	-66.6283
2508750000		0.9785	-69.7109
2608700000		0.97783	-72.9581
2708650000		0.97714	-76.189
2808600000		0.97641	-79.598
2908550000		0.97545	-82.9557
3008500000		0.9741	-86.4669
3108450000		0.97304	-90.0149
3208400000		0.9711	-93.5785
3308350000		0.96909	-97.2053
3408300000		0.96668	-100.9205
3508250000		0.96428	-104.623
3608200000		0.96122	-108.3058
3708150000		0.95802	-112.0729
3808100000		0.95513	-115.8321
3908050000		0.95177	-119.5277
4008000000		0.94856	-123.3044
4107950000		0.94578	-126.9956
4207900000		0.94295	-130.7404
4307850000		0.9407	-134.4545
4407800000		0.93886	-138.1763
4507750000		0.93778	-141.8204
4607700000		0.93678	-145.4993
4707650000		0.93659	-149.1463
4807600000		0.93668	-152.7591
4907550000		0.93729	-156.377
5007500000		0.93808	-159.9505
5107450000		0.93912	-163.4976
5207400000		0.9398	-167.0942
5307350000		0.94092	-170.5376
5407300000		0.94114	-174.0642
5507250000		0.94205	-177.4524
5607200000		0.94188	179.2004
5707150000		0.94217	175.9134
5807100000		0.94146	172.7611
5907050000		0.94105	169.5876
6007000000		0.94033	166.5832
6106950000		0.93957	163.5756
6206900000		0.93877	160.7279
6306850000		0.93816	157.9053
6406800000		0.9372	155.1788
6506750000		0.93675	152.5195
6606700000		0.93597	149.937
6706650000		0.93566	147.3864
6806600000		0.93525	144.9083
!
!				Infineon Technologies AG
