! Infineon Technologies  Discrete & RF Semiconductors
! BAT68
! IAC = 3 mA
! One-Port S-Parameters
# Hz  S  MA  R  50
!f									S11
!Hz							Mag  Ang
309850000		0.61059	174.349
409800000		0.61071	172.6286
509750000		0.61036	170.9411
609700000		0.61054	169.2352
709650000		0.6105	167.5823
809600000		0.61057	165.9592
909550000		0.6111	164.3439
1009500000		0.61232	162.6339
1109450000		0.61349	161.0916
1209400000		0.61444	159.4277
1309350000		0.6155	157.8234
1409300000		0.61696	156.1928
1509250000		0.61895	154.6278
1609200000		0.62061	152.9744
1709150000		0.62309	151.3694
1809100000		0.62514	149.7846
1909050000		0.62787	148.1751
2009000000		0.62979	146.6003
2108950000		0.63252	145.0887
2208900000		0.63463	143.5448
2308850000		0.63742	141.9497
2408800000		0.63953	140.4678
2508750000		0.64219	138.889
2608700000		0.64486	137.4416
2708650000		0.64757	135.884
2808600000		0.65072	134.4757
2908550000		0.65287	133.0134
3008500000		0.65629	131.5358
3108450000		0.65884	130.1829
3208400000		0.66234	128.7912
3308350000		0.66538	127.4697
3408300000		0.66867	126.1834
3508250000		0.67168	124.9024
3608200000		0.6757	123.5613
3708150000		0.67949	122.3392
3808100000		0.68316	121.1155
3908050000		0.68649	119.888
4008000000		0.69062	118.6493
4107950000		0.69454	117.455
4207900000		0.69893	116.2412
4307850000		0.70313	115.0769
4407800000		0.70766	113.911
4507750000		0.71193	112.7746
4607700000		0.71622	111.581
4707650000		0.72062	110.4698
4807600000		0.72437	109.3129
4907550000		0.72824	108.1911
5007500000		0.73173	107.0616
5107450000		0.73539	105.8856
5207400000		0.73857	104.8058
5307350000		0.74115	103.7399
5407300000		0.74413	102.6304
5507250000		0.74683	101.6405
5607200000		0.74911	100.5567
5707150000		0.7517	99.6173
5807100000		0.75342	98.6184
5907050000		0.75588	97.6376
6007000000		0.75778	96.7064
6106950000		0.76019	95.7578
6206900000		0.76213	94.8583
6306850000		0.76445	93.9012
6406800000		0.76635	93.001
6506750000		0.76863	92.0566
6606700000		0.77069	91.145
6706650000		0.77272	90.1867
6806600000		0.77495	89.2966
!
!				Infineon Technologies AG
