! Infineon Technologies  Discrete & RF Semiconductors
! BAT68
! IAC = 0.04 mA
! One-Port S-Parameters
# Hz  S  MA  R  50
!f									S11
!Hz							Mag  Ang
309850000		0.90463	-11.1953
409800000		0.90415	-14.7876
509750000		0.90366	-18.4259
609700000		0.90313	-22.0451
709650000		0.9041	-25.7426
809600000		0.90022	-29.5427
909550000		0.90043	-33.3006
1009500000		0.90105	-36.9231
1109450000		0.90134	-40.695
1209400000		0.89744	-44.544
1309350000		0.89522	-48.4353
1409300000		0.89216	-52.3073
1509250000		0.88965	-56.275
1609200000		0.88768	-60.1098
1709150000		0.89049	-63.6902
1809100000		0.88765	-67.6605
1909050000		0.88349	-71.8131
2009000000		0.87955	-75.9496
2108950000		0.88053	-79.8105
2208900000		0.87848	-83.8962
2308850000		0.87667	-87.9787
2408800000		0.87552	-92.2125
2508750000		0.87457	-96.2999
2608700000		0.87416	-100.4522
2708650000		0.87175	-104.8474
2808600000		0.87435	-108.8311
2908550000		0.87153	-113.259
3008500000		0.8683	-117.6783
3108450000		0.86748	-122.0484
3208400000		0.8678	-126.0517
3308350000		0.8673	-130.2957
3408300000		0.8652	-134.6345
3508250000		0.8641	-138.8001
3608200000		0.86246	-142.9544
3708150000		0.86089	-147.1354
3808100000		0.86006	-151.2054
3908050000		0.85885	-155.1531
4008000000		0.85764	-159.2511
4107950000		0.85794	-163.0189
4207900000		0.85965	-166.6242
4307850000		0.8618	-170.1233
4407800000		0.86233	-173.9168
4507750000		0.86429	-177.4584
4607700000		0.86651	179.0546
4707650000		0.87095	175.9163
4807600000		0.87362	172.595
4907550000		0.87726	169.4142
5007500000		0.87997	166.1738
5107450000		0.88263	162.9699
5207400000		0.88549	159.9302
5307350000		0.88857	157.0723
5407300000		0.8906	154.1291
5507250000		0.89238	151.2707
5607200000		0.89353	148.5004
5707150000		0.89544	145.9057
5807100000		0.89628	143.4197
5907050000		0.89709	140.8502
6007000000		0.89805	138.552
6106950000		0.89912	136.2323
6206900000		0.89977	134.0458
6306850000		0.90051	131.8135
6406800000		0.90084	129.7
6506750000		0.90178	127.6312
6606700000		0.90237	125.6356
6706650000		0.90313	123.6303
6806600000		0.90414	121.7424
!
!				Infineon Technologies AG
