! Infineon Technologies  Discrete & RF Semiconductors
! BAT68
! IAC = 0.8 mA
! One-Port S-Parameters
# Hz  S  MA  R  50
!f									S11
!Hz							Mag  Ang
309850000		0.08875	-170.4211
409800000		0.0941	-168.5534
509750000		0.09858	-165.7458
609700000		0.10509	-164.3199
709650000		0.10978	-161.2329
809600000		0.11713	-159.8227
909550000		0.12589	-158.2763
1009500000		0.13492	-159.1969
1109450000		0.14373	-158.9466
1209400000		0.1517	-160.2781
1309350000		0.16193	-160.4984
1409300000		0.17175	-161.5064
1509250000		0.18375	-163.3215
1609200000		0.1936	-164.6223
1709150000		0.20214	-165.8614
1809100000		0.21436	-167.6664
1909050000		0.22572	-169.9968
2009000000		0.23697	-171.8745
2108950000		0.249	-173.3718
2208900000		0.26016	-174.8658
2308850000		0.27196	-176.9711
2408800000		0.28275	-178.2069
2508750000		0.2941	179.6945
2608700000		0.30682	177.7609
2708650000		0.31826	175.5691
2808600000		0.33166	173.6048
2908550000		0.34323	171.4666
3008500000		0.35411	168.8094
3108450000		0.36638	166.8929
3208400000		0.3787	164.7429
3308350000		0.39136	162.9812
3408300000		0.40376	160.9729
3508250000		0.41587	159.0768
3608200000		0.42758	156.6927
3708150000		0.44008	154.7872
3808100000		0.45209	153.0348
3908050000		0.4634	151.2643
4008000000		0.47562	149.1466
4107950000		0.48727	147.2673
4207900000		0.49946	145.4955
4307850000		0.5113	143.8127
4407800000		0.52339	141.8604
4507750000		0.53511	140.1554
4607700000		0.54658	138.3226
4707650000		0.55847	136.7633
4807600000		0.5694	135.0837
4907550000		0.58066	133.4764
5007500000		0.59132	131.7665
5107450000		0.60136	129.8963
5207400000		0.61184	128.3449
5307350000		0.62155	126.84
5407300000		0.63109	125.1914
5507250000		0.63985	123.5798
5607200000		0.64797	121.9613
5707150000		0.65662	120.5032
5807100000		0.66405	119.0783
5907050000		0.67172	117.5535
6007000000		0.679	116.223
6106950000		0.68645	114.8317
6206900000		0.69303	113.5021
6306850000		0.69977	112.1066
6406800000		0.7059	110.777
6506750000		0.71221	109.432
6606700000		0.71805	108.1284
6706650000		0.7238	106.787
6806600000		0.72976	105.5389
!
!				Infineon Technologies AG
