! Infineon Technologies  Discrete & RF Semiconductors
! BAT68
! IAC = 8 mA
! One-Port S-Parameters
# Hz  S  MA  R  50
!f									S11
!Hz							Mag  Ang
309850000		0.77696	174.0985
409800000		0.77636	172.2878
509750000		0.77546	170.5282
609700000		0.77521	168.7031
709650000		0.77469	166.9681
809600000		0.77461	165.2081
909550000		0.77434	163.4777
1009500000		0.77449	161.6842
1109450000		0.77477	160.0466
1209400000		0.77504	158.2971
1309350000		0.77548	156.6
1409300000		0.77622	154.8813
1509250000		0.77718	153.2289
1609200000		0.77802	151.4948
1709150000		0.77918	149.8247
1809100000		0.78028	148.1448
1909050000		0.78174	146.4798
2009000000		0.78288	144.8097
2108950000		0.78444	143.1489
2208900000		0.78546	141.541
2308850000		0.78685	139.8635
2408800000		0.78806	138.2842
2508750000		0.7891	136.6341
2608700000		0.79021	135.0998
2708650000		0.79119	133.5074
2808600000		0.79236	132.0274
2908550000		0.79327	130.4334
3008500000		0.79454	128.9732
3108450000		0.79555	127.5177
3208400000		0.7969	126.117
3308350000		0.79834	124.7259
3408300000		0.79986	123.3891
3508250000		0.80129	122.0543
3608200000		0.80332	120.6955
3708150000		0.80551	119.4225
3808100000		0.80777	118.142
3908050000		0.8097	116.8649
4008000000		0.81206	115.5879
4107950000		0.81442	114.3536
4207900000		0.81717	113.1019
4307850000		0.8198	111.8935
4407800000		0.82267	110.6916
4507750000		0.82547	109.5029
4607700000		0.82808	108.2738
4707650000		0.8309	107.1192
4807600000		0.83308	105.9157
4907550000		0.83531	104.748
5007500000		0.83701	103.5765
5107450000		0.83868	102.3842
5207400000		0.84002	101.2676
5307350000		0.84088	100.1588
5407300000		0.84192	99.0298
5507250000		0.84264	98.0246
5607200000		0.84301	96.9318
5707150000		0.84371	95.9766
5807100000		0.84373	94.9552
5907050000		0.84434	93.9741
6007000000		0.84462	93.0253
6106950000		0.84536	92.0654
6206900000		0.84569	91.159
6306850000		0.84652	90.194
6406800000		0.84692	89.2909
6506750000		0.84779	88.3389
6606700000		0.84844	87.4242
6706650000		0.84905	86.4608
6806600000		0.84996	85.5606
!
!				Infineon Technologies AG
