! Infineon Technologies  Discrete & RF Semiconductors
! BAT68
! VCA = 2 V
! One-Port S-Parameters
# Hz  S  MA  R  50
!f									S11
!Hz							Mag  Ang
309850000		0.99971	-6.4371
409800000		0.9991	-8.4611
509750000		0.99919	-10.5352
609700000		0.99879	-12.5832
709650000		0.99886	-14.7042
809600000		0.9986	-16.8025
909550000		0.99859	-18.954
1009500000		0.99816	-21.0417
1109450000		0.99794	-23.2779
1209400000		0.99728	-25.4345
1309350000		0.99672	-27.6505
1409300000		0.99577	-29.8343
1509250000		0.99509	-32.1171
1609200000		0.99377	-34.3345
1709150000		0.99272	-36.6195
1809100000		0.99143	-38.888
1909050000		0.99033	-41.2355
2009000000		0.98884	-43.5547
2108950000		0.98764	-45.9269
2208900000		0.9868	-48.3242
2308850000		0.98589	-50.728
2408800000		0.98526	-53.271
2508750000		0.9849	-55.671
2608700000		0.98476	-58.3195
2708650000		0.98465	-60.8948
2808600000		0.98424	-63.6282
2908550000		0.98419	-66.3703
3008500000		0.98383	-69.2245
3108450000		0.98361	-72.1384
3208400000		0.98248	-75.0765
3308350000		0.98128	-78.0934
3408300000		0.97979	-81.2122
3508250000		0.97824	-84.355
3608200000		0.97595	-87.4756
3708150000		0.97331	-90.733
3808100000		0.97073	-94.0127
3908050000		0.96761	-97.2289
4008000000		0.96468	-100.5979
4107950000		0.96164	-103.9013
4207900000		0.95846	-107.2691
4307850000		0.9557	-110.6597
4407800000		0.95314	-114.0876
4507750000		0.95117	-117.4801
4607700000		0.94937	-120.9253
4707650000		0.94811	-124.3949
4807600000		0.94736	-127.8612
4907550000		0.94708	-131.3681
5007500000		0.94727	-134.8734
5107450000		0.9477	-138.3777
5207400000		0.94795	-141.9905
5307350000		0.94883	-145.5042
5407300000		0.9489	-149.1113
5507250000		0.94968	-152.6788
5607200000		0.94953	-156.1916
5707150000		0.94973	-159.734
5807100000		0.94923	-163.1443
5907050000		0.94868	-166.6095
6007000000		0.94792	-169.9379
6106950000		0.94699	-173.2864
6206900000		0.94612	-176.508
6306850000		0.9452	-179.6899
6406800000		0.94406	177.1916
6506750000		0.94323	174.1529
6606700000		0.94221	171.1741
6706650000		0.94161	168.2433
6806600000		0.94087	165.3581
!
!				Infineon Technologies AG
