! Infineon Technologies  Discrete & RF Semiconductors
! BAT68
! VCA = 0.1 V
! One-Port S-Parameters
# Hz  S  MA  R  50
!f									S11
!Hz							Mag  Ang
309850000		0.99924	-8.7084
409800000		0.99881	-11.5147
509750000		0.99877	-14.333
609700000		0.99808	-17.1347
709650000		0.99799	-20.0127
809600000		0.99742	-22.8737
909550000		0.99715	-25.7927
1009500000		0.9963	-28.6595
1109450000		0.99564	-31.6783
1209400000		0.99464	-34.6153
1309350000		0.99349	-37.6258
1409300000		0.99195	-40.6068
1509250000		0.99072	-43.6975
1609200000		0.98876	-46.715
1709150000		0.98701	-49.8357
1809100000		0.98516	-52.9146
1909050000		0.98346	-56.1036
2009000000		0.98158	-59.2527
2108950000		0.97956	-62.4693
2208900000		0.97843	-65.7391
2308850000		0.97683	-68.9957
2408800000		0.97582	-72.4366
2508750000		0.97487	-75.7774
2608700000		0.97376	-79.2361
2708650000		0.97296	-82.7565
2808600000		0.97181	-86.3745
2908550000		0.97075	-90.0053
3008500000		0.96901	-93.7516
3108450000		0.96736	-97.4843
3208400000		0.96532	-101.2985
3308350000		0.96297	-105.1214
3408300000		0.96033	-109.025
3508250000		0.95767	-112.8882
3608200000		0.95418	-116.7015
3708150000		0.95112	-120.6332
3808100000		0.94818	-124.5089
3908050000		0.94484	-128.3055
4008000000		0.94184	-132.1785
4107950000		0.93917	-135.9349
4207900000		0.93673	-139.7402
4307850000		0.9348	-143.491
4407800000		0.93336	-147.2401
4507750000		0.93269	-150.8875
4607700000		0.9321	-154.5655
4707650000		0.93237	-158.1858
4807600000		0.93278	-161.7681
4907550000		0.9337	-165.3337
5007500000		0.93476	-168.8501
5107450000		0.936	-172.3288
5207400000		0.93675	-175.8303
5307350000		0.93796	-179.1729
5407300000		0.93833	177.4097
5507250000		0.93915	174.1567
5607200000		0.93899	170.9382
5707150000		0.93927	167.8042
5807100000		0.9386	164.798
5907050000		0.93816	161.7811
6007000000		0.93747	158.9356
6106950000		0.93692	156.0871
6206900000		0.93608	153.4036
6306850000		0.93561	150.7408
6406800000		0.93469	148.175
6506750000		0.93442	145.6671
6606700000		0.93378	143.2388
6706650000		0.93354	140.8372
6806600000		0.93325	138.5113
!
!				Infineon Technologies AG
