! Infineon Technologies  Discrete & RF Semiconductors
! BAT68
! IAC = 9 mA
! One-Port S-Parameters
# Hz  S  MA  R  50
!f									S11
!Hz							Mag  Ang
309850000		0.78872	174.087
409800000		0.78801	172.2764
509750000		0.7871	170.5144
609700000		0.78685	168.6866
709650000		0.7863	166.9492
809600000		0.78622	165.1808
909550000		0.78579	163.4497
1009500000		0.78591	161.657
1109450000		0.78615	160.0117
1209400000		0.78642	158.2601
1309350000		0.78675	156.5652
1409300000		0.78744	154.838
1509250000		0.78833	153.1843
1609200000		0.78911	151.4475
1709150000		0.79022	149.7727
1809100000		0.79128	148.0911
1909050000		0.79268	146.4239
2009000000		0.79391	144.7142
2108950000		0.79523	143.0871
2208900000		0.79617	141.4773
2308850000		0.79752	139.7969
2408800000		0.7986	138.2105
2508750000		0.79954	136.5573
2608700000		0.80063	135.0194
2708650000		0.80165	133.3915
2808600000		0.80273	131.9085
2908550000		0.80331	130.3449
3008500000		0.8045	128.8844
3108450000		0.80534	127.4268
3208400000		0.80658	126.022
3308350000		0.80779	124.6608
3408300000		0.80935	123.2925
3508250000		0.81068	121.9555
3608200000		0.8126	120.5925
3708150000		0.81471	119.3197
3808100000		0.81685	118.0359
3908050000		0.81876	116.7561
4008000000		0.82097	115.479
4107950000		0.8232	114.2448
4207900000		0.82589	112.989
4307850000		0.8285	111.7784
4407800000		0.83124	110.573
4507750000		0.83394	109.3844
4607700000		0.83642	108.1528
4707650000		0.83921	106.9923
4807600000		0.84125	105.7861
4907550000		0.84339	104.6178
5007500000		0.84494	103.443
5107450000		0.84653	102.2469
5207400000		0.8478	101.1298
5307350000		0.84858	100.0179
5407300000		0.84948	98.8864
5507250000		0.85	97.8784
5607200000		0.85033	96.7866
5707150000		0.85094	95.8269
5807100000		0.85083	94.8063
5907050000		0.85133	93.8238
6007000000		0.85157	92.872
6106950000		0.85218	91.9114
6206900000		0.85243	91.0042
6306850000		0.85317	90.038
6406800000		0.85348	89.1321
6506750000		0.85426	88.1787
6606700000		0.85477	87.2649
6706650000		0.85537	86.2985
6806600000		0.85618	85.3991
!
!				Infineon Technologies AG
