! Infineon Technologies  Discrete & RF Semiconductors
! BAT68
! IAC = 0.02 mA
! One-Port S-Parameters
# Hz  S  MA  R  50
!f									S11
!Hz							Mag  Ang
309850000		0.95079	-10.8942
409800000		0.95032	-14.4247
509750000		0.94984	-17.9702
609700000		0.94918	-21.4878
709650000		0.9495	-25.0775
809600000		0.94703	-28.7642
909550000		0.94675	-32.4059
1009500000		0.94649	-35.939
1109450000		0.94604	-39.6121
1209400000		0.94323	-43.3735
1309350000		0.9411	-47.1543
1409300000		0.9384	-50.9212
1509250000		0.93614	-54.7839
1609200000		0.93381	-58.5245
1709150000		0.9342	-62.0465
1809100000		0.93153	-65.9025
1909050000		0.92812	-69.9557
2009000000		0.92489	-73.99
2108950000		0.92429	-77.7628
2208900000		0.92225	-81.7602
2308850000		0.9202	-85.7528
2408800000		0.91873	-89.9228
2508750000		0.91743	-93.9296
2608700000		0.91656	-98.0336
2708650000		0.91425	-102.3184
2808600000		0.91506	-106.2484
2908550000		0.91229	-110.6146
3008500000		0.90936	-115.0188
3108450000		0.90771	-119.3134
3208400000		0.90655	-123.2788
3308350000		0.90499	-127.4966
3408300000		0.90225	-131.8203
3508250000		0.90022	-135.9794
3608200000		0.89785	-140.1064
3708150000		0.89542	-144.2854
3808100000		0.89357	-148.3709
3908050000		0.89141	-152.3348
4008000000		0.88959	-156.442
4107950000		0.88868	-160.196
4207900000		0.88914	-163.8573
4307850000		0.88993	-167.3887
4407800000		0.88987	-171.2149
4507750000		0.891	-174.7994
4607700000		0.89232	-178.3284
4707650000		0.89544	178.4915
4807600000		0.8973	175.1166
4907550000		0.89994	171.8842
5007500000		0.90196	168.5883
5107450000		0.9041	165.3351
5207400000		0.90612	162.2357
5307350000		0.90826	159.322
5407300000		0.90958	156.3218
5507250000		0.91087	153.402
5607200000		0.91139	150.5754
5707150000		0.91261	147.9239
5807100000		0.91274	145.3804
5907050000		0.91296	142.7532
6007000000		0.91321	140.4033
6106950000		0.91363	138.0305
6206900000		0.91364	135.7937
6306850000		0.91392	133.5118
6406800000		0.91377	131.3501
6506750000		0.91424	129.2371
6606700000		0.91431	127.1986
6706650000		0.91473	125.1525
6806600000		0.9153	123.2219
!
!				Infineon Technologies AG
