! Filename:  P:\Prog\Test\Noise\ATS_data\Testdata_Net\06 Compressed Noise after Statistics\BFU520_APG2013_37_A05_05p0V_002mA_NF_CM01_D.sf
! Date/Time: Fri 26/Apr/2013 14:13:10
! BFU520_APG2013_37_A05_05p0V_1to20mA_NF_CM01_Bias2_R.sf
! Noise Parameter Data File
! BFU520_APG2013_37_A05_05p0V_1to20mA_NF_CM01
! Date/time: Tue Apr 23 16:46:24 2013
! VAR V_out= 5.000000
! VAR I_out= 1.995000
! VAR V_in= 0.807300
! VAR I_in= 0.022200
! Device data file deembeded for feedlines and parallel
! Original file: \06 Compressed Noise after Statistics\BFU520_APG2013_37_A05_05p0V_002mA_NF_CM01_R.sf
! Feed-files: PR047V01_250413_Feed1.s2p, PR047V01_250413_Feed2.s2p
! Parallel-file: PR047V01_250413_Par.s2p
# MHz S MA R 50
!  Freq-MHz   S11-mag  S11-arg   S21-mag  S21-arg   S12-mag  S12-arg   S22-mag  S22-arg
        400   0.85075   -44.06    6.0758   146.69  0.061264    63.66   0.91741   -23.24
        420   0.84483   -46.15    6.0411   145.21    0.0638    62.53   0.91077   -24.28
        433   0.84081   -47.41    5.9954   144.25  0.065363    61.81   0.90655   -24.87
        440   0.83877   -48.14    5.9852   143.76  0.066179    61.40   0.90475   -25.22
        460   0.83279   -50.15    5.9376   142.36  0.068612    60.29   0.89913   -26.24
        480   0.82739   -52.06    5.8638   140.95  0.070707    59.18   0.89053   -27.18
        500   0.82045   -54.13    5.8309   139.54  0.072946    58.14   0.88397   -28.10
        550   0.80334   -59.18     5.704   135.97  0.077779    55.47   0.86508   -30.37
        600    0.7887   -63.82    5.5819   132.76  0.082582    53.16    0.8489   -32.47
        650   0.77516   -68.22    5.4075   129.68  0.086986    50.85   0.83223   -34.51
        700   0.75911   -72.91    5.2857   126.48  0.090577    48.62   0.81453   -36.39
        750   0.74429   -77.06    5.1271   123.59  0.094273    46.62   0.79902   -38.21
        800   0.73092   -81.40    5.0038   120.73  0.097401    44.75   0.78162   -39.91
        850   0.71663   -85.51     4.869   117.96   0.10034    42.86   0.76721   -41.49
        900   0.70187   -89.49    4.7417   115.29   0.10312    41.17   0.75348   -43.08
        950   0.69081   -93.43     4.619   112.75   0.10517    39.49   0.73729   -44.60
       1000   0.67957   -97.02    4.4907   110.27   0.10737    37.96   0.72505   -45.96
       1050   0.66671  -100.77    4.3667   107.79   0.10909    36.46   0.71106   -47.44
       1100   0.65786  -104.25    4.2426   105.53   0.11061    35.15   0.69898   -48.60
       1150   0.64626  -107.74    4.1325   103.27   0.11245    33.83   0.68871   -49.81
       1200    0.6367  -111.25    4.0294   101.03   0.11353    32.52   0.67668   -51.14
       1250   0.62911  -114.38    3.9183    99.03   0.11482    31.47   0.66769   -52.06
       1300   0.61897  -117.59     3.827    96.94   0.11569    30.34   0.65702   -53.34
       1350   0.61185  -120.67    3.7268    94.94    0.1164    29.31   0.64708   -54.41
       1400   0.60644  -123.63    3.6356    93.05   0.11715    28.36   0.63901   -55.33
       1450   0.59675  -126.82    3.5461    91.06   0.11787    27.38    0.6312   -56.47
       1500   0.59209  -129.68    3.4579    89.19   0.11828    26.51   0.62373   -57.46
       1550   0.58545  -132.34    3.3736    87.43   0.11872    25.69    0.6168   -58.38
       1600   0.57872  -135.34    3.2971    85.58   0.11879    24.88   0.60868   -59.46
       1650   0.57633  -137.77    3.2195    83.94   0.11892    24.26   0.60268   -60.25
       1700   0.57058  -140.27     3.148    82.34   0.11889    23.74   0.59551   -61.17
       1750   0.56495  -143.22    3.0769    80.57    0.1192    22.98   0.59001   -62.09
       1800    0.5644  -145.41    3.0127    79.05   0.11921    22.52   0.58566   -62.83
       1850   0.55839  -148.20    2.9457    77.29   0.11936    21.85   0.58179   -63.81
       1900   0.55545  -150.62    2.8815    75.74   0.11898    21.33   0.57654   -64.73
       1950   0.55427  -152.49    2.8193    74.27   0.11883    20.95   0.57366   -65.46
       2000   0.54859  -155.07    2.7585    72.68   0.11832    20.55   0.56817   -66.47

!  
! Device Noise Parameters
!  Freq-MHz   Fmin-dB  Gopt-mag  Gopt-arg   Rn-Ohm_normalized
        400    0.6016   0.51153    19.29    0.2113
        420    0.5059   0.50069    20.86    0.1997
        433    0.5942   0.50537    21.09    0.2112
        440    0.5659   0.49500    20.86    0.1999
        460    0.5481   0.48078    24.55    0.1993
        480    0.5786   0.49499    23.28    0.2042
        500    0.5566   0.47968    27.73    0.1907
        550    0.6177   0.49659    26.62    0.2132
        600    0.6276   0.46761    27.79    0.2121
        650    0.5801   0.48646    32.87    0.1872
        700    0.6766   0.48401    35.24    0.1960
        750    0.6143   0.47654    38.80    0.1917
        800    0.6447   0.47373    41.89    0.1888
        850    0.6676   0.47186    45.63    0.1812
        900    0.6672   0.47241    45.49    0.1890
        950    0.6758   0.46284    49.55    0.1850
       1000    0.6727   0.46978    52.24    0.1826
       1050    0.7004   0.46593    54.46    0.1806
       1100    0.7080   0.44853    58.66    0.1691
       1150    0.7241   0.43433    59.09    0.1697
       1200    0.7465   0.45931    61.73    0.1749
       1250    0.7649   0.45555    65.47    0.1710
       1300    0.7769   0.43654    68.12    0.1675
       1350    0.7659   0.46388    70.20    0.1640
       1400    0.7556   0.44018    74.44    0.1536
       1450    0.9459   0.44346    76.93    0.1706
       1500    0.8824   0.44041    81.06    0.1521
       1550    0.7975   0.44780    80.07    0.1582
       1600    0.7967   0.40325    83.76    0.1365
       1650    0.8228   0.42338    89.20    0.1196
       1700    0.7924   0.43061    91.31    0.1408
       1750    0.8143   0.40073    95.66    0.1210
       1800    0.6187   0.40427    98.88    0.1051
       1850    0.7911   0.42661   100.97    0.1061
       1900    0.9359   0.42025   101.60    0.1289
       1950    0.9509   0.42914   107.51    0.1176
       2000    0.9171   0.42749   108.02    0.1192

