! Filename:  P:\Prog\Test\Noise\ATS_data\Testdata_Net\06 Compressed Noise after Statistics\BFU520_APG2013_37_A05_08p0V_020mA_NF_CM01_D.sf
! Date/Time: Fri 26/Apr/2013 14:13:13
! BFU520_APG2013_37_A05_08p0V_1to20mA_NF_CM01_Bias8_R.sf
! Noise Parameter Data File
! BFU520_APG2013_37_A05_08p0V_1to20mA_NF_CM01
! Date/time: Tue Apr 23 18:16:22 2013
! VAR V_out= 8.000000
! VAR I_out= 20.000000
! VAR V_in= 0.822000
! VAR I_in= 0.222650
! Device data file deembeded for feedlines and parallel
! Original file: \06 Compressed Noise after Statistics\BFU520_APG2013_37_A05_08p0V_020mA_NF_CM01_R.sf
! Feed-files: PR047V01_250413_Feed1.s2p, PR047V01_250413_Feed2.s2p
! Parallel-file: PR047V01_250413_Par.s2p
# MHz S MA R 50
!  Freq-MHz   S11-mag  S11-arg   S21-mag  S21-arg   S12-mag  S12-arg   S22-mag  S22-arg
        400   0.46834  -125.88    17.794   111.72  0.029352    54.67   0.53144   -44.48
        420   0.46707  -128.59     17.13   110.27  0.030064    54.57   0.51744   -45.09
        433   0.46591  -130.37    16.722   109.33  0.030525    54.46   0.50877   -45.38
        440   0.46556  -131.27    16.514   108.83  0.030737    54.46   0.50456   -45.51
        460   0.46453  -133.84    15.929   107.51   0.03144    54.34     0.493   -46.00
        480   0.46435  -136.15    15.393   106.24  0.032069    54.34   0.48092   -46.36
        500   0.46315  -138.47    14.877   105.04  0.032702    54.37   0.47076   -46.73
        550   0.46041  -143.88    13.738   102.07   0.03412    54.70   0.44559   -47.27
        600   0.45956  -148.20    12.751    99.64  0.035814    55.00   0.42819   -47.91
        650   0.45936  -152.28    11.876    97.35  0.037443    55.27   0.41196   -48.55
        700    0.4588  -155.68    11.107    95.28  0.038967    55.80   0.39839   -48.80
        750   0.45859  -159.26    10.433    93.29  0.040592    56.24    0.3872   -49.28
        800   0.45899  -162.09    9.8305    91.50  0.042186    56.69   0.37671   -49.78
        850   0.45934  -164.98    9.2975    89.78  0.043835    57.05    0.3679   -50.07
        900   0.45838  -167.88    8.8098    88.09   0.04544    57.51   0.36083   -50.63
        950    0.4599  -170.21    8.3802    86.56  0.047114    57.89    0.3541   -51.03
       1000   0.45878  -172.44    7.9847    85.05  0.048843    58.31     0.349   -51.40
       1050   0.45988  -175.02    7.6208    83.55  0.050518    58.55   0.34451   -52.08
       1100   0.46123  -176.69    7.2908    82.22  0.052278    58.93   0.34036   -52.40
       1150    0.4607  -179.00    6.9841    80.84  0.053965    59.16   0.33657   -52.98
       1200   0.46194   178.99    6.7057    79.49  0.055701    59.36   0.33346   -53.66
       1250   0.46316   177.43    6.4511    78.29  0.057506    59.66   0.33075   -53.95
       1300   0.46217   175.42    6.2101    77.01  0.059258    59.82   0.32864   -54.74
       1350   0.46376   173.75    5.9896    75.81  0.061044    60.00   0.32645   -55.37
       1400   0.46478   172.35     5.788    74.66  0.062899    60.20   0.32471   -55.78
       1450    0.4651   170.18    5.5903    73.40  0.064691    60.20   0.32381   -56.71
       1500   0.46675   168.83    5.4076    72.24  0.066475    60.28   0.32263   -57.40
       1550   0.46645   167.37     5.238    71.15  0.068296    60.37   0.32155   -57.97
       1600   0.46734   165.54    5.0709    69.97  0.070044    60.36    0.3209   -58.87
       1650   0.46872   164.62    4.9256    68.96  0.071942    60.48   0.32027   -59.35
       1700   0.46852   163.09    4.7859    67.94  0.073805    60.52    0.3198   -60.12
       1750   0.47017   161.30    4.6453    66.82  0.075526    60.44   0.31903   -61.12
       1800   0.47217   160.43      4.53    65.81  0.077537    60.47    0.3193   -61.60
       1850   0.47234   158.61    4.4025    64.65   0.07928    60.33   0.32027   -62.70
       1900   0.47339   157.39    4.2853    63.62  0.081064    60.24   0.32015   -63.55
       1950   0.47364   156.64    4.1821    62.65  0.082899    60.21   0.32098   -64.14
       2000   0.47366   155.02    4.0669    61.61   0.08446    60.16   0.32101   -65.36

!  
! Device Noise Parameters
!  Freq-MHz   Fmin-dB  Gopt-mag  Gopt-arg   Rn-Ohm_normalized
        400    1.2618   0.18366  -170.16    0.1124
        420    1.1880   0.21113  -173.23    0.0982
        433    1.2033   0.20107  -172.98    0.0996
        440    1.1911   0.20471  -173.21    0.0958
        460    1.2029   0.21792  -172.42    0.0929
        480    1.1812   0.20311  -171.95    0.0990
        500    1.2037   0.20528  -171.32    0.1007
        550    1.2296   0.19885  -173.91    0.1031
        600    1.2462   0.19237  -162.02    0.1108
        650    1.2146   0.21356  -170.91    0.0981
        700    1.2362   0.21239  -168.33    0.1004
        750    1.2377   0.21704  -167.59    0.0993
        800    1.2579   0.22032  -166.45    0.0980
        850    1.2574   0.22584  -167.05    0.0970
        900    1.2698   0.22401  -164.58    0.0978
        950    1.2592   0.23721  -164.69    0.0947
       1000    1.2702   0.23415  -165.01    0.0955
       1050    1.2741   0.23334  -162.50    0.0989
       1100    1.2867   0.24409  -162.10    0.0949
       1150    1.2927   0.23623  -160.41    0.1007
       1200    1.3019   0.23187  -160.41    0.1038
       1250    1.3173   0.24261  -159.70    0.1003
       1300    1.3166   0.24516  -157.38    0.1038
       1350    1.3404   0.25152  -158.33    0.0992
       1400    1.3411   0.24426  -158.34    0.1024
       1450    1.3843   0.25361  -155.83    0.1017
       1500    1.3928   0.25243  -155.32    0.1025
       1550    1.3564   0.25880  -153.20    0.1050
       1600    1.3628   0.26073  -150.13    0.1090
       1650    1.3768   0.26568  -153.10    0.1036
       1700    1.3673   0.26537  -152.43    0.1082
       1750    1.3773   0.26742  -150.48    0.1089
       1800    1.3675   0.27062  -151.10    0.1041
       1850    1.3596   0.27102  -151.10    0.1059
       1900    1.4038   0.27678  -148.17    0.1120
       1950    1.4171   0.27252  -147.50    0.1145
       2000    1.4136   0.27686  -146.23    0.1161

