! Filename:  P:\Prog\Test\Noise\ATS_data\Testdata_Net\06 Compressed Noise after Statistics\BFU520_APG2013_37_A05_12p0V_008mA_NF_CM01_D.sf
! Date/Time: Fri 26/Apr/2013 14:13:14
! BFU520_APG2013_37_A05_12p0V_1to20mA_NF_CM01_Bias5_R.sf
! Noise Parameter Data File
! BFU520_APG2013_37_A05_12p0V_1to20mA_NF_CM01
! Date/time: Tue Apr 23 19:55:39 2013
! VAR V_out= 12.001000
! VAR I_out= 7.995000
! VAR V_in= 0.812000
! VAR I_in= 0.079005
! Device data file deembeded for feedlines and parallel
! Original file: \06 Compressed Noise after Statistics\BFU520_APG2013_37_A05_12p0V_008mA_NF_CM01_R.sf
! Feed-files: PR047V01_250413_Feed1.s2p, PR047V01_250413_Feed2.s2p
! Parallel-file: PR047V01_250413_Par.s2p
# MHz S MA R 50
!  Freq-MHz   S11-mag  S11-arg   S21-mag  S21-arg   S12-mag  S12-arg   S22-mag  S22-arg
        400   0.59821   -82.40    14.551   126.86  0.041971    54.49   0.71422   -38.64
        420   0.58996   -85.38    14.186   125.16  0.043136    53.63   0.69963   -39.76
        433   0.58422   -87.30    13.952   124.06  0.043833    53.13   0.69017   -40.40
        440   0.58147   -88.38    13.838   123.46  0.044178    52.83   0.68547   -40.74
        460    0.5735   -91.18    13.487   121.88  0.045186    52.07   0.67225   -41.74
        480   0.56715   -93.92    13.159   120.36  0.046067    51.39   0.65784   -42.59
        500   0.55921   -96.62    12.841   118.87  0.046971    50.74    0.6454   -43.46
        550   0.54127  -103.25    12.105   115.18  0.048798    49.38   0.61336   -45.34
        600   0.52799  -108.88     11.42   112.10  0.050754    48.38   0.58853   -46.98
        650    0.5167  -114.26    10.776   109.21  0.052479    47.45   0.56485   -48.54
        700   0.50634  -119.19    10.193   106.49  0.053936    46.82   0.54345   -49.68
        750   0.49645  -123.98    9.6648   103.99  0.055436    46.31   0.52485   -50.88
        800   0.49009  -128.24    9.1834   101.67  0.056818    45.97   0.50731   -51.95
        850   0.48337  -132.40    8.7447    99.48  0.058148    45.63   0.49195   -52.81
        900   0.47531  -136.41    8.3401    97.35  0.059432    45.45   0.47865   -53.81
        950   0.47185  -139.99    7.9734    95.41  0.060672    45.34   0.46592   -54.62
       1000   0.46675  -143.26     7.632    93.53  0.061943    45.28   0.45535   -55.33
       1050   0.46242  -146.87     7.314    91.67  0.063116    45.26   0.44543   -56.24
       1100   0.46071  -149.66    7.0171    90.02  0.064375    45.35   0.43666   -56.79
       1150    0.4563  -152.80    6.7456    88.34  0.065601    45.37   0.42847   -57.53
       1200   0.45433  -155.78    6.4956    86.70  0.066792    45.42    0.4212   -58.32
       1250   0.45323  -158.22    6.2614    85.25  0.068052    45.63   0.41475   -58.74
       1300   0.44959  -160.92    6.0443    83.73  0.069281    45.71   0.40895   -59.57
       1350   0.44864  -163.42    5.8401    82.29  0.070505    45.87    0.4034   -60.23
       1400   0.44852  -165.59     5.652    80.92   0.07179    46.06   0.39864   -60.70
       1450   0.44597  -168.44    5.4697    79.45  0.073067    46.13   0.39481   -61.58
       1500   0.44632  -170.48     5.298    78.10  0.074276    46.29   0.39096   -62.24
       1550    0.4446  -172.51    5.1386    76.83  0.075576    46.44   0.38731   -62.80
       1600   0.44362  -174.98     4.983    75.48  0.076782    46.55   0.38411   -63.62
       1650   0.44479  -176.51    4.8437    74.31  0.078141    46.80   0.38137   -64.08
       1700   0.44324  -178.46    4.7128    73.14  0.079474    46.99   0.37874   -64.77
       1750   0.44313   179.12    4.5804    71.85  0.080719    47.03   0.37603   -65.64
       1800   0.44504   177.76    4.4685    70.72  0.082171    47.27   0.37452   -66.08
       1850   0.44385   175.48    4.3487    69.41  0.083463    47.28   0.37368   -67.02
       1900   0.44423   173.74    4.2355    68.27  0.084731    47.36    0.3719   -67.78
       1950   0.44478   172.66    4.1347    67.18  0.086066    47.52   0.37117   -68.29
       2000   0.44336   170.60    4.0254    66.01   0.08715    47.64   0.36964   -69.34

!  
! Device Noise Parameters
!  Freq-MHz   Fmin-dB  Gopt-mag  Gopt-arg   Rn-Ohm_normalized
        400    0.8974   0.09677    29.94    0.1301
        420    0.8249   0.06265    53.59    0.1108
        433    0.8559   0.08738    41.57    0.1152
        440    0.8434   0.06867    45.10    0.1092
        460    0.8400   0.05756    45.51    0.1126
        480    0.8632   0.06978    46.54    0.1089
        500    0.8510   0.07234    50.46    0.1141
        550    0.8893   0.08420    44.08    0.1214
        600    0.8936   0.06754    34.17    0.1280
        650    0.8775   0.07540    60.52    0.1152
        700    0.9081   0.07297    61.66    0.1145
        750    0.8813   0.06979    66.15    0.1150
        800    0.8880   0.07407    70.25    0.1158
        850    0.9202   0.07897    79.89    0.1106
        900    0.9152   0.07632    78.13    0.1121
        950    0.9201   0.07185    91.24    0.1070
       1000    0.9249   0.07729    94.45    0.1080
       1050    0.9324   0.08157    87.68    0.1117
       1100    0.9397   0.08552    99.43    0.1070
       1150    0.9659   0.08410    99.74    0.1073
       1200    0.9600   0.09014   101.50    0.1100
       1250    0.9766   0.09127   112.15    0.1063
       1300    0.9871   0.08644   116.24    0.1064
       1350    0.9755   0.09395   116.26    0.1074
       1400    0.9770   0.10193   119.35    0.1053
       1450    1.0535   0.08818   123.94    0.1077
       1500    1.0115   0.10573   128.25    0.1123
       1550    1.0034   0.10574   132.95    0.1039
       1600    1.0154   0.11058   137.98    0.0999
       1650    1.0054   0.11769   141.56    0.0997
       1700    1.0177   0.12061   144.45    0.1004
       1750    1.0162   0.12132   147.19    0.0971
       1800    0.9848   0.13492   151.93    0.0911
       1850    1.0192   0.13636   154.92    0.0903
       1900    1.0472   0.12967   155.23    0.0990
       1950    1.0773   0.14928   160.97    0.0922
       2000    1.0670   0.13493   158.62    0.0997

