! Filename:  P:\Prog\Test\Noise\ATS_data\Testdata_Net\06 Compressed Noise after Statistics\BFU520_APG2013_37_A05_03p3V_001mA_NF_CM01_D.sf
! Date/Time: Fri 26/Apr/2013 14:13:07
! BFU520_APG2013_37_A05_03p3V_1to20mA_NF_CM01_Bias1_R.sf
! Noise Parameter Data File
! BFU520_APG2013_37_A05_03p3V_1to20mA_NF_CM01
! Date/time: Tue Apr 23 15:18:41 2013
! freq range =  0.4000 to  2.0000 GHz, 37 points
! bias range =  1.0050 to 19.9950 mA, 8 points
! bias supplies used: 1 1 0 0 0 0
! VAR bias_mode= 1     ! Specify V_out, I_out
! VAR bias_var = 1     ! Bias variable = I_out
! VAR V_out= 3.301000
! VAR I_out= 1.005000
! VAR V_in= 0.791900
! VAR I_in= 0.011201
! Device data file deembeded for feedlines and parallel
! Original file: \06 Compressed Noise after Statistics\BFU520_APG2013_37_A05_03p3V_001mA_NF_CM01_R.sf
! Feed-files: PR047V01_250413_Feed1.s2p, PR047V01_250413_Feed2.s2p
! Parallel-file: PR047V01_250413_Par.s2p
# MHz S MA R 50
!  Freq-MHz   S11-mag  S11-arg   S21-mag  S21-arg   S12-mag  S12-arg   S22-mag  S22-arg
        400      0.92   -33.59     3.338   152.63  0.068211    67.87   0.95959   -18.01
        420    0.9161   -35.28    3.3373   151.37  0.071322    66.84     0.956   -18.89
        433   0.91393   -36.30    3.3217   150.48  0.073256    66.19   0.95385   -19.39
        440   0.91295   -36.86    3.3208   150.05  0.074315    65.81   0.95316   -19.69
        460   0.90905   -38.48    3.3089   148.84  0.077289    64.76   0.95037   -20.55
        480   0.90607   -40.04    3.2781   147.56  0.080045    63.74   0.94537   -21.36
        500   0.90197   -41.64     3.277   146.34   0.08286    62.76   0.94172   -22.18
        550   0.89014   -45.76    3.2361   143.16  0.089424    60.18   0.93113   -24.18
        600   0.88126   -49.61    3.2068   140.23  0.095938    57.89    0.9216   -26.09
        650   0.87178   -53.30    3.1332   137.33   0.10213    55.57   0.91179   -27.96
        700   0.86047   -57.30    3.1018   134.32   0.10749    53.21   0.90063   -29.80
        750    0.8498   -60.88    3.0373   131.50   0.11298    51.08   0.89073   -31.56
        800   0.83958   -64.59    2.9994   128.76   0.11788    49.00   0.87867   -33.25
        850   0.82808   -68.30    2.9507   125.99   0.12263    46.86   0.86917   -34.87
        900   0.81625   -71.75     2.901   123.32   0.12716    44.97    0.8596   -36.47
        950   0.80663   -75.36    2.8585   120.75   0.13083    42.89   0.84745   -38.11
       1000    0.7976   -78.67    2.8029   118.19   0.13468    41.03   0.83852   -39.57
       1050    0.7859   -82.07    2.7502   115.57   0.13793    39.14   0.82735   -41.14
       1100   0.77644   -85.39    2.6951   113.16   0.14084    37.41   0.81773   -42.49
       1150   0.76594   -88.64    2.6461   110.76   0.14424    35.70   0.80984   -43.78
       1200   0.75616   -91.95    2.6054   108.38   0.14649    33.93   0.79939   -45.29
       1250   0.74745   -95.00    2.5495   106.18   0.14907    32.45   0.79231   -46.37
       1300   0.73764   -98.15    2.5149   103.89   0.15096    30.77   0.78241   -47.82
       1350   0.72985  -101.13    2.4644   101.70   0.15261    29.25   0.77338   -49.07
       1400   0.72302  -104.15    2.4213    99.56   0.15429    27.75   0.76617   -50.20
       1450   0.71268  -107.19    2.3746    97.37   0.15593    26.29   0.75893   -51.44
       1500    0.7057  -110.05    2.3309    95.27   0.15706    24.87   0.75194   -52.65
       1550   0.69778  -112.86    2.2863    93.25   0.15814    23.49   0.74521   -53.73
       1600   0.69019  -115.78    2.2504    91.20   0.15854    22.09   0.73663   -55.02
       1650   0.68556  -118.41    2.2085    89.31   0.15895    20.91   0.73039   -56.03
       1700   0.67837  -121.04    2.1695    87.46   0.15883    19.74   0.72184   -57.13
       1750   0.67169  -123.86    2.1309    85.49   0.15995    18.49   0.71741   -58.12
       1800   0.66875  -126.35    2.0947    83.72    0.1599    17.42   0.71219   -59.09
       1850   0.66182  -129.10    2.0564    81.73   0.16055    16.21   0.70869   -60.12
       1900   0.65665  -131.70    2.0215    79.97   0.15984    15.05   0.70249   -61.26
       1950   0.65396  -133.88    1.9816    78.25   0.15963    14.10    0.6992   -62.14
       2000   0.64725  -136.52    1.9481    76.47    0.1587    13.05   0.69242   -63.27

!  
! Device Noise Parameters
!  Freq-MHz   Fmin-dB  Gopt-mag  Gopt-arg   Rn-Ohm_normalized
        400    0.5175   0.66718    21.39    0.3529
        420    0.4854   0.65731    20.32    0.3305
        433    0.5274   0.71198    19.82    0.3920
        440    0.4942   0.66641    21.66    0.3532
        460    0.5059   0.65777    24.00    0.3518
        480    0.5376   0.68132    23.43    0.3695
        500    0.5191   0.65688    25.39    0.3200
        550    0.5487   0.67471    28.11    0.3727
        600    0.5504   0.67872    31.10    0.3337
        650    0.5469   0.65621    32.44    0.2938
        700    0.6167   0.66779    37.40    0.3263
        750    0.6067   0.65836    38.24    0.3234
        800    0.6321   0.65606    40.26    0.3275
        850    0.6542   0.65127    44.84    0.3046
        900    0.6751   0.65436    45.72    0.3114
        950    0.6910   0.65260    49.51    0.3124
       1000    0.7083   0.65618    51.11    0.3090
       1050    0.7176   0.65028    53.47    0.3107
       1100    0.7206   0.61079    56.39    0.2805
       1150    0.7361   0.63150    60.22    0.2657
       1200    0.7810   0.64634    60.94    0.2997
       1250    0.8134   0.62474    65.14    0.2861
       1300    0.8131   0.60847    67.82    0.2769
       1350    0.8220   0.60790    69.99    0.2775
       1400    0.7950   0.59394    72.70    0.2466
       1450    1.1285   0.59890    74.52    0.3218
       1500    0.9375   0.61993    78.89    0.2669
       1550    0.9180   0.58940    80.95    0.2426
       1600    0.8066   0.53270    84.09    0.1988
       1650    0.7708   0.52227    87.90    0.1857
       1700    0.9553   0.54232    89.29    0.2287
       1750    0.9390   0.49082    95.45    0.1722
       1800    0.3892   0.53334    97.81    0.1163
       1850    0.6999   0.49061    98.62    0.1702
       1900    1.0291   0.54284    92.19    0.2612
       1950    1.2958   0.47063   104.26    0.2230
       2000    1.0536   0.61839   105.81    0.1738

