! Filename:  P:\Prog\Test\Noise\ATS_data\Testdata_Net\06 Compressed Noise after Statistics\BFU520_APG2013_37_A05_03p3V_020mA_NF_CM01_D.sf
! Date/Time: Fri 26/Apr/2013 14:13:18
! BFU520_APG2013_37_A05_03p3V_1to20mA_NF_CM01_Bias8_R.sf
! Noise Parameter Data File
! BFU520_APG2013_37_A05_03p3V_1to20mA_NF_CM01
! Date/time: Tue Apr 23 15:18:41 2013
! VAR V_out= 3.300000
! VAR I_out= 19.995000
! VAR V_in= 0.858300
! VAR I_in= 0.242550
! Device data file deembeded for feedlines and parallel
! Original file: \06 Compressed Noise after Statistics\BFU520_APG2013_37_A05_03p3V_020mA_NF_CM01_R.sf
! Feed-files: PR047V01_250413_Feed1.s2p, PR047V01_250413_Feed2.s2p
! Parallel-file: PR047V01_250413_Par.s2p
# MHz S MA R 50
!  Freq-MHz   S11-mag  S11-arg   S21-mag  S21-arg   S12-mag  S12-arg   S22-mag  S22-arg
        400   0.53649  -143.39    14.654   105.69  0.027321    51.35   0.48964   -39.00
        420   0.53766  -145.67    14.058   104.35  0.027928    51.44   0.47879   -39.25
        433   0.53778  -147.10    13.697   103.49  0.028286    51.46   0.47228   -39.31
        440   0.53829  -147.87    13.512   103.03  0.028476    51.51   0.46917   -39.33
        460   0.53919  -149.92    12.998   101.80  0.029066    51.68   0.46075   -39.51
        480   0.54033  -151.74    12.529   100.63  0.029623    51.84   0.45187   -39.56
        500   0.54089  -153.59    12.083    99.54  0.030151    52.01   0.44473   -39.67
        550   0.54152  -157.83    11.105    96.79  0.031365    52.85   0.42741   -39.65
        600   0.54344  -161.31    10.269    94.51  0.032878    53.47   0.41573   -39.92
        650   0.54488  -164.52    9.5353    92.37   0.03431    54.14   0.40521   -40.23
        700   0.54554  -167.25    8.8971    90.42  0.035746    54.94   0.39695   -40.36
        750   0.54731  -170.07    8.3362    88.54  0.037223    55.67   0.39003   -40.71
        800   0.54811  -172.39    7.8439    86.81  0.038711    56.39   0.38369   -41.15
        850   0.54982  -174.72    7.4053    85.16  0.040196    57.00   0.37857   -41.43
        900   0.54967  -177.03    7.0079    83.53  0.041723    57.67   0.37457   -41.99
        950   0.55165  -178.96    6.6583    82.03  0.043294    58.28   0.37096   -42.44
       1000   0.55136   179.20    6.3373    80.55  0.044907    58.87   0.36843   -42.91
       1050   0.55302   177.10    6.0436    79.07  0.046486    59.31   0.36635   -43.64
       1100   0.55424   175.64    5.7789    77.74   0.04816    59.84   0.36445   -44.15
       1150   0.55463   173.77    5.5293    76.38  0.049778    60.24   0.36242   -44.82
       1200   0.55528   172.07     5.306    75.03  0.051427    60.59   0.36119   -45.61
       1250   0.55712   170.71     5.101    73.82  0.053157    61.02   0.36023   -46.11
       1300   0.55654   169.01    4.9059    72.54  0.054815    61.32   0.35925   -46.97
       1350   0.55771   167.60    4.7303    71.33  0.056559    61.64   0.35872   -47.74
       1400   0.55906   166.29    4.5682    70.15  0.058335    61.94   0.35821   -48.36
       1450    0.5602   164.52    4.4099    68.87  0.060046    62.06   0.35828   -49.34
       1500   0.56118   163.27    4.2651    67.66  0.061811    62.25   0.35839   -50.21
       1550   0.56129   161.99    4.1288    66.56  0.063571    62.43   0.35818   -50.95
       1600   0.56226   160.44    3.9961    65.34  0.065281    62.54   0.35848   -51.92
       1650   0.56299   159.50     3.881    64.29  0.067138    62.72   0.35888   -52.64
       1700   0.56406   158.20    3.7685    63.25  0.068944    62.89   0.35898   -53.51
       1750   0.56495   156.69    3.6571    62.08  0.070641    62.88   0.35911   -54.55
       1800   0.56699   155.73    3.5656    61.02  0.072631    63.01   0.36018   -55.27
       1850   0.56772   154.22    3.4636    59.84  0.074321    62.96   0.36144   -56.41
       1900     0.568   153.02    3.3718    58.75  0.076119    62.95   0.36227   -57.37
       1950   0.56849   152.31      3.29    57.73  0.077958    62.99   0.36361   -58.20
       2000   0.56866   150.88    3.1992    56.65  0.079509    63.05   0.36393   -59.40

!  
! Device Noise Parameters
!  Freq-MHz   Fmin-dB  Gopt-mag  Gopt-arg   Rn-Ohm_normalized
        400    1.2063   0.25345  -175.68    0.0902
        420    1.1790   0.26534  -172.44    0.0818
        433    1.1641   0.25138  -173.21    0.0873
        440    1.1409   0.25328  -171.06    0.0876
        460    1.1530   0.25759  -173.05    0.0873
        480    1.1674   0.26209  -168.27    0.0852
        500    1.2009   0.26535  -170.32    0.0844
        550    1.2152   0.25990  -169.38    0.0888
        600    1.2402   0.24889  -165.02    0.0965
        650    1.2111   0.27240  -167.81    0.0852
        700    1.2332   0.28543  -167.46    0.0817
        750    1.2237   0.28365  -165.75    0.0827
        800    1.2450   0.29759  -165.13    0.0805
        850    1.2500   0.30243  -164.72    0.0808
        900    1.2495   0.29624  -163.82    0.0830
        950    1.2676   0.31398  -161.09    0.0806
       1000    1.2781   0.31865  -162.61    0.0786
       1050    1.2792   0.31604  -160.78    0.0825
       1100    1.2889   0.32084  -158.57    0.0828
       1150    1.2933   0.32775  -158.55    0.0825
       1200    1.3147   0.32951  -157.80    0.0839
       1250    1.3214   0.32352  -155.12    0.0903
       1300    1.3399   0.34439  -154.71    0.0853
       1350    1.3511   0.33758  -155.24    0.0880
       1400    1.3443   0.33811  -153.53    0.0897
       1450    1.4076   0.35523  -152.03    0.0890
       1500    1.3790   0.36077  -151.40    0.0897
       1550    1.3821   0.35674  -150.63    0.0926
       1600    1.3864   0.35955  -150.02    0.0936
       1650    1.4019   0.38065  -149.54    0.0879
       1700    1.4326   0.37394  -148.55    0.0924
       1750    1.4132   0.35745  -146.98    0.1035
       1800    1.3769   0.37368  -146.13    0.0966
       1850    1.4394   0.38086  -145.04    0.0995
       1900    1.4676   0.37979  -143.49    0.1070
       1950    1.4261   0.38397  -143.63    0.1160
       2000    1.4714   0.38349  -142.58    0.1161

