! Filename:  P:\Prog\Test\Noise\ATS_data\Testdata_Net\06 Compressed Noise after Statistics\BFU520_APG2013_37_A05_03p3V_010mA_NF_CM01_D.sf
! Date/Time: Fri 26/Apr/2013 14:13:18
! BFU520_APG2013_37_A05_03p3V_1to20mA_NF_CM01_Bias6_R.sf
! Noise Parameter Data File
! BFU520_APG2013_37_A05_03p3V_1to20mA_NF_CM01
! Date/time: Tue Apr 23 15:18:41 2013
! VAR V_out= 3.300000
! VAR I_out= 10.005000
! VAR V_in= 0.845300
! VAR I_in= 0.117150
! Device data file deembeded for feedlines and parallel
! Original file: \06 Compressed Noise after Statistics\BFU520_APG2013_37_A05_03p3V_010mA_NF_CM01_R.sf
! Feed-files: PR047V01_250413_Feed1.s2p, PR047V01_250413_Feed2.s2p
! Parallel-file: PR047V01_250413_Par.s2p
# MHz S MA R 50
!  Freq-MHz   S11-mag  S11-arg   S21-mag  S21-arg   S12-mag  S12-arg   S22-mag  S22-arg
        400   0.54097  -103.48    15.215   119.28   0.03877    51.79   0.62784   -43.20
        420   0.53619  -106.58    14.735   117.64  0.039705    51.21    0.6124   -44.17
        433   0.53279  -108.56    14.437   116.58  0.040244    50.84   0.60258   -44.69
        440   0.53159  -109.63    14.288   116.02  0.040514    50.59   0.59768   -44.96
        460    0.5268  -112.48    13.849   114.50   0.04134    50.08   0.58432   -45.79
        480   0.52398  -115.20    13.445   113.06  0.042037    49.65   0.57015   -46.47
        500   0.51941  -117.88    13.054   111.68  0.042733    49.25   0.55811   -47.15
        550   0.50976  -124.28    12.171   108.26  0.044199    48.51   0.52761   -48.51
        600   0.50428  -129.55    11.377   105.42  0.045929    48.11    0.5047   -49.75
        650   0.49964  -134.49    10.661   102.78  0.047429    47.75   0.48367   -50.91
        700   0.49503  -138.88    10.021   100.34  0.048797    47.62    0.4652   -51.70
        750   0.49155  -143.16    9.4485    98.05  0.050219    47.58   0.44929   -52.57
        800   0.48887  -146.84    8.9372    95.95  0.051594    47.69   0.43497   -53.38
        850   0.48712  -150.44     8.476    93.96  0.052946    47.71   0.42231   -54.00
        900   0.48348  -153.91    8.0536    92.04  0.054282    47.89   0.41172   -54.77
        950   0.48302  -156.91    7.6772    90.28  0.055655    48.14   0.40175   -55.37
       1000   0.48121  -159.70    7.3279    88.55  0.057047    48.39    0.3936   -55.92
       1050   0.48016  -162.75    7.0061    86.86  0.058383    48.60   0.38625   -56.67
       1100    0.4802  -165.01    6.7118    85.34  0.059815    48.90   0.37979   -57.13
       1150    0.4791  -167.71    6.4372    83.79  0.061196    49.13   0.37351   -57.78
       1200   0.47864  -170.14    6.1893    82.29  0.062581    49.37    0.3685   -58.49
       1250    0.4793  -172.20    5.9585    80.92  0.064051    49.70   0.36386   -58.87
       1300   0.47776  -174.49    5.7413    79.52  0.065486    49.91   0.35975   -59.65
       1350    0.4779  -176.50    5.5423    78.20  0.066956    50.18   0.35609   -60.26
       1400   0.47889  -178.36    5.3573    76.91  0.068465    50.46   0.35272   -60.73
       1450   0.47856   179.31    5.1787    75.54  0.069982    50.60   0.35036   -61.58
       1500   0.47924   177.57    5.0138    74.26  0.071447    50.80   0.34815   -62.27
       1550   0.47904   175.82    4.8575    73.06  0.072968    50.99   0.34563   -62.84
       1600   0.47911   173.82    4.7074    71.79  0.074417    51.14   0.34391   -63.66
       1650   0.48024   172.53    4.5735    70.66  0.076045    51.36   0.34237   -64.17
       1700   0.48036   170.82    4.4448    69.56  0.077593    51.57   0.34065   -64.87
       1750   0.48087   168.88    4.3179    68.34  0.079085    51.65   0.33919   -65.77
       1800   0.48279   167.62    4.2105    67.25  0.080815    51.80   0.33864   -66.27
       1850   0.48311   165.75    4.0943    66.02  0.082277    51.82   0.33869   -67.24
       1900    0.4833   164.25    3.9875    64.91  0.083823    51.90   0.33811   -68.04
       1950   0.48403   163.29    3.8912    63.86  0.085377    51.99   0.33809   -68.62
       2000   0.48367   161.59    3.7864    62.75  0.086748    52.09   0.33752   -69.70

!  
! Device Noise Parameters
!  Freq-MHz   Fmin-dB  Gopt-mag  Gopt-arg   Rn-Ohm_normalized
        400    0.9384   0.05506   149.72    0.1019
        420    0.8806   0.07221   165.90    0.0899
        433    0.8846   0.05986   160.13    0.0929
        440    0.8453   0.06426   152.71    0.0935
        460    0.8635   0.06733   167.16    0.0935
        480    0.8515   0.06319   164.63    0.0960
        500    0.8807   0.07307   168.67    0.0934
        550    0.9141   0.06983   148.16    0.0938
        600    0.9366   0.04947   163.80    0.1046
        650    0.9125   0.08215   158.27    0.0926
        700    0.9242   0.08133   161.28    0.0932
        750    0.9157   0.09569   167.76    0.0886
        800    0.9295   0.09903   169.32    0.0897
        850    0.9462   0.09797   164.02    0.0904
        900    0.9421   0.10315   165.96    0.0893
        950    0.9496   0.11001   166.62    0.0876
       1000    0.9568   0.11251   168.56    0.0878
       1050    0.9686   0.11551   168.71    0.0878
       1100    0.9659   0.12591   168.77    0.0865
       1150    0.9809   0.12051   170.45    0.0888
       1200    0.9857   0.12693   171.31    0.0877
       1250    0.9928   0.13366   173.27    0.0877
       1300    1.0117   0.13599   173.71    0.0881
       1350    1.0068   0.14147   174.63    0.0866
       1400    1.0022   0.14840   175.93    0.0867
       1450    1.0528   0.14741   179.34    0.0905
       1500    1.0375   0.15382   176.99    0.0898
       1550    1.0442   0.15756   177.55    0.0848
       1600    1.0393   0.15460   178.54    0.0888
       1650    1.0367   0.16882  -178.78    0.0847
       1700    1.0494   0.16446  -173.02    0.0891
       1750    1.0346   0.17655  -173.84    0.0855
       1800    0.9962   0.18955  -175.90    0.0831
       1850    0.9947   0.17689  -176.98    0.0914
       1900    1.0747   0.18279  -174.32    0.0864
       1950    1.1030   0.19485  -174.86    0.0865
       2000    1.0864   0.19861  -172.47    0.0864

