! Filename:  P:\Prog\Test\Noise\ATS_data\Testdata_Net\06 Compressed Noise after Statistics\BFU520_APG2013_37_A05_12p0V_001mA_NF_CM01_D.sf
! Date/Time: Fri 26/Apr/2013 14:13:09
! BFU520_APG2013_37_A05_12p0V_1to20mA_NF_CM01_Bias1_R.sf
! Noise Parameter Data File
! BFU520_APG2013_37_A05_12p0V_1to20mA_NF_CM01
! Date/time: Tue Apr 23 19:55:39 2013
! freq range =  0.4000 to  2.0000 GHz, 37 points
! bias range =  0.9950 to 20.0000 mA, 8 points
! bias supplies used: 1 1 0 0 0 0
! VAR bias_mode= 1     ! Specify V_out, I_out
! VAR bias_var = 1     ! Bias variable = I_out
! VAR V_out= 12.001000
! VAR I_out= 0.995000
! VAR V_in= 0.786100
! VAR I_in= 0.008600
! Device data file deembeded for feedlines and parallel
! Original file: \06 Compressed Noise after Statistics\BFU520_APG2013_37_A05_12p0V_001mA_NF_CM01_R.sf
! Feed-files: PR047V01_250413_Feed1.s2p, PR047V01_250413_Feed2.s2p
! Parallel-file: PR047V01_250413_Par.s2p
# MHz S MA R 50
!  Freq-MHz   S11-mag  S11-arg   S21-mag  S21-arg   S12-mag  S12-arg   S22-mag  S22-arg
        400   0.93088   -32.05    3.3054   153.66   0.06269    68.61   0.96347   -16.97
        420   0.92764   -33.65    3.3087   152.45   0.06558    67.66   0.96046   -17.78
        433   0.92541   -34.62    3.2943   151.57  0.067356    67.02   0.95852   -18.26
        440   0.92467   -35.17    3.2933   151.16   0.06833    66.66   0.95792   -18.55
        460   0.92079   -36.71    3.2838   150.01  0.071102    65.68   0.95531   -19.36
        480   0.91819   -38.20    3.2539   148.77  0.073678    64.68   0.95082   -20.12
        500    0.9135   -39.77    3.2555   147.58   0.07633    63.72   0.94762   -20.90
        550   0.90303   -43.70    3.2191   144.48  0.082489    61.22   0.93806   -22.82
        600   0.89435   -47.39    3.1961   141.65  0.088603    59.00   0.92949   -24.64
        650   0.88513   -50.96    3.1242   138.82  0.094419    56.72   0.92057   -26.47
        700   0.87436   -54.86    3.0983   135.84  0.099453    54.44    0.9103   -28.22
        750   0.86372   -58.27    3.0376   133.12   0.10467    52.36   0.90157   -29.91
        800   0.85425   -61.94    3.0038   130.42   0.10931    50.32   0.88992   -31.53
        850   0.84261   -65.49    2.9593   127.72   0.11383    48.23   0.88142   -33.09
        900   0.83113   -68.83    2.9133   125.10    0.1181    46.36   0.87219   -34.67
        950   0.82172   -72.39    2.8761   122.54   0.12172    44.34   0.86092   -36.24
       1000   0.81299   -75.59    2.8233   120.03   0.12539    42.50   0.85286   -37.67
       1050   0.80097   -78.93    2.7731   117.44   0.12858    40.61   0.84231   -39.23
       1100   0.79178   -82.20    2.7205   115.04   0.13134    38.89   0.83304   -40.53
       1150   0.78078   -85.33    2.6739   112.69   0.13457    37.23   0.82556   -41.81
       1200   0.77096   -88.65    2.6373   110.31   0.13685    35.46   0.81559   -43.26
       1250    0.7623   -91.64    2.5818   108.14   0.13925    33.99   0.80874   -44.33
       1300   0.75193   -94.70    2.5518   105.88   0.14127    32.36   0.79947   -45.73
       1350   0.74384   -97.71    2.5028   103.67   0.14289    30.79   0.79077   -46.99
       1400    0.7369  -100.65     2.461   101.56   0.14447    29.35   0.78393   -48.08
       1450   0.72604  -103.64    2.4167    99.37    0.1462    27.88   0.77702   -49.32
       1500   0.71887  -106.57    2.3731    97.26   0.14721    26.46   0.76988   -50.49
       1550   0.71077  -109.23    2.3297    95.28   0.14833    25.12   0.76358   -51.55
       1600   0.70217  -112.22    2.2962    93.20   0.14884    23.70    0.7551   -52.81
       1650   0.69746  -114.86    2.2539    91.32   0.14926    22.54   0.74916   -53.79
       1700   0.69002  -117.39    2.2177    89.49   0.14941    21.37   0.74139   -54.87
       1750   0.68244  -120.33    2.1788    87.48   0.15037    20.09   0.73662   -55.89
       1800   0.67955  -122.81     2.143    85.73   0.15034    19.05   0.73156   -56.82
       1850   0.67157  -125.51    2.1058    83.73   0.15098    17.82   0.72788   -57.87
       1900   0.66583  -128.18    2.0709    81.94    0.1504    16.65   0.72183   -58.98
       1950   0.66307  -130.32    2.0313    80.24   0.15015    15.73   0.71868   -59.86
       2000   0.65538  -132.95    1.9985    78.43   0.14939    14.66   0.71185   -60.98

!  
! Device Noise Parameters
!  Freq-MHz   Fmin-dB  Gopt-mag  Gopt-arg   Rn-Ohm_normalized
        400    0.6286   0.65410    19.55    0.3630
        420    0.5319   0.63625    21.24    0.3446
        433    0.6256   0.64832    20.96    0.4104
        440    0.6066   0.64285    21.37    0.3560
        460    0.6138   0.64370    22.57    0.3576
        480    0.6405   0.65162    22.91    0.3752
        500    0.5909   0.61789    25.55    0.3298
        550    0.7065   0.64516    26.54    0.3736
        600    0.6503   0.61632    27.18    0.3553
        650    0.6037   0.61129    32.17    0.3037
        700    0.7019   0.62294    34.65    0.3482
        750    0.6821   0.63265    35.63    0.3390
        800    0.6952   0.62323    39.52    0.3414
        850    0.6986   0.63292    43.90    0.3202
        900    0.7227   0.63556    44.08    0.3313
        950    0.7132   0.61140    47.06    0.3357
       1000    0.7173   0.60839    50.00    0.3303
       1050    0.7231   0.59971    53.01    0.3256
       1100    0.7342   0.60996    54.91    0.2961
       1150    0.7505   0.60526    57.49    0.2871
       1200    0.8022   0.61362    60.26    0.3163
       1250    0.8113   0.61596    62.71    0.3033
       1300    0.7994   0.60901    65.27    0.2928
       1350    0.8544   0.59043    69.72    0.2857
       1400    0.7688   0.61713    71.95    0.2610
       1450    1.0913   0.61914    71.61    0.3463
       1500    0.9913   0.61407    76.23    0.2840
       1550    0.9788   0.56389    78.32    0.2582
       1600    0.7372   0.60081    82.05    0.2099
       1650    0.7048   0.61374    84.76    0.1864
       1700    0.8432   0.61102    88.77    0.2304
       1750    0.8156   0.54921    91.46    0.1908
       1800    0.3621   0.54206    97.15    0.1186
       1850    0.7163   0.55592    93.82    0.1745
       1900    0.8983   0.75937    94.68    0.2201
       1950    0.8892   0.74995   100.73    0.2023
       2000    0.8901   0.70149   102.38    0.1861

