! Filename:  P:\Prog\Test\Noise\ATS_data\Testdata_Net\06 Compressed Noise after Statistics\BFU520_APG2013_37_A05_12p0V_010mA_NF_CM01_D.sf
! Date/Time: Fri 26/Apr/2013 14:13:14
! BFU520_APG2013_37_A05_12p0V_1to20mA_NF_CM01_Bias6_R.sf
! Noise Parameter Data File
! BFU520_APG2013_37_A05_12p0V_1to20mA_NF_CM01
! Date/time: Tue Apr 23 19:55:39 2013
! VAR V_out= 12.001000
! VAR I_out= 9.995000
! VAR V_in= 0.809700
! VAR I_in= 0.100205
! Device data file deembeded for feedlines and parallel
! Original file: \06 Compressed Noise after Statistics\BFU520_APG2013_37_A05_12p0V_010mA_NF_CM01_R.sf
! Feed-files: PR047V01_250413_Feed1.s2p, PR047V01_250413_Feed2.s2p
! Parallel-file: PR047V01_250413_Par.s2p
# MHz S MA R 50
!  Freq-MHz   S11-mag  S11-arg   S21-mag  S21-arg   S12-mag  S12-arg   S22-mag  S22-arg
        400   0.55328   -91.21    15.774   123.26  0.038778    53.89   0.67045   -40.95
        420   0.54614   -94.25    15.327   121.59  0.039776    53.20   0.65527   -42.00
        433   0.54096   -96.22    15.044   120.51  0.040399    52.78   0.64555   -42.58
        440   0.53873   -97.31    14.903   119.93  0.040699    52.52   0.64071   -42.90
        460   0.53204  -100.13    14.484   118.39   0.04159    51.96   0.62724   -43.82
        480   0.52682  -102.94    14.096   116.91  0.042378    51.41    0.6128   -44.59
        500   0.52049  -105.68    13.717   115.47  0.043161    50.90   0.60036   -45.38
        550    0.5058  -112.26    12.855   111.92  0.044775    49.96   0.56862   -47.02
        600   0.49526  -117.78    12.068   108.98  0.046608    49.29   0.54463   -48.46
        650   0.48684  -123.08    11.346   106.22  0.048197    48.72   0.52199   -49.83
        700   0.47892  -127.77    10.693   103.67  0.049639    48.39   0.50188   -50.78
        750   0.47178  -132.43    10.111   101.29  0.051111    48.18   0.48448   -51.81
        800    0.4672  -136.42    9.5828    99.10  0.052534    48.09   0.46837   -52.75
        850   0.46255  -140.39    9.1051    97.04  0.053902    47.97   0.45423   -53.46
        900   0.45659  -144.27     8.666    95.02   0.05524    48.03   0.44226   -54.35
        950   0.45483  -147.57    8.2724    93.20  0.056565    48.11   0.43078   -55.04
       1000   0.45114  -150.64    7.9063    91.42  0.057976    48.27   0.42142   -55.65
       1050   0.44827  -154.08    7.5675    89.66   0.05929    48.36   0.41278   -56.49
       1100   0.44763  -156.59     7.254    88.09  0.060659    48.59   0.40498   -56.95
       1150   0.44468  -159.61    6.9655    86.50  0.062034    48.71   0.39781   -57.64
       1200   0.44358  -162.38    6.7009    84.95  0.063367    48.87   0.39157   -58.37
       1250   0.44345  -164.60     6.455    83.57  0.064795    49.14   0.38594   -58.73
       1300   0.44048  -167.20    6.2258    82.12  0.066183    49.29   0.38108   -59.54
       1350   0.44062  -169.46     6.012    80.76  0.067565    49.51   0.37634   -60.17
       1400   0.44089  -171.42    5.8159    79.45  0.069058    49.74   0.37229   -60.61
       1450   0.43905  -174.15    5.6248    78.05  0.070454    49.83   0.36927   -61.47
       1500   0.44019  -176.02     5.446    76.75  0.071904    49.99   0.36606   -62.11
       1550   0.43885  -177.92    5.2792    75.54  0.073361    50.19   0.36301   -62.65
       1600   0.43855   179.74    5.1169    74.24  0.074739    50.27    0.3605   -63.48
       1650   0.44006   178.44    4.9732    73.12  0.076292    50.51   0.35832   -63.92
       1700   0.43884   176.51    4.8362    72.01  0.077799    50.68   0.35625   -64.61
       1750   0.43938   174.25    4.6985    70.77  0.079226    50.70   0.35404   -65.51
       1800    0.4413   173.02     4.583    69.67   0.08086    50.89    0.3529   -65.94
       1850   0.44066   170.85     4.458    68.42  0.082285    50.88   0.35258   -66.90
       1900    0.4412   169.26    4.3414    67.31  0.083762    50.92   0.35123   -67.67
       1950   0.44174   168.23    4.2377    66.26  0.085281    51.03   0.35087   -68.17
       2000   0.44088   166.28    4.1238    65.14  0.086508    51.12   0.34976   -69.26

!  
! Device Noise Parameters
!  Freq-MHz   Fmin-dB  Gopt-mag  Gopt-arg   Rn-Ohm_normalized
        400    0.9924   0.03201   110.71    0.1157
        420    0.9120   0.05548   107.89    0.1028
        433    0.9329   0.03327    96.27    0.1080
        440    0.9210   0.03703    95.98    0.1055
        460    0.9250   0.03006   124.45    0.1080
        480    0.9211   0.03558    98.55    0.1074
        500    0.9213   0.03458   115.13    0.1105
        550    0.9821   0.04283    98.81    0.1127
        600    0.9648   0.02091    60.79    0.1270
        650    0.9541   0.05029   113.77    0.1097
        700    0.9716   0.04895   113.43    0.1120
        750    0.9662   0.04114   132.03    0.1090
        800    0.9746   0.05389   130.45    0.1083
        850    0.9845   0.05680   127.72    0.1081
        900    0.9876   0.05691   128.74    0.1076
        950    0.9829   0.05980   138.95    0.1068
       1000    0.9993   0.06913   133.09    0.1058
       1050    1.0089   0.06831   134.03    0.1077
       1100    1.0075   0.07226   142.33    0.1046
       1150    0.9976   0.07432   140.36    0.1108
       1200    1.0256   0.07450   139.78    0.1090
       1250    1.0306   0.08676   146.96    0.1050
       1300    1.0280   0.08646   148.93    0.1081
       1350    1.0500   0.08911   152.19    0.1062
       1400    1.0391   0.09638   152.23    0.1064
       1450    1.1152   0.09944   155.82    0.1021
       1500    1.0896   0.11262   157.28    0.1036
       1550    1.0812   0.10645   160.43    0.1042
       1600    1.0795   0.11126   164.08    0.1022
       1650    1.0672   0.11962   164.52    0.1021
       1700    1.0832   0.12586   170.48    0.1001
       1750    1.0722   0.12354   170.23    0.1016
       1800    1.0076   0.14072   168.76    0.1002
       1850    1.0816   0.13737   172.64    0.0967
       1900    1.1050   0.13293   175.32    0.1031
       1950    1.1360   0.15128   178.88    0.0971
       2000    1.1333   0.15202   179.02    0.0982

