! Filename:  P:\Prog\Test\Noise\ATS_data\Testdata_Net\06 Compressed Noise after Statistics\BFU520_APG2013_37_A05_03p3V_003mA_NF_CM01_D.sf
! Date/Time: Fri 26/Apr/2013 14:13:16
! BFU520_APG2013_37_A05_03p3V_1to20mA_NF_CM01_Bias3_R.sf
! Noise Parameter Data File
! BFU520_APG2013_37_A05_03p3V_1to20mA_NF_CM01
! Date/time: Tue Apr 23 15:18:41 2013
! VAR V_out= 3.300000
! VAR I_out= 2.995000
! VAR V_in= 0.818700
! VAR I_in= 0.034105
! Device data file deembeded for feedlines and parallel
! Original file: \06 Compressed Noise after Statistics\BFU520_APG2013_37_A05_03p3V_003mA_NF_CM01_R.sf
! Feed-files: PR047V01_250413_Feed1.s2p, PR047V01_250413_Feed2.s2p
! Parallel-file: PR047V01_250413_Par.s2p
# MHz S MA R 50
!  Freq-MHz   S11-mag  S11-arg   S21-mag  S21-arg   S12-mag  S12-arg   S22-mag  S22-arg
        400   0.78258   -54.80    8.2883   140.77  0.058891    59.78   0.86635   -28.66
        420   0.77433   -57.25    8.1951   139.12   0.06104    58.64   0.85691   -29.82
        433   0.76948   -58.75    8.1146   138.08  0.062392    57.87   0.85075   -30.49
        440   0.76743   -59.65    8.0884   137.53  0.063077    57.46   0.84763   -30.88
        460   0.75949   -62.00    7.9823   135.99  0.065086    56.32   0.83908   -32.00
        480   0.75285   -64.23    7.8588   134.49  0.066796    55.21   0.82761   -33.02
        500   0.74423   -66.62    7.7724   132.97  0.068578    54.20    0.8184   -34.01
        550   0.72422   -72.40    7.5248   129.15  0.072398    51.62   0.79287   -36.42
        600   0.70728   -77.69    7.2751   125.78    0.0762    49.44   0.77123   -38.59
        650   0.69203   -82.59    6.9875   122.64  0.079529    47.31   0.74982   -40.65
        700   0.67525   -87.68     6.754   119.42  0.082175    45.36   0.72833   -42.49
        750   0.66031   -92.26    6.4966   116.54  0.084849    43.64   0.70914   -44.27
        800    0.6467   -96.81    6.2778   113.73  0.087081    42.08   0.68956   -45.90
        850    0.6334  -101.22    6.0569   111.04   0.08916    40.55   0.67254   -47.38
        900   0.61964  -105.39    5.8503   108.46  0.091076    39.19    0.6571   -48.88
        950   0.60995  -109.43    5.6546   106.06    0.0925    37.93   0.64022   -50.25
       1000   0.60017  -113.15    5.4617   103.72  0.094014    36.80   0.62677   -51.48
       1050    0.5892  -116.98    5.2784   101.41  0.095154    35.71   0.61261   -52.82
       1100   0.58233  -120.40    5.1008    99.32  0.096271    34.83   0.60048   -53.83
       1150    0.5727  -123.98    4.9389    97.20  0.097516    33.88   0.58943   -54.94
       1200    0.5653  -127.38    4.7888    95.16  0.098295    33.05   0.57826   -56.10
       1250   0.55977  -130.46    4.6383    93.31  0.099267    32.39   0.56906   -56.91
       1300   0.55234  -133.60    4.5044    91.41  0.099893    31.69   0.55911   -58.04
       1350   0.54753  -136.55    4.3719    89.60   0.10051    31.11   0.55022   -58.97
       1400   0.54368  -139.39    4.2481    87.86   0.10115    30.58   0.54239   -59.77
       1450   0.53711  -142.54    4.1284    86.06   0.10178    30.01   0.53532   -60.79
       1500   0.53364  -145.18    4.0143    84.36   0.10222    29.55   0.52885   -61.69
       1550   0.52939  -147.79    3.9039    82.76    0.1027    29.15   0.52227   -62.48
       1600   0.52533  -150.55    3.8021    81.10   0.10296    28.76   0.51568   -63.43
       1650   0.52408  -152.78    3.7041    79.63   0.10335    28.54   0.51051   -64.12
       1700   0.52056  -155.20    3.6117    78.17   0.10357    28.38   0.50446   -64.94
       1750   0.51725  -157.89     3.522    76.59   0.10401    28.02   0.49986   -65.82
       1800   0.51699  -159.97    3.4421    75.19   0.10439    27.90   0.49616   -66.48
       1850   0.51401  -162.55    3.3574    73.61   0.10475    27.62   0.49301   -67.38
       1900   0.51206  -164.73    3.2787    72.20   0.10488    27.45   0.48914   -68.24
       1950   0.51185  -166.43    3.2036    70.86   0.10512    27.39   0.48657   -68.90
       2000   0.50888  -168.78    3.1273    69.44   0.10507    27.34   0.48258   -69.86

!  
! Device Noise Parameters
!  Freq-MHz   Fmin-dB  Gopt-mag  Gopt-arg   Rn-Ohm_normalized
        400    0.6487   0.36685    22.06    0.1701
        420    0.5622   0.36515    23.97    0.1519
        433    0.6307   0.37538    22.80    0.1579
        440    0.6027   0.37116    22.55    0.1514
        460    0.5707   0.34275    25.87    0.1516
        480    0.6178   0.36658    23.62    0.1549
        500    0.6060   0.35646    27.38    0.1485
        550    0.6583   0.36741    27.85    0.1648
        600    0.6588   0.36055    30.67    0.1596
        650    0.6296   0.34655    36.17    0.1482
        700    0.7034   0.34681    38.40    0.1481
        750    0.6710   0.34708    41.03    0.1455
        800    0.6802   0.32605    43.97    0.1444
        850    0.6864   0.33419    47.97    0.1438
        900    0.6883   0.33900    48.76    0.1460
        950    0.7073   0.33810    52.90    0.1420
       1000    0.7167   0.34501    55.71    0.1395
       1050    0.7319   0.33724    59.79    0.1350
       1100    0.7295   0.31913    59.48    0.1359
       1150    0.7526   0.33097    63.79    0.1326
       1200    0.7343   0.32626    66.38    0.1378
       1250    0.7829   0.31007    68.97    0.1340
       1300    0.8014   0.32414    72.74    0.1284
       1350    0.8073   0.32931    75.23    0.1260
       1400    0.7754   0.34104    83.34    0.1159
       1450    0.9008   0.31837    80.90    0.1283
       1500    0.8609   0.32214    84.41    0.1253
       1550    0.8347   0.32223    87.53    0.1183
       1600    0.7844   0.31200    91.38    0.1112
       1650    0.7867   0.31658    93.59    0.1096
       1700    0.8392   0.31764    97.28    0.1105
       1750    0.7755   0.30841    99.08    0.1072
       1800    0.6955   0.32406   104.16    0.0912
       1850    0.7808   0.31029   106.97    0.0970
       1900    0.8953   0.32477   106.31    0.1059
       1950    0.9363   0.32909   112.29    0.0974
       2000    0.9214   0.31743   115.32    0.0972

