! Filename:  P:\Prog\Test\Noise\ATS_data\Testdata_Net\06 Compressed Noise after Statistics\BFU520_APG2013_37_A05_12p0V_015mA_NF_CM01_D.sf
! Date/Time: Fri 26/Apr/2013 14:13:14
! BFU520_APG2013_37_A05_12p0V_1to20mA_NF_CM01_Bias7_R.sf
! Noise Parameter Data File
! BFU520_APG2013_37_A05_12p0V_1to20mA_NF_CM01
! Date/time: Tue Apr 23 19:55:39 2013
! VAR V_out= 12.001000
! VAR I_out= 15.005000
! VAR V_in= 0.800900
! VAR I_in= 0.153650
! Device data file deembeded for feedlines and parallel
! Original file: \06 Compressed Noise after Statistics\BFU520_APG2013_37_A05_12p0V_015mA_NF_CM01_R.sf
! Feed-files: PR047V01_250413_Feed1.s2p, PR047V01_250413_Feed2.s2p
! Parallel-file: PR047V01_250413_Par.s2p
# MHz S MA R 50
!  Freq-MHz   S11-mag  S11-arg   S21-mag  S21-arg   S12-mag  S12-arg   S22-mag  S22-arg
        400   0.49025  -107.67    17.471   117.28   0.03358    53.97   0.59512   -43.97
        420   0.48623  -110.69    16.888   115.71  0.034379    53.57   0.57994   -44.84
        433   0.48272  -112.65    16.527   114.69  0.034884    53.33   0.57035   -45.31
        440   0.48147  -113.69    16.343   114.15   0.03515    53.21   0.56557   -45.55
        460   0.47768  -116.50    15.816   112.71   0.03589    52.88   0.55249   -46.28
        480   0.47487  -119.17    15.332   111.34  0.036552    52.61   0.53886   -46.87
        500    0.4709  -121.77     14.86   110.02  0.037273    52.40   0.52714   -47.48
        550   0.46239  -127.99    13.809   106.76   0.03873    52.18   0.49776   -48.62
        600   0.45734  -133.08    12.878   104.09  0.040474    52.06   0.47648   -49.68
        650   0.45314  -137.95    12.042   101.57  0.042014    52.00   0.45659   -50.70
        700    0.4497  -142.08    11.298    99.29  0.043511    52.13   0.43935   -51.29
        750   0.44639  -146.30    10.641    97.12   0.04506    52.36   0.42481   -52.04
        800   0.44473  -149.81     10.05    95.15  0.046602    52.60   0.41145   -52.75
        850   0.44285  -153.27    9.5232    93.28  0.048088    52.83   0.39977   -53.23
        900   0.44002  -156.70    9.0401    91.46  0.049607    53.12   0.39018   -53.93
        950   0.44006  -159.56     8.611    89.80  0.051145    53.42   0.38105   -54.46
       1000   0.43827  -162.25     8.215    88.18  0.052733    53.73   0.37379   -54.92
       1050   0.43766  -165.26      7.85    86.57  0.054306    53.98   0.36728   -55.66
       1100    0.4383  -167.36     7.516    85.14  0.055916    54.30   0.36128   -56.01
       1150   0.43682  -170.02    7.2065    83.69  0.057484    54.51   0.35581   -56.62
       1200   0.43726  -172.42    6.9247    82.26  0.059099    54.72   0.35124   -57.31
       1250   0.43793  -174.29    6.6657    80.98  0.060744    55.03   0.34703   -57.60
       1300   0.43619  -176.59    6.4218    79.64  0.062399    55.20   0.34365   -58.38
       1350   0.43713  -178.62    6.1965    78.38  0.064026    55.41   0.34022   -58.99
       1400   0.43797   179.75    5.9906    77.16  0.065785    55.63   0.33732   -59.39
       1450   0.43744   177.29    5.7895    75.85  0.067449    55.70   0.33545   -60.26
       1500   0.43894   175.68    5.6023    74.65  0.069094    55.83   0.33331   -60.91
       1550   0.43823   174.01    5.4285    73.51  0.070808    55.92   0.33126   -61.44
       1600   0.43873   171.92    5.2574    72.30  0.072436    55.98   0.32974   -62.29
       1650   0.44022   170.84    5.1082    71.24  0.074241    56.15   0.32836   -62.73
       1700   0.43955   169.13    4.9647    70.20   0.07596    56.25   0.32717   -63.44
       1750   0.44075   167.11    4.8209    69.03  0.077605    56.21   0.32573   -64.39
       1800   0.44282   166.06    4.7019    67.99  0.079491    56.29   0.32531   -64.81
       1850   0.44249   164.12    4.5716    66.81  0.081127    56.21   0.32573   -65.84
       1900   0.44351   162.65    4.4499    65.76  0.082799    56.16   0.32495   -66.65
       1950   0.44405   161.80    4.3435    64.76  0.084535    56.19   0.32521   -67.15
       2000    0.4435   160.04     4.225    63.70  0.085981    56.20   0.32478   -68.32

!  
! Device Noise Parameters
!  Freq-MHz   Fmin-dB  Gopt-mag  Gopt-arg   Rn-Ohm_normalized
        400    1.1302   0.08902   178.39    0.1220
        420    1.0908   0.12091   176.36    0.0979
        433    1.0924   0.10332   172.85    0.1053
        440    1.0747   0.09606   177.85    0.1065
        460    1.0763   0.12356  -174.34    0.1039
        480    1.0827   0.10500  -177.26    0.1068
        500    1.0998   0.11462   176.20    0.1038
        550    1.1380   0.08388   177.81    0.1180
        600    1.1515   0.08640  -178.14    0.1182
        650    1.1194   0.11340   179.44    0.1061
        700    1.1426   0.11345   179.86    0.1064
        750    1.1305   0.11543  -175.25    0.1072
        800    1.1418   0.12356  -176.24    0.1055
        850    1.1494   0.12855  -179.01    0.1039
        900    1.1534   0.12594  -177.99    0.1049
        950    1.1539   0.13749  -174.82    0.1019
       1000    1.1636   0.13265  -174.27    0.1048
       1050    1.1675   0.13491  -174.29    0.1051
       1100    1.1700   0.13951  -172.88    0.1042
       1150    1.1856   0.14209  -172.15    0.1041
       1200    1.1891   0.14554  -172.17    0.1045
       1250    1.1960   0.14785  -172.09    0.1050
       1300    1.2093   0.14764  -169.09    0.1079
       1350    1.2087   0.15935  -170.76    0.1033
       1400    1.2064   0.16443  -172.70    0.1029
       1450    1.2688   0.16164  -166.33    0.1044
       1500    1.2461   0.16181  -166.92    0.1082
       1550    1.2287   0.16447  -166.90    0.1075
       1600    1.2511   0.17014  -165.14    0.1051
       1650    1.2378   0.17379  -164.25    0.1061
       1700    1.2376   0.17342  -167.55    0.1091
       1750    1.2555   0.17360  -164.49    0.1087
       1800    1.2525   0.18621  -164.70    0.0994
       1850    1.2435   0.17750  -161.88    0.1076
       1900    1.2766   0.18751  -156.46    0.1096
       1950    1.2811   0.17387  -160.13    0.1153
       2000    1.2653   0.18718  -161.48    0.1165

