! Filename:  P:\Prog\Test\Noise\ATS_data\Testdata_Net\06 Compressed Noise after Statistics\BFU520_APG2013_37_A05_08p0V_010mA_NF_CM01_D.sf
! Date/Time: Fri 26/Apr/2013 14:13:12
! BFU520_APG2013_37_A05_08p0V_1to20mA_NF_CM01_Bias6_R.sf
! Noise Parameter Data File
! BFU520_APG2013_37_A05_08p0V_1to20mA_NF_CM01
! Date/time: Tue Apr 23 18:16:22 2013
! VAR V_out= 8.000000
! VAR I_out= 10.000000
! VAR V_in= 0.826400
! VAR I_in= 0.110205
! Device data file deembeded for feedlines and parallel
! Original file: \06 Compressed Noise after Statistics\BFU520_APG2013_37_A05_08p0V_010mA_NF_CM01_R.sf
! Feed-files: PR047V01_250413_Feed1.s2p, PR047V01_250413_Feed2.s2p
! Parallel-file: PR047V01_250413_Par.s2p
# MHz S MA R 50
!  Freq-MHz   S11-mag  S11-arg   S21-mag  S21-arg   S12-mag  S12-arg   S22-mag  S22-arg
        400   0.54519   -95.18    15.752   121.95  0.038365    53.54   0.65881   -41.61
        420   0.53875   -98.25    15.288   120.29  0.039362    52.88   0.64339   -42.63
        433   0.53422  -100.21    14.997   119.22  0.039903    52.50   0.63359   -43.19
        440   0.53274  -101.28    14.853   118.65  0.040223    52.24   0.62876   -43.48
        460   0.52641  -104.18    14.423   117.12  0.041092    51.65   0.61529   -44.37
        480   0.52187  -106.93    14.023   115.65  0.041849    51.16    0.6008   -45.11
        500   0.51596  -109.63    13.633   114.23    0.0426    50.70   0.58836   -45.86
        550   0.50272  -116.22    12.754   110.71  0.044151    49.84   0.55695   -47.39
        600   0.49411  -121.71    11.956   107.82  0.045938    49.23    0.5333   -48.76
        650   0.48738  -126.90    11.227   105.10  0.047474    48.72   0.51107   -50.05
        700   0.48067  -131.48     10.57   102.59  0.048894    48.47   0.49134   -50.91
        750   0.47467  -136.06    9.9857   100.24  0.050332    48.34    0.4745   -51.90
        800   0.47077  -139.98    9.4566    98.08  0.051731    48.32   0.45883   -52.78
        850   0.46709  -143.81      8.98    96.05  0.053118    48.27    0.4452   -53.45
        900   0.46238  -147.57    8.5416    94.07  0.054431    48.34   0.43367   -54.29
        950   0.46082  -150.76    8.1486    92.27  0.055785    48.50   0.42262   -54.94
       1000   0.45769  -153.73    7.7852    90.51  0.057173    48.69   0.41371   -55.51
       1050   0.45562  -157.10    7.4491    88.77  0.058504    48.79   0.40548   -56.32
       1100   0.45548  -159.48    7.1377    87.24  0.059894    49.08   0.39806   -56.76
       1150   0.45287  -162.41    6.8516    85.66  0.061284    49.23   0.39127   -57.43
       1200   0.45227  -165.05    6.5894    84.12  0.062645    49.40   0.38537   -58.16
       1250   0.45257  -167.22    6.3466    82.76  0.064073    49.70   0.38007   -58.51
       1300   0.44978  -169.66    6.1195    81.32  0.065478    49.89   0.37554   -59.30
       1350   0.45021  -171.92     5.908    79.97  0.066918    50.11   0.37107   -59.93
       1400   0.45075  -173.81    5.7141    78.68   0.06842    50.37   0.36728   -60.35
       1450   0.44943  -176.43     5.526    77.28  0.069874    50.48   0.36451   -61.22
       1500   0.45049  -178.25    5.3491    76.01  0.071311    50.65   0.36156   -61.86
       1550    0.4495   179.93    5.1853    74.80  0.072808    50.82   0.35882   -62.40
       1600   0.44944   177.69    5.0252    73.51  0.074213    50.94   0.35649   -63.23
       1650   0.45086   176.39    4.8828    72.40  0.075776    51.17   0.35447   -63.68
       1700   0.44985   174.55     4.748    71.29  0.077301    51.34   0.35263   -64.38
       1750   0.45077   172.39    4.6122    70.06  0.078733    51.40   0.35056   -65.27
       1800   0.45263   171.19    4.4988    68.97   0.08046    51.58   0.34967   -65.70
       1850     0.452   169.09    4.3758    67.72  0.081881    51.56    0.3495   -66.68
       1900   0.45278   167.54    4.2612    66.62  0.083357    51.63   0.34835   -67.46
       1950   0.45351   166.57    4.1589    65.57  0.084902    51.74   0.34817   -67.98
       2000   0.45253   164.67    4.0474    64.45  0.086183    51.81   0.34718   -69.07

!  
! Device Noise Parameters
!  Freq-MHz   Fmin-dB  Gopt-mag  Gopt-arg   Rn-Ohm_normalized
        400    0.9437   0.03365   109.42    0.1124
        420    0.8687   0.04434   147.63    0.0998
        433    0.8918   0.03520   132.74    0.1027
        440    0.8672   0.03906   135.78    0.0989
        460    0.8894   0.04381   168.70    0.0996
        480    0.8729   0.03965   137.08    0.1005
        500    0.9023   0.05293   152.71    0.0989
        550    0.9263   0.04218    94.32    0.1115
        600    0.9408   0.02782   107.36    0.1153
        650    0.9243   0.04977   136.98    0.1033
        700    0.9416   0.06261   141.56    0.0983
        750    0.9280   0.06115   144.68    0.1000
        800    0.9254   0.06769   145.44    0.1004
        850    0.9479   0.07469   147.25    0.0991
        900    0.9584   0.08021   149.52    0.0951
        950    0.9603   0.07934   157.40    0.0957
       1000    0.9563   0.08857   150.41    0.0956
       1050    0.9769   0.09033   151.33    0.0958
       1100    0.9742   0.10232   151.49    0.0949
       1150    0.9894   0.09781   156.11    0.0955
       1200    0.9982   0.10275   156.20    0.0948
       1250    0.9753   0.10424   155.94    0.0992
       1300    1.0146   0.11071   158.66    0.0962
       1350    1.0222   0.11591   161.67    0.0931
       1400    1.0263   0.12485   158.82    0.0881
       1450    1.0707   0.10907   166.02    0.1009
       1500    1.0602   0.12887   166.15    0.0933
       1550    1.0173   0.12947   166.05    0.0985
       1600    1.0333   0.13176   166.61    0.0931
       1650    1.0512   0.14525   172.23    0.0888
       1700    1.0556   0.13012   168.80    0.0981
       1750    1.0560   0.14219   172.58    0.0917
       1800    1.0311   0.15702   178.57    0.0874
       1850    1.0322   0.15025   175.71    0.0927
       1900    1.0680   0.14826   176.05    0.0966
       1950    1.1016   0.16002   179.40    0.0930
       2000    1.0984   0.15588  -178.55    0.0970

