! Filename:  P:\Prog\Test\Noise\ATS_data\Testdata_Net\06 Compressed Noise after Statistics\BFU520_APG2013_37_A05_05p0V_008mA_NF_CM01_D.sf
! Date/Time: Fri 26/Apr/2013 14:13:10
! BFU520_APG2013_37_A05_05p0V_1to20mA_NF_CM01_Bias5_R.sf
! Noise Parameter Data File
! BFU520_APG2013_37_A05_05p0V_1to20mA_NF_CM01
! Date/time: Tue Apr 23 16:46:24 2013
! VAR V_out= 5.000000
! VAR I_out= 7.995000
! VAR V_in= 0.835500
! VAR I_in= 0.091105
! Device data file deembeded for feedlines and parallel
! Original file: \06 Compressed Noise after Statistics\BFU520_APG2013_37_A05_05p0V_008mA_NF_CM01_R.sf
! Feed-files: PR047V01_250413_Feed1.s2p, PR047V01_250413_Feed2.s2p
! Parallel-file: PR047V01_250413_Par.s2p
# MHz S MA R 50
!  Freq-MHz   S11-mag  S11-arg   S21-mag  S21-arg   S12-mag  S12-arg   S22-mag  S22-arg
        400   0.58134   -89.28    14.441   124.48  0.042058    53.32   0.69105   -40.26
        420   0.57436   -92.34    14.048   122.78   0.04315    52.49   0.67583   -41.36
        433   0.56924   -94.29      13.8   121.69  0.043796    52.01   0.66617   -41.95
        440    0.5671   -95.39    13.679   121.11   0.04414    51.72   0.66142   -42.28
        460   0.56061   -98.25    13.309   119.53  0.045106    51.00   0.64804   -43.25
        480   0.55522  -101.05    12.965   118.01  0.045967    50.36   0.63337   -44.07
        500   0.54854  -103.80     12.63   116.55  0.046765    49.79   0.62085   -44.90
        550   0.53373  -110.46    11.865   112.91  0.048426    48.51   0.58882   -46.63
        600   0.52333  -116.06     11.16   109.88  0.050322    47.62   0.56421   -48.16
        650   0.51469  -121.36    10.506   107.05   0.05194    46.82   0.54107   -49.62
        700   0.50686  -126.14    9.9152   104.41  0.053354    46.31   0.52023   -50.65
        750   0.49921  -130.84    9.3852   101.95  0.054806    45.92   0.50229   -51.78
        800   0.49434  -134.94    8.9031    99.68  0.056152    45.67   0.48555   -52.77
        850   0.48953  -138.92    8.4664    97.55  0.057466    45.45   0.47099   -53.56
        900   0.48371  -142.82    8.0646    95.46  0.058731    45.34    0.4584   -54.50
        950   0.48133  -146.19    7.7012    93.58  0.059949    45.34   0.44633   -55.24
       1000    0.4776  -149.31    7.3645    91.74  0.061233    45.40   0.43648   -55.90
       1050   0.47465  -152.75    7.0523    89.92   0.06243    45.41   0.42727   -56.77
       1100   0.47411  -155.34    6.7633    88.30    0.0637    45.58   0.41915   -57.29
       1150   0.47093  -158.36    6.4965    86.65  0.064947    45.65   0.41163   -58.00
       1200   0.46949  -161.16    6.2511    85.04  0.066152    45.79   0.40494   -58.78
       1250   0.46932  -163.44    6.0234    83.62  0.067453    46.01   0.39908   -59.18
       1300   0.46625  -166.03    5.8105    82.12  0.068692    46.17   0.39383   -60.00
       1350   0.46621  -168.36    5.6118    80.71  0.069985    46.38   0.38875   -60.65
       1400   0.46635  -170.35    5.4289    79.37  0.071298    46.63   0.38447   -61.10
       1450   0.46472  -173.07    5.2524    77.92  0.072576    46.70   0.38109   -61.99
       1500   0.46546  -174.98    5.0868    76.59  0.073875    46.88   0.37773   -62.65
       1550   0.46421  -176.89    4.9318    75.33  0.075222    47.07   0.37455   -63.22
       1600   0.46394  -179.20    4.7816    73.99   0.07647    47.21    0.3718   -64.05
       1650   0.46519   179.39    4.6467    72.84  0.077894    47.46   0.36942   -64.51
       1700   0.46405   177.49    4.5193    71.68   0.07923    47.69   0.36713   -65.21
       1750   0.46467   175.25    4.3908    70.40  0.080555    47.76   0.36471   -66.10
       1800   0.46665   174.01    4.2841    69.28  0.082064    47.98   0.36363   -66.55
       1850   0.46564   171.80    4.1678    67.99  0.083385    48.00    0.3631   -67.52
       1900   0.46603   170.16    4.0591    66.85  0.084743    48.10   0.36166   -68.27
       1950   0.46701   169.14    3.9624    65.77  0.086109    48.26   0.36132   -68.81
       2000   0.46574   167.18    3.8571    64.60  0.087271    48.39   0.36009   -69.87

!  
! Device Noise Parameters
!  Freq-MHz   Fmin-dB  Gopt-mag  Gopt-arg   Rn-Ohm_normalized
        400    0.8540   0.07136    44.36    0.1164
        420    0.7959   0.04108    84.92    0.0973
        433    0.8132   0.05118    68.02    0.1005
        440    0.7953   0.04876    66.10    0.0979
        460    0.8039   0.05813    86.05    0.0961
        480    0.7947   0.04991    73.41    0.1001
        500    0.8213   0.03718    92.01    0.0999
        550    0.8294   0.06303    59.49    0.1126
        600    0.8994   0.06484    66.15    0.1085
        650    0.8391   0.05649    85.86    0.1023
        700    0.8716   0.06596    91.90    0.0995
        750    0.8589   0.05061    98.46    0.1005
        800    0.8399   0.06194   100.78    0.1038
        850    0.8537   0.06830   101.60    0.1029
        900    0.8723   0.07341   107.98    0.0981
        950    0.8822   0.07021   117.54    0.0971
       1000    0.8974   0.08936   114.40    0.0941
       1050    0.8946   0.08172   116.92    0.0975
       1100    0.8997   0.09433   132.62    0.0907
       1150    0.9158   0.08829   126.34    0.0957
       1200    0.9144   0.09737   125.07    0.0964
       1250    0.9330   0.10303   129.07    0.0951
       1300    0.9697   0.10527   134.22    0.0934
       1350    0.9399   0.11387   134.15    0.0946
       1400    0.9402   0.11698   139.69    0.0912
       1450    1.0139   0.11462   142.96    0.0941
       1500    0.9963   0.12674   146.33    0.0898
       1550    0.9646   0.13200   146.35    0.0904
       1600    0.9790   0.12912   156.60    0.0872
       1650    0.9760   0.13099   152.27    0.0901
       1700    0.9687   0.14035   157.88    0.0886
       1750    0.9625   0.14163   163.51    0.0874
       1800    0.9332   0.15234   162.64    0.0840
       1850    0.9775   0.14334   164.74    0.0878
       1900    1.0029   0.15228   170.64    0.0876
       1950    1.0096   0.16585   171.85    0.0873
       2000    1.0363   0.15066   175.78    0.0907

