! Filename:  P:\Prog\Test\Noise\ATS_data\Testdata_Net\06 Compressed Noise after Statistics\BFU520_APG2013_37_A05_12p0V_002mA_NF_CM01_D.sf
! Date/Time: Fri 26/Apr/2013 14:13:13
! BFU520_APG2013_37_A05_12p0V_1to20mA_NF_CM01_Bias2_R.sf
! Noise Parameter Data File
! BFU520_APG2013_37_A05_12p0V_1to20mA_NF_CM01
! Date/time: Tue Apr 23 19:55:39 2013
! VAR V_out= 12.001000
! VAR I_out= 2.000000
! VAR V_in= 0.800200
! VAR I_in= 0.017900
! Device data file deembeded for feedlines and parallel
! Original file: \06 Compressed Noise after Statistics\BFU520_APG2013_37_A05_12p0V_002mA_NF_CM01_R.sf
! Feed-files: PR047V01_250413_Feed1.s2p, PR047V01_250413_Feed2.s2p
! Parallel-file: PR047V01_250413_Par.s2p
# MHz S MA R 50
!  Freq-MHz   S11-mag  S11-arg   S21-mag  S21-arg   S12-mag  S12-arg   S22-mag  S22-arg
        400    0.8661   -42.05    6.0174   147.72  0.058803    64.30   0.92252   -22.31
        420   0.86026   -44.08    5.9908   146.28  0.061275    63.23   0.91663   -23.30
        433   0.85652   -45.28    5.9489   145.33  0.062815    62.53    0.9127   -23.88
        440   0.85438   -45.99    5.9403   144.84  0.063628    62.12   0.91094   -24.23
        460   0.84832   -47.95    5.8966   143.49  0.065976    61.04   0.90564   -25.20
        480   0.84331   -49.77    5.8256   142.11  0.068036    59.98   0.89762   -26.12
        500   0.83625   -51.78    5.8001   140.73    0.0702    58.96    0.8915   -27.01
        550   0.81911   -56.64    5.6839   137.21  0.074995    56.30   0.87365   -29.24
        600   0.80453   -61.17    5.5736   134.05  0.079727    54.07   0.85835   -31.29
        650   0.79083   -65.41    5.4034   131.01  0.084093    51.75   0.84246   -33.32
        700   0.77451   -70.03    5.2937   127.82  0.087702    49.57    0.8256   -35.16
        750   0.75946   -74.04    5.1401   124.98  0.091381    47.58   0.81085   -36.96
        800   0.74618   -78.28    5.0267   122.14  0.094499    45.72   0.79377   -38.63
        850   0.73126   -82.31    4.8977   119.39   0.09749    43.84    0.7799   -40.19
        900   0.71613   -86.19    4.7763   116.72   0.10027    42.16   0.76637   -41.78
        950   0.70408   -90.10      4.66   114.18   0.10241    40.45   0.75084   -43.30
       1000   0.69256   -93.64    4.5355   111.71   0.10461    38.92   0.73888   -44.65
       1050   0.67899   -97.33    4.4147   109.23   0.10641    37.40   0.72517   -46.13
       1100   0.66951  -100.77    4.2929   106.96   0.10797    36.08   0.71322   -47.30
       1150   0.65707  -104.21    4.1857   104.70   0.10982    34.75   0.70292   -48.50
       1200   0.64671  -107.72    4.0864   102.45   0.11097    33.43   0.69109   -49.82
       1250   0.63842  -110.81     3.976   100.44   0.11225    32.36   0.68209   -50.74
       1300   0.62771  -114.02    3.8888    98.35   0.11321    31.21    0.6715   -52.01
       1350   0.62004  -117.12     3.789    96.34   0.11399    30.16   0.66165   -53.09
       1400   0.61383  -120.05    3.6993    94.43   0.11476    29.20   0.65361   -54.02
       1450   0.60344  -123.23    3.6101    92.44   0.11553    28.19    0.6458   -55.15
       1500    0.5977  -126.13     3.522    90.55   0.11595    27.30   0.63814   -56.15
       1550   0.59069  -128.78    3.4379    88.79   0.11643    26.48   0.63115   -57.05
       1600   0.58289  -131.80    3.3623    86.93   0.11655    25.62   0.62297   -58.14
       1650   0.58021  -134.27    3.2843    85.28    0.1167    25.01   0.61692   -58.93
       1700   0.57402  -136.77    3.2138    83.68    0.1167    24.44   0.60972   -59.85
       1750   0.56772  -139.73    3.1425    81.89   0.11707    23.65   0.60419   -60.77
       1800   0.56662  -142.00    3.0774    80.35   0.11704    23.20   0.59964   -61.52
       1850   0.55983  -144.75    3.0103    78.59   0.11724    22.51   0.59568   -62.49
       1900   0.55669  -147.25    2.9459    77.02    0.1169    21.95   0.59033   -63.41
       1950   0.55473  -149.18     2.883    75.55   0.11673    21.57   0.58727   -64.15
       2000   0.54897  -151.74    2.8213    73.95   0.11623    21.14   0.58156   -65.15

!  
! Device Noise Parameters
!  Freq-MHz   Fmin-dB  Gopt-mag  Gopt-arg   Rn-Ohm_normalized
        400    0.6598   0.45441    20.15    0.2241
        420    0.5775   0.45604    22.12    0.2036
        433    0.6396   0.47289    20.13    0.2240
        440    0.6072   0.46840    19.91    0.2123
        460    0.6058   0.45307    22.97    0.2088
        480    0.6169   0.45892    23.97    0.2163
        500    0.6128   0.45796    26.86    0.2024
        550    0.6488   0.47912    25.68    0.2292
        600    0.6486   0.46909    26.16    0.2238
        650    0.6176   0.45492    33.32    0.1969
        700    0.6886   0.46158    35.05    0.2078
        750    0.6715   0.46691    36.40    0.2029
        800    0.6883   0.46219    39.95    0.2002
        850    0.6930   0.46724    43.63    0.1963
        900    0.7015   0.45891    45.02    0.1961
        950    0.7119   0.45833    47.88    0.1950
       1000    0.7225   0.45744    50.24    0.1929
       1050    0.7244   0.46079    52.67    0.1916
       1100    0.7395   0.45536    56.23    0.1796
       1150    0.7548   0.44904    59.79    0.1746
       1200    0.7754   0.45338    60.72    0.1865
       1250    0.7745   0.44712    64.31    0.1787
       1300    0.7879   0.44727    66.00    0.1780
       1350    0.8134   0.44672    68.93    0.1742
       1400    0.7665   0.43743    70.94    0.1710
       1450    0.9783   0.44455    74.11    0.1762
       1500    0.8265   0.43604    76.49    0.1870
       1550    0.8129   0.42745    79.24    0.1710
       1600    0.8164   0.38986    84.50    0.1432
       1650    0.8173   0.43832    87.89    0.1265
       1700    0.8435   0.42266    88.50    0.1507
       1750    0.8115   0.41523    90.80    0.1345
       1800    0.6203   0.41627    94.82    0.1166
       1850    0.8370   0.40889    96.71    0.1161
       1900    0.9824   0.38736    99.03    0.1444
       1950    0.9833   0.40684   102.00    0.1416
       2000    0.9762   0.39224   105.19    0.1322

