! Filename:  P:\Prog\Test\Noise\ATS_data\Testdata_Net\06 Compressed Noise after Statistics\BFU520_APG2013_37_A05_12p0V_003mA_NF_CM01_D.sf
! Date/Time: Fri 26/Apr/2013 14:13:13
! BFU520_APG2013_37_A05_12p0V_1to20mA_NF_CM01_Bias3_R.sf
! Noise Parameter Data File
! BFU520_APG2013_37_A05_12p0V_1to20mA_NF_CM01
! Date/time: Tue Apr 23 19:55:39 2013
! VAR V_out= 12.001000
! VAR I_out= 3.005000
! VAR V_in= 0.806600
! VAR I_in= 0.027610
! Device data file deembeded for feedlines and parallel
! Original file: \06 Compressed Noise after Statistics\BFU520_APG2013_37_A05_12p0V_003mA_NF_CM01_R.sf
! Feed-files: PR047V01_250413_Feed1.s2p, PR047V01_250413_Feed2.s2p
! Parallel-file: PR047V01_250413_Par.s2p
# MHz S MA R 50
!  Freq-MHz   S11-mag  S11-arg   S21-mag  S21-arg   S12-mag  S12-arg   S22-mag  S22-arg
        400    0.8049   -50.81     8.251   142.65  0.055126    61.15   0.88001   -26.64
        420    0.7971   -53.15    8.1745   141.05  0.057199    59.99   0.87161   -27.73
        433   0.79215   -54.56    8.1007   140.04  0.058517    59.30   0.86599   -28.37
        440   0.79002   -55.39     8.078   139.50  0.059188    58.89   0.86324   -28.75
        460   0.78192   -57.60    7.9833   138.01  0.061141    57.80   0.85547   -29.82
        480   0.77535   -59.73    7.8677   136.55  0.062844    56.72   0.84481   -30.79
        500   0.76669   -62.00    7.7953   135.05  0.064613    55.73    0.8365   -31.74
        550   0.74599   -67.55    7.5732   131.30  0.068396    53.16   0.81272   -34.08
        600   0.72874   -72.57    7.3469   127.99  0.072148    51.05   0.79267   -36.18
        650   0.71241   -77.26    7.0719   124.86  0.075484    48.90    0.7723   -38.22
        700   0.69453   -82.24     6.856   121.65  0.078161    46.96    0.7518   -40.00
        750   0.67838   -86.62    6.6102   118.80  0.080873    45.22    0.7338   -41.76
        800   0.66395   -91.13    6.4041   115.98  0.083152    43.65   0.71446   -43.34
        850    0.6492   -95.40    6.1923   113.30  0.085285    42.08   0.69817   -44.79
        900   0.63381   -99.54    5.9946   110.70   0.08725    40.73   0.68291   -46.29
        950   0.62311  -103.53    5.8059   108.27   0.08877    39.41   0.66639   -47.65
       1000    0.6119  -107.17    5.6171   105.91  0.090315    38.25   0.65334   -48.87
       1050   0.59953  -111.02    5.4362   103.57  0.091518    37.11   0.63927   -50.22
       1100   0.59147  -114.46    5.2588   101.45  0.092676    36.19   0.62702   -51.21
       1150   0.58038  -117.96    5.1006    99.33  0.093949    35.23   0.61617   -52.32
       1200   0.57159  -121.47    4.9514    97.24  0.094792    34.33    0.6047   -53.47
       1250   0.56512  -124.52    4.8002    95.39  0.095733    33.67   0.59549   -54.26
       1300   0.55591  -127.71    4.6691    93.46  0.096468    32.93   0.58567   -55.39
       1350   0.54958  -130.75    4.5341    91.62  0.097104    32.29   0.57639   -56.33
       1400   0.54539  -133.58    4.4104    89.86   0.09776    31.75   0.56869   -57.11
       1450   0.53704  -136.79    4.2899    88.03  0.098395    31.13   0.56143   -58.15
       1500   0.53314  -139.52    4.1724    86.31   0.09883    30.64   0.55452   -59.02
       1550   0.52767  -142.10    4.0617    84.70  0.099336    30.22   0.54802   -59.80
       1600   0.52199  -145.04    3.9578    83.00  0.099606    29.78   0.54103   -60.75
       1650   0.52076  -147.29    3.8572    81.53  0.099969    29.55   0.53575   -61.42
       1700   0.51613  -149.73    3.7647    80.06   0.10027    29.36   0.52982   -62.23
       1750   0.51151  -152.64    3.6723    78.43   0.10068    28.95   0.52467   -63.11
       1800   0.51168  -154.66      3.59    77.04     0.101    28.85   0.52089   -63.74
       1850   0.50664  -157.34    3.5043    75.43   0.10137    28.51   0.51759   -64.67
       1900   0.50452  -159.67    3.4222    74.00   0.10146    28.32   0.51332   -65.50
       1950   0.50416  -161.36    3.3454    72.65   0.10168    28.26   0.51075   -66.15
       2000   0.49966  -163.88    3.2665    71.20   0.10162    28.17   0.50634   -67.11

!  
! Device Noise Parameters
!  Freq-MHz   Fmin-dB  Gopt-mag  Gopt-arg   Rn-Ohm_normalized
        400    0.6934   0.36179    20.03    0.1778
        420    0.6093   0.34671    20.32    0.1666
        433    0.6685   0.36505    19.19    0.1745
        440    0.6663   0.34065    18.90    0.1624
        460    0.6392   0.33302    22.49    0.1653
        480    0.6723   0.34276    22.34    0.1673
        500    0.6679   0.35300    25.17    0.1623
        550    0.6866   0.37373    24.79    0.1783
        600    0.6912   0.37198    27.92    0.1779
        650    0.6682   0.34199    33.82    0.1612
        700    0.7294   0.34794    35.41    0.1633
        750    0.6999   0.35772    38.88    0.1564
        800    0.7193   0.33927    41.60    0.1576
        850    0.7311   0.35237    43.77    0.1578
        900    0.7454   0.34819    45.56    0.1536
        950    0.7479   0.34648    48.35    0.1533
       1000    0.7564   0.34390    53.21    0.1486
       1050    0.7552   0.35005    53.28    0.1529
       1100    0.7732   0.34569    57.36    0.1432
       1150    0.7799   0.32203    59.68    0.1434
       1200    0.7948   0.34416    62.14    0.1468
       1250    0.7604   0.33803    65.80    0.1460
       1300    0.8244   0.33656    68.26    0.1404
       1350    0.8249   0.33865    70.82    0.1410
       1400    0.8042   0.33715    74.65    0.1303
       1450    0.9369   0.31733    76.46    0.1412
       1500    0.8829   0.33044    79.75    0.1377
       1550    0.8708   0.32911    82.45    0.1312
       1600    0.8417   0.28751    85.82    0.1243
       1650    0.8356   0.31993    89.98    0.1151
       1700    0.8829   0.32623    91.79    0.1217
       1750    0.8492   0.30616    93.66    0.1165
       1800    0.7410   0.31625   100.45    0.1027
       1850    0.8095   0.30857   100.53    0.1109
       1900    0.9370   0.30383   101.68    0.1193
       1950    0.9690   0.31545   105.83    0.1129
       2000    0.9311   0.30143   108.88    0.1167

