! Filename:  P:\Prog\Test\Noise\ATS_data\Testdata_Net\06 Compressed Noise after Statistics\BFU520_APG2013_37_A05_08p0V_008mA_NF_CM01_D.sf
! Date/Time: Fri 26/Apr/2013 14:13:12
! BFU520_APG2013_37_A05_08p0V_1to20mA_NF_CM01_Bias5_R.sf
! Noise Parameter Data File
! BFU520_APG2013_37_A05_08p0V_1to20mA_NF_CM01
! Date/time: Tue Apr 23 18:16:22 2013
! VAR V_out= 8.000000
! VAR I_out= 8.005000
! VAR V_in= 0.825700
! VAR I_in= 0.088000
! Device data file deembeded for feedlines and parallel
! Original file: \06 Compressed Noise after Statistics\BFU520_APG2013_37_A05_08p0V_008mA_NF_CM01_R.sf
! Feed-files: PR047V01_250413_Feed1.s2p, PR047V01_250413_Feed2.s2p
! Parallel-file: PR047V01_250413_Par.s2p
# MHz S MA R 50
!  Freq-MHz   S11-mag  S11-arg   S21-mag  S21-arg   S12-mag  S12-arg   S22-mag  S22-arg
        400   0.58818   -85.71    14.563   125.71  0.041732    54.11   0.70476   -39.34
        420   0.58022   -88.73    14.182   124.01  0.042895    53.26   0.68981   -40.44
        433   0.57537   -90.68     13.94   122.91  0.043521    52.75   0.68021   -41.05
        440     0.573   -91.75    13.823   122.32  0.043896    52.50   0.67551   -41.38
        460   0.56532   -94.61    13.461   120.74  0.044872    51.77   0.66227   -42.37
        480   0.55945   -97.40    13.122   119.23  0.045723    51.08   0.64762   -43.20
        500   0.55215  -100.10    12.794   117.75  0.046604    50.48   0.63509   -44.04
        550   0.53579  -106.76    12.039   114.08  0.048328    49.17   0.60304   -45.84
        600    0.5239  -112.37    11.342   111.03  0.050228    48.22   0.57828   -47.42
        650   0.51397  -117.76    10.689   108.17  0.051899    47.36   0.55482   -48.92
        700   0.50486  -122.59    10.099   105.49  0.053334    46.78   0.53368   -49.99
        750   0.49641  -127.38    9.5665   103.01   0.05479    46.32    0.5154   -51.16
        800   0.49058  -131.56     9.084   100.71   0.05618    46.02    0.4982   -52.18
        850   0.48473  -135.62    8.6432    98.56  0.057496    45.74   0.48324   -53.00
        900   0.47777  -139.61    8.2388    96.45  0.058755    45.60   0.47028   -53.96
        950   0.47486  -143.05    7.8715    94.54  0.059994    45.55   0.45783   -54.73
       1000   0.47053  -146.27    7.5312    92.68  0.061261    45.55   0.44759   -55.41
       1050   0.46706  -149.79    7.2146    90.84  0.062441    45.54   0.43803   -56.30
       1100   0.46579  -152.44    6.9202    89.21  0.063701    45.67   0.42957   -56.83
       1150   0.46193  -155.56    6.6494    87.54  0.064953    45.71   0.42168   -57.55
       1200   0.46028  -158.42    6.4009    85.92  0.066151    45.81   0.41474   -58.32
       1250   0.45964  -160.79    6.1692    84.48  0.067411    46.02   0.40855   -58.73
       1300   0.45643  -163.47    5.9533    82.97  0.068655    46.16   0.40304   -59.55
       1350     0.456  -165.87    5.7511    81.55  0.069929    46.33   0.39774   -60.21
       1400   0.45605  -167.95    5.5651    80.19  0.071223    46.56   0.39319   -60.66
       1450   0.45405  -170.75    5.3846    78.74  0.072495    46.64    0.3896   -61.54
       1500   0.45445  -172.71    5.2147    77.40  0.073755    46.79   0.38596   -62.19
       1550   0.45302  -174.72    5.0571    76.13  0.075052    46.97   0.38257   -62.75
       1600   0.45229  -177.09    4.9033    74.78  0.076306    47.09   0.37957   -63.58
       1650   0.45342  -178.54    4.7658    73.62  0.077676    47.34   0.37698   -64.04
       1700   0.45232   179.54     4.636    72.47  0.079027    47.55   0.37457   -64.73
       1750   0.45249   177.22    4.5049    71.19  0.080297    47.62   0.37193   -65.60
       1800    0.4544   175.90    4.3954    70.06  0.081792    47.83   0.37065   -66.05
       1850   0.45366   173.68    4.2766    68.76   0.08311    47.87   0.36999   -67.00
       1900   0.45388   172.02    4.1655    67.62  0.084398    47.93   0.36835   -67.75
       1950   0.45471   170.89     4.066    66.53  0.085767    48.11   0.36782   -68.28
       2000   0.45338   168.90     3.958    65.36  0.086886    48.25   0.36645   -69.33

!  
! Device Noise Parameters
!  Freq-MHz   Fmin-dB  Gopt-mag  Gopt-arg   Rn-Ohm_normalized
        400    0.8570   0.08120    44.63    0.1202
        420    0.7974   0.05905    60.01    0.1028
        433    0.8246   0.06271    49.22    0.1057
        440    0.8060   0.06088    53.90    0.1030
        460    0.8089   0.05869    65.30    0.1030
        480    0.8038   0.06571    52.60    0.1056
        500    0.8284   0.04397    69.80    0.1038
        550    0.8557   0.07844    47.54    0.1158
        600    0.8683   0.07442    46.46    0.1214
        650    0.8541   0.06654    71.22    0.1051
        700    0.8585   0.06875    77.33    0.1071
        750    0.8650   0.06217    77.78    0.1048
        800    0.8692   0.06273    92.16    0.1027
        850    0.8883   0.07061   100.78    0.1003
        900    0.8839   0.07217    87.29    0.1050
        950    0.8808   0.07104    98.26    0.1030
       1000    0.8948   0.07956    97.62    0.1035
       1050    0.9117   0.08260   104.97    0.1008
       1100    0.9207   0.08732   113.31    0.0975
       1150    0.9144   0.08402   115.49    0.1001
       1200    0.9327   0.09340   114.64    0.1002
       1250    0.9412   0.09041   122.05    0.1004
       1300    0.9609   0.09305   126.31    0.0982
       1350    0.9344   0.10532   126.80    0.1006
       1400    0.9321   0.10837   128.44    0.0986
       1450    0.9938   0.10913   131.86    0.1026
       1500    0.9861   0.11792   136.56    0.0986
       1550    0.9518   0.12058   139.64    0.0951
       1600    0.9646   0.12127   143.30    0.0936
       1650    0.9703   0.13310   144.68    0.0926
       1700    0.9788   0.13645   148.45    0.0914
       1750    0.9831   0.13901   152.69    0.0901
       1800    0.9666   0.14756   159.55    0.0815
       1850    0.9898   0.14876   160.19    0.0833
       1900    0.9765   0.14187   168.58    0.0933
       1950    1.0366   0.14287   163.00    0.0937
       2000    1.0389   0.16296   165.57    0.0886

