! Filename:  P:\Prog\Test\Noise\ATS_data\Testdata_Net\06 Compressed Noise after Statistics\BFU520_APG2013_37_A05_05p0V_005mA_NF_CM01_D.sf
! Date/Time: Fri 26/Apr/2013 14:13:10
! BFU520_APG2013_37_A05_05p0V_1to20mA_NF_CM01_Bias4_R.sf
! Noise Parameter Data File
! BFU520_APG2013_37_A05_05p0V_1to20mA_NF_CM01
! Date/time: Tue Apr 23 16:46:24 2013
! VAR V_out= 5.000000
! VAR I_out= 4.995000
! VAR V_in= 0.827200
! VAR I_in= 0.056405
! Device data file deembeded for feedlines and parallel
! Original file: \06 Compressed Noise after Statistics\BFU520_APG2013_37_A05_05p0V_005mA_NF_CM01_R.sf
! Feed-files: PR047V01_250413_Feed1.s2p, PR047V01_250413_Feed2.s2p
! Parallel-file: PR047V01_250413_Par.s2p
# MHz S MA R 50
!  Freq-MHz   S11-mag  S11-arg   S21-mag  S21-arg   S12-mag  S12-arg   S22-mag  S22-arg
        400   0.68258   -70.02    11.565   132.95  0.049812    56.07   0.78816   -34.47
        420   0.67388   -72.86    11.345   131.22    0.0514    54.98   0.77519   -35.65
        433    0.6685   -74.60    11.192   130.13  0.052308    54.33   0.76682   -36.32
        440   0.66567   -75.63    11.128   129.54  0.052792    53.96   0.76272   -36.70
        460   0.65666   -78.31    10.903   127.92  0.054189    52.92   0.75109   -37.82
        480   0.64987   -80.92    10.684   126.36  0.055339    52.00   0.73707   -38.77
        500   0.64112   -83.56    10.482   124.81  0.056587    51.12   0.72555   -39.74
        550   0.62067   -90.00    9.9975   120.95  0.059009    49.05   0.69475   -41.95
        600   0.60491   -95.65    9.5235   117.66  0.061544    47.41   0.66982   -43.88
        650   0.59106  -100.98    9.0536   114.59  0.063692    45.86   0.64565   -45.72
        700   0.57733  -106.12    8.6317   111.59  0.065417    44.53   0.62294   -47.20
        750   0.56448  -110.95    8.2307   108.87  0.067179    43.45   0.60305   -48.70
        800   0.55474  -115.49    7.8685   106.29   0.06871    42.54   0.58359   -50.02
        850   0.54483  -119.84    7.5279   103.87  0.070111    41.65   0.56684   -51.16
        900   0.53435  -124.07    7.2128   101.51  0.071419    40.93   0.55187   -52.40
        950   0.52828  -127.90    6.9203    99.36  0.072536    40.35   0.53672   -53.43
       1000    0.5213  -131.42    6.6452    97.27  0.073697    39.86   0.52447   -54.36
       1050   0.51427  -135.25     6.388    95.20  0.074662    39.39   0.51242   -55.45
       1100   0.51072  -138.32    6.1433    93.36  0.075703    39.11   0.50186   -56.18
       1150   0.50425  -141.73      5.92    91.48  0.076761    38.77   0.49222   -57.08
       1200   0.50022  -144.94    5.7131    89.67  0.077648    38.51   0.48308   -58.00
       1250    0.4977  -147.63    5.5152    88.06  0.078596    38.41   0.47527   -58.57
       1300    0.4924  -150.58    5.3339    86.38  0.079486    38.24   0.46765   -59.50
       1350   0.49018  -153.32    5.1606    84.79  0.080325    38.17   0.46053   -60.25
       1400   0.48894  -155.73     5.001    83.27   0.08126    38.16   0.45448   -60.83
       1450   0.48485  -158.76    4.8472    81.66  0.082155    38.05   0.44924   -61.76
       1500   0.48419  -161.08    4.6999    80.17  0.082965    38.04   0.44421   -62.49
       1550   0.48157  -163.33     4.563    78.76  0.083837    38.07   0.43948   -63.13
       1600   0.47937  -165.96    4.4309    77.27  0.084633    38.08   0.43488   -63.98
       1650   0.48007  -167.74    4.3095    75.99  0.085541    38.24   0.43118   -64.52
       1700   0.47776  -169.88    4.1957    74.71    0.0864    38.40   0.42732   -65.24
       1750   0.47686  -172.44     4.082    73.29  0.087256    38.39   0.42361   -66.10
       1800   0.47814  -174.06    3.9849    72.06   0.08824    38.60   0.42142   -66.61
       1850    0.4761  -176.47    3.8808    70.64  0.089127    38.59   0.41965   -67.53
       1900   0.47591  -178.41    3.7828    69.38  0.089946    38.67   0.41706   -68.30
       1950   0.47643  -179.71    3.6942    68.20  0.090835    38.85   0.41578   -68.87
       2000   0.47426   178.10    3.6001    66.92  0.091492    39.00    0.4133   -69.86

!  
! Device Noise Parameters
!  Freq-MHz   Fmin-dB  Gopt-mag  Gopt-arg   Rn-Ohm_normalized
        400    0.7378   0.18947    23.96    0.1367
        420    0.6668   0.16917    27.98    0.1188
        433    0.6889   0.17467    23.07    0.1264
        440    0.6874   0.18603    21.49    0.1208
        460    0.6848   0.15990    27.82    0.1179
        480    0.7119   0.18366    27.40    0.1167
        500    0.7003   0.17130    34.98    0.1168
        550    0.7410   0.20285    27.65    0.1331
        600    0.7668   0.18886    26.73    0.1356
        650    0.7195   0.17907    38.48    0.1208
        700    0.7536   0.17963    42.26    0.1215
        750    0.7316   0.17441    41.23    0.1210
        800    0.7316   0.17943    47.66    0.1212
        850    0.7588   0.17406    55.76    0.1122
        900    0.7664   0.17829    55.05    0.1152
        950    0.7632   0.17526    59.21    0.1139
       1000    0.7962   0.17942    60.99    0.1129
       1050    0.7862   0.18846    64.36    0.1126
       1100    0.7949   0.17990    70.81    0.1083
       1150    0.8063   0.17380    72.07    0.1098
       1200    0.8197   0.18115    74.75    0.1107
       1250    0.8337   0.17780    79.89    0.1079
       1300    0.8185   0.18006    79.84    0.1142
       1350    0.8413   0.18938    85.86    0.1059
       1400    0.8598   0.18516    87.83    0.0979
       1450    0.8974   0.16935    84.15    0.1218
       1500    0.8968   0.18456    96.50    0.1044
       1550    0.8772   0.17969    99.96    0.1017
       1600    0.8630   0.18089   102.21    0.0994
       1650    0.8758   0.19435   107.05    0.0939
       1700    0.8610   0.18597   112.81    0.0982
       1750    0.8743   0.18320   116.06    0.0918
       1800    0.8112   0.19142   121.90    0.0867
       1850    0.8468   0.20861   122.81    0.0859
       1900    0.9008   0.19765   122.28    0.0956
       1950    0.9310   0.20062   127.88    0.0900
       2000    0.8948   0.19889   133.65    0.0931

