! Filename:  P:\Prog\Test\Noise\ATS_data\Testdata_Net\06 Compressed Noise after Statistics\BFU520_APG2013_37_A05_12p0V_005mA_NF_CM01_D.sf
! Date/Time: Fri 26/Apr/2013 14:13:13
! BFU520_APG2013_37_A05_12p0V_1to20mA_NF_CM01_Bias4_R.sf
! Noise Parameter Data File
! BFU520_APG2013_37_A05_12p0V_1to20mA_NF_CM01
! Date/time: Tue Apr 23 19:55:39 2013
! VAR V_out= 12.001000
! VAR I_out= 5.000000
! VAR V_in= 0.811500
! VAR I_in= 0.047705
! Device data file deembeded for feedlines and parallel
! Original file: \06 Compressed Noise after Statistics\BFU520_APG2013_37_A05_12p0V_005mA_NF_CM01_R.sf
! Feed-files: PR047V01_250413_Feed1.s2p, PR047V01_250413_Feed2.s2p
! Parallel-file: PR047V01_250413_Par.s2p
# MHz S MA R 50
!  Freq-MHz   S11-mag  S11-arg   S21-mag  S21-arg   S12-mag  S12-arg   S22-mag  S22-arg
        400   0.70215   -65.56    11.562   134.73   0.04874    57.10    0.8025   -32.97
        420   0.69329   -68.29    11.361   133.03  0.050337    56.04   0.79056   -34.13
        433   0.68744   -69.96    11.219   131.94  0.051326    55.38    0.7826   -34.81
        440   0.68428   -70.96    11.158   131.35  0.051769    55.01   0.77857   -35.19
        460    0.6749   -73.53    10.949   129.75  0.053206    54.03   0.76741   -36.29
        480    0.6676   -76.03     10.74   128.22  0.054405    53.09   0.75397   -37.25
        500   0.65783   -78.59    10.555   126.67  0.055675    52.19   0.74287   -38.22
        550   0.63591   -84.88    10.098   122.80  0.058212    50.09     0.713   -40.45
        600   0.61861   -90.40    9.6475   119.51  0.060863    48.40   0.68867   -42.42
        650   0.60284   -95.65    9.1888   116.42  0.063097    46.81   0.66478   -44.29
        700   0.58687  -100.76    8.7814   113.39  0.064886    45.45   0.64234   -45.81
        750    0.5727  -105.54    8.3884   110.65  0.066726    44.27   0.62246   -47.34
        800   0.56125  -110.07    8.0339   108.04  0.068314    43.30   0.60284   -48.69
        850   0.54978  -114.43    7.6967   105.59  0.069792    42.36   0.58582   -49.86
        900   0.53764  -118.66    7.3859   103.20  0.071141    41.58   0.57068   -51.14
        950      0.53  -122.56    7.0956   101.01  0.072301    40.93   0.55527   -52.20
       1000    0.5217  -126.13    6.8207    98.89  0.073501    40.37   0.54277   -53.18
       1050   0.51317  -129.99    6.5613    96.79  0.074524    39.86   0.53028   -54.29
       1100    0.5086  -133.19    6.3153    94.92  0.075524    39.51   0.51936   -55.04
       1150   0.50073  -136.66    6.0913    93.02  0.076614    39.12   0.50942   -55.95
       1200   0.49571  -139.94    5.8826    91.18  0.077509    38.79   0.49991   -56.88
       1250   0.49219  -142.75    5.6821    89.55  0.078466    38.66   0.49177   -57.47
       1300   0.48593  -145.76    5.4994    87.85  0.079368    38.45   0.48382   -58.41
       1350   0.48294  -148.60    5.3236    86.23  0.080189    38.30   0.47636   -59.18
       1400   0.48091  -151.10     5.161    84.69  0.081085    38.26   0.47001   -59.77
       1450   0.47573  -154.22    5.0041    83.06  0.081958    38.11   0.46444   -60.70
       1500   0.47452  -156.65     4.854    81.56  0.082761    38.08   0.45907   -61.43
       1550   0.47129  -158.94    4.7133    80.13  0.083649    38.06   0.45402   -62.07
       1600   0.46844  -161.74     4.579    78.62  0.084382    38.02   0.44906   -62.92
       1650   0.46883  -163.58    4.4551    77.33  0.085245    38.17   0.44512   -63.46
       1700   0.46582  -165.82    4.3389    76.04   0.08611    38.29   0.44102   -64.18
       1750   0.46416  -168.49    4.2228    74.60  0.086906    38.24   0.43702   -65.03
       1800   0.46541  -170.19    4.1224    73.37  0.087855    38.42   0.43451   -65.55
       1850   0.46258  -172.69    4.0158    71.93   0.08871    38.40   0.43245   -66.45
       1900   0.46213  -174.69    3.9151    70.67    0.0895    38.47   0.42961   -67.22
       1950   0.46248  -176.09    3.8239    69.48  0.090296    38.64   0.42805   -67.78
       2000   0.45975  -178.35    3.7269    68.19  0.090924    38.78   0.42523   -68.75

!  
! Device Noise Parameters
!  Freq-MHz   Fmin-dB  Gopt-mag  Gopt-arg   Rn-Ohm_normalized
        400    0.7814   0.23274    18.98    0.1494
        420    0.6950   0.20408    30.08    0.1279
        433    0.7189   0.22651    22.82    0.1412
        440    0.7102   0.22378    23.70    0.1323
        460    0.7342   0.19259    32.75    0.1232
        480    0.7166   0.21955    26.57    0.1320
        500    0.7032   0.22040    27.26    0.1366
        550    0.7647   0.22818    27.38    0.1438
        600    0.7583   0.20599    26.57    0.1496
        650    0.7606   0.20215    37.57    0.1301
        700    0.8191   0.20613    39.39    0.1294
        750    0.7655   0.19902    41.28    0.1291
        800    0.7858   0.18453    45.43    0.1287
        850    0.8079   0.18848    49.70    0.1258
        900    0.8073   0.19492    50.81    0.1275
        950    0.8072   0.18664    55.90    0.1228
       1000    0.8225   0.19456    57.88    0.1223
       1050    0.8224   0.18946    60.79    0.1226
       1100    0.8261   0.18754    64.57    0.1206
       1150    0.8574   0.18673    67.05    0.1181
       1200    0.8543   0.20047    69.70    0.1205
       1250    0.8724   0.18096    74.94    0.1176
       1300    0.8820   0.17994    76.86    0.1189
       1350    0.8937   0.18697    80.83    0.1137
       1400    0.8588   0.19193    83.04    0.1152
       1450    0.9498   0.17695    87.32    0.1166
       1500    0.9252   0.18166    89.99    0.1180
       1550    0.9086   0.18549    95.69    0.1108
       1600    0.9194   0.17646    97.98    0.1016
       1650    0.9205   0.17752   103.73    0.1028
       1700    0.9298   0.18062   106.22    0.1043
       1750    0.9013   0.17188   109.07    0.1056
       1800    0.8411   0.20524   113.52    0.0954
       1850    0.9400   0.18177   116.42    0.0904
       1900    0.9848   0.17593   118.42    0.1020
       1950    0.9506   0.17250   126.80    0.1056
       2000    0.9380   0.18216   129.51    0.1029

