! Filename:  P:\Prog\Test\Noise\ATS_data\Testdata_Net\06 Compressed Noise after Statistics\BFU520_APG2013_37_A05_03p3V_005mA_NF_CM01_D.sf
! Date/Time: Fri 26/Apr/2013 14:13:16
! BFU520_APG2013_37_A05_03p3V_1to20mA_NF_CM01_Bias4_R.sf
! Noise Parameter Data File
! BFU520_APG2013_37_A05_03p3V_1to20mA_NF_CM01
! Date/time: Tue Apr 23 15:18:41 2013
! VAR V_out= 3.300000
! VAR I_out= 5.000000
! VAR V_in= 0.830500
! VAR I_in= 0.057505
! Device data file deembeded for feedlines and parallel
! Original file: \06 Compressed Noise after Statistics\BFU520_APG2013_37_A05_03p3V_005mA_NF_CM01_R.sf
! Feed-files: PR047V01_250413_Feed1.s2p, PR047V01_250413_Feed2.s2p
! Parallel-file: PR047V01_250413_Par.s2p
# MHz S MA R 50
!  Freq-MHz   S11-mag  S11-arg   S21-mag  S21-arg   S12-mag  S12-arg   S22-mag  S22-arg
        400   0.67753   -71.94    11.497   132.16  0.051101    55.38   0.77916   -35.49
        420     0.669   -74.80    11.269   130.43   0.05265    54.31     0.766   -36.70
        433   0.66347   -76.59    11.114   129.33   0.05363    53.62   0.75746   -37.39
        440   0.66081   -77.66    11.046   128.73  0.054104    53.27    0.7531   -37.77
        460    0.6523   -80.37    10.817   127.10  0.055481    52.25   0.74112   -38.89
        480   0.64576   -83.00    10.593   125.54  0.056653    51.32   0.72696   -39.86
        500   0.63681   -85.67    10.389   123.99   0.05787    50.44   0.71523   -40.84
        550   0.61717   -92.17    9.8954   120.13  0.060293    48.39   0.68404   -43.07
        600   0.60209   -97.88    9.4153   116.84  0.062848    46.74   0.65865   -45.03
        650   0.58892  -103.20    8.9411   113.78  0.064985    45.22   0.63436   -46.87
        700   0.57542  -108.38    8.5186   110.79   0.06671    43.95   0.61165   -48.38
        750    0.5638  -113.23    8.1153   108.08   0.06843    42.85    0.5914   -49.88
        800   0.55426  -117.73    7.7544   105.52  0.069969    41.95   0.57223   -51.22
        850   0.54552  -122.11    7.4133   103.11  0.071379    41.09   0.55522   -52.38
        900   0.53539  -126.26    7.0985   100.77  0.072674    40.38   0.54037   -53.61
        950   0.52968  -130.09    6.8089    98.63   0.07379    39.83   0.52538   -54.66
       1000   0.52342  -133.63    6.5341    96.55  0.074928    39.34   0.51307   -55.61
       1050   0.51679  -137.33    6.2776    94.50  0.075921    38.90   0.50108   -56.68
       1100   0.51336  -140.43    6.0371    92.66  0.076962    38.63   0.49077   -57.43
       1150   0.50779  -143.80    5.8143    90.80  0.077994    38.30    0.4809   -58.33
       1200   0.50393  -146.92    5.6101    89.00  0.078899    38.06   0.47211   -59.26
       1250   0.50178  -149.67    5.4149    87.39  0.079866    37.95   0.46431   -59.86
       1300   0.49691  -152.52    5.2341    85.73  0.080732    37.80   0.45665   -60.78
       1350   0.49487  -155.19    5.0645    84.15  0.081611    37.74   0.44983   -61.53
       1400   0.49359  -157.65    4.9062    82.63  0.082534    37.73   0.44372   -62.15
       1450   0.49049  -160.55    4.7535    81.04  0.083435    37.63   0.43853   -63.06
       1500   0.48917  -162.84      4.61    79.54  0.084285    37.62   0.43382   -63.81
       1550   0.48738  -165.12    4.4737    78.14  0.085173    37.66   0.42888   -64.47
       1600    0.4853  -167.60    4.3441    76.68  0.085997    37.69   0.42457   -65.31
       1650   0.48573  -169.41    4.2249    75.38  0.086916    37.83   0.42093   -65.88
       1700   0.48425  -171.58    4.1116    74.11  0.087781    38.00   0.41695   -66.60
       1750   0.48294  -173.97    4.0009    72.71  0.088644    37.99   0.41362   -67.45
       1800   0.48455  -175.70    3.9048    71.46   0.08968    38.17   0.41131   -68.00
       1850   0.48299  -177.99    3.8019    70.07   0.09052    38.19   0.40954   -68.89
       1900   0.48233  -179.88    3.7068    68.81   0.09137    38.26   0.40724   -69.69
       1950   0.48294   178.78    3.6187    67.62  0.092281    38.44   0.40575   -70.26
       2000   0.48154   176.69    3.5265    66.36  0.092943    38.59   0.40348   -71.24

!  
! Device Noise Parameters
!  Freq-MHz   Fmin-dB  Gopt-mag  Gopt-arg   Rn-Ohm_normalized
        400    0.7381   0.21144    20.51    0.1360
        420    0.6547   0.17685    29.80    0.1160
        433    0.6847   0.18211    29.47    0.1226
        440    0.6842   0.19476    24.04    0.1196
        460    0.6881   0.16078    35.43    0.1120
        480    0.6935   0.17962    29.41    0.1167
        500    0.6945   0.16510    35.48    0.1135
        550    0.7590   0.18771    35.57    0.1247
        600    0.7416   0.19395    37.37    0.1282
        650    0.7249   0.17933    43.65    0.1170
        700    0.7643   0.17603    45.61    0.1158
        750    0.7386   0.16801    47.31    0.1133
        800    0.7567   0.17020    55.99    0.1116
        850    0.7702   0.16352    58.01    0.1109
        900    0.7626   0.17462    58.28    0.1139
        950    0.7642   0.16898    62.93    0.1107
       1000    0.7895   0.17160    64.76    0.1105
       1050    0.7892   0.18379    71.53    0.1077
       1100    0.7935   0.17305    75.41    0.1049
       1150    0.8090   0.17448    74.78    0.1083
       1200    0.7901   0.17362    78.84    0.1098
       1250    0.8344   0.17520    82.89    0.1059
       1300    0.8666   0.16775    87.03    0.1041
       1350    0.8610   0.17714    89.68    0.1024
       1400    0.8468   0.18635    92.68    0.0977
       1450    0.9241   0.18278    95.44    0.1091
       1500    0.8996   0.19143   103.95    0.0956
       1550    0.8830   0.18287   104.14    0.0982
       1600    0.8706   0.17823   107.94    0.0968
       1650    0.8859   0.18557   112.38    0.0917
       1700    0.8840   0.18556   116.22    0.0941
       1750    0.8816   0.18237   119.74    0.0914
       1800    0.8030   0.19436   128.16    0.0829
       1850    0.8500   0.19140   124.50    0.0891
       1900    0.9165   0.19652   130.97    0.0885
       1950    0.9189   0.19444   134.01    0.0922
       2000    0.9430   0.19966   134.73    0.0892

