! Filename:  P:\Prog\Test\Noise\ATS_data\Testdata_Net\06 Compressed Noise after Statistics\BFU520_APG2013_37_A05_12p0V_020mA_NF_CM01_D.sf
! Date/Time: Fri 26/Apr/2013 14:13:14
! BFU520_APG2013_37_A05_12p0V_1to20mA_NF_CM01_Bias8_R.sf
! Noise Parameter Data File
! BFU520_APG2013_37_A05_12p0V_1to20mA_NF_CM01
! Date/time: Tue Apr 23 19:55:39 2013
! VAR V_out= 12.001000
! VAR I_out= 20.000000
! VAR V_in= 0.789400
! VAR I_in= 0.206650
! Device data file deembeded for feedlines and parallel
! Original file: \06 Compressed Noise after Statistics\BFU520_APG2013_37_A05_12p0V_020mA_NF_CM01_R.sf
! Feed-files: PR047V01_250413_Feed1.s2p, PR047V01_250413_Feed2.s2p
! Parallel-file: PR047V01_250413_Par.s2p
# MHz S MA R 50
!  Freq-MHz   S11-mag  S11-arg   S21-mag  S21-arg   S12-mag  S12-arg   S22-mag  S22-arg
        400   0.46479  -119.13     18.15   113.54  0.030424    54.72   0.54849   -44.78
        420   0.46286  -122.02    17.499   112.05  0.031178    54.51   0.53407   -45.49
        433   0.46059  -123.91    17.093   111.09   0.03162    54.38   0.52495   -45.85
        440   0.46013  -124.90    16.888   110.57  0.031883    54.33   0.52049   -46.03
        460   0.45762  -127.55    16.304   109.22  0.032598    54.19   0.50827   -46.60
        480   0.45675  -130.01    15.769   107.92  0.033238    54.15   0.49572   -47.04
        500   0.45462  -132.46    15.255   106.70  0.033892    54.06   0.48494   -47.50
        550   0.44953  -138.20     14.11   103.63  0.035332    54.25   0.45818   -48.25
        600   0.44724  -142.83    13.115   101.14  0.037082    54.44   0.43941   -49.04
        650    0.4458  -147.24    12.229    98.78  0.038694    54.64   0.42192   -49.81
        700   0.44433  -150.89    11.447    96.65  0.040249    55.03   0.40704   -50.17
        750   0.44284  -154.74     10.76    94.62  0.041847    55.41   0.39469   -50.73
        800   0.44245  -157.83    10.147    92.78  0.043454    55.79   0.38324   -51.30
        850   0.44234  -160.90    9.6015    91.02  0.045084    56.13   0.37341   -51.64
        900   0.44092  -164.03    9.1029    89.31  0.046714    56.52   0.36551   -52.24
        950   0.44184  -166.55    8.6617    87.75  0.048368    56.89   0.35797   -52.68
       1000   0.44048  -168.92     8.257    86.21   0.05007    57.24   0.35215   -53.06
       1050   0.44101  -171.73    7.8836    84.69  0.051738    57.50     0.347   -53.76
       1100   0.44197  -173.52    7.5439    83.33  0.053487    57.84    0.3422   -54.07
       1150   0.44122  -175.97    7.2278    81.94  0.055178    58.05   0.33783   -54.66
       1200   0.44223  -178.13    6.9412    80.58  0.056877    58.27   0.33427   -55.34
       1250   0.44331  -179.80    6.6789    79.36  0.058682    58.54   0.33104   -55.60
       1300   0.44205   178.12    6.4307    78.08  0.060408    58.68   0.32851   -56.38
       1350   0.44332   176.30    6.2034    76.87  0.062194    58.87   0.32589   -57.01
       1400   0.44428   174.79    5.9955    75.70   0.06402    59.05   0.32375   -57.40
       1450   0.44459   172.51    5.7917    74.43  0.065807    59.06   0.32253   -58.31
       1500   0.44609   171.09     5.603    73.27  0.067581    59.14   0.32105   -58.97
       1550   0.44555   169.55    5.4277    72.17  0.069383    59.22    0.3196   -59.52
       1600   0.44631   167.61    5.2556    70.99  0.071115    59.22    0.3187   -60.40
       1650   0.44787   166.64    5.1049    69.98  0.073011    59.34   0.31784   -60.85
       1700   0.44747   165.07    4.9613    68.96  0.074847    59.36   0.31714   -61.60
       1750   0.44911   163.17    4.8161    67.83  0.076574    59.29   0.31614   -62.59
       1800   0.45096   162.25    4.6962    66.82  0.078582    59.33   0.31614   -63.04
       1850   0.45109   160.40     4.565    65.66  0.080301    59.17   0.31693   -64.11
       1900   0.45205   159.08    4.4434    64.64  0.082053    59.10   0.31657   -64.95
       1950   0.45258   158.34    4.3364    63.67  0.083883    59.05   0.31714   -65.48
       2000   0.45236   156.64    4.2173    62.63   0.08542    59.01   0.31702   -66.70

!  
! Device Noise Parameters
!  Freq-MHz   Fmin-dB  Gopt-mag  Gopt-arg   Rn-Ohm_normalized
        400    1.3188   0.14069  -173.53    0.1226
        420    1.2254   0.16226  -174.98    0.1179
        433    1.2542   0.15629  -173.45    0.1126
        440    1.2561   0.16276  -173.36    0.1061
        460    1.2251   0.16411  -172.77    0.1142
        480    1.2339   0.16252  -172.56    0.1092
        500    1.2518   0.16444  -172.88    0.1129
        550    1.2573   0.14709  -170.17    0.1250
        600    1.2767   0.16263  -167.92    0.1190
        650    1.2692   0.17122  -172.13    0.1104
        700    1.2970   0.17825  -169.22    0.1086
        750    1.2943   0.18233  -170.43    0.1058
        800    1.3001   0.18087  -169.13    0.1089
        850    1.3061   0.18463  -168.22    0.1090
        900    1.3166   0.18028  -166.49    0.1101
        950    1.3000   0.19191  -166.53    0.1063
       1000    1.3216   0.19940  -166.62    0.1040
       1050    1.3285   0.19528  -164.90    0.1076
       1100    1.3341   0.19908  -164.86    0.1069
       1150    1.3492   0.19900  -162.80    0.1087
       1200    1.3599   0.20432  -165.02    0.1072
       1250    1.3694   0.20167  -163.05    0.1100
       1300    1.3974   0.20312  -159.83    0.1107
       1350    1.3719   0.20760  -161.33    0.1108
       1400    1.3740   0.19785  -163.25    0.1142
       1450    1.4128   0.20984  -155.38    0.1173
       1500    1.4323   0.20944  -157.78    0.1147
       1550    1.4032   0.21841  -159.55    0.1109
       1600    1.3949   0.20970  -157.74    0.1191
       1650    1.4031   0.22307  -159.17    0.1108
       1700    1.4089   0.21286  -155.60    0.1200
       1750    1.4202   0.21060  -154.97    0.1205
       1800    1.3621   0.21991  -157.43    0.1194
       1850    1.4326   0.21780  -154.16    0.1182
       1900    1.4372   0.21537  -151.89    0.1263
       1950    1.4317   0.21800  -153.63    0.1297
       2000    1.4490   0.21804  -152.45    0.1342

