! Filename:  P:\Prog\Test\Noise\ATS_data\Testdata_Net\06 Compressed Noise after Statistics\BFU520_APG2013_37_A05_05p0V_001mA_NF_CM01_D.sf
! Date/Time: Fri 26/Apr/2013 14:13:09
! BFU520_APG2013_37_A05_05p0V_1to20mA_NF_CM01_Bias1_R.sf
! Noise Parameter Data File
! BFU520_APG2013_37_A05_05p0V_1to20mA_NF_CM01
! Date/time: Tue Apr 23 16:46:24 2013
! freq range =  0.4000 to  2.0000 GHz, 37 points
! bias range =  0.9950 to 19.9950 mA, 8 points
! bias supplies used: 1 1 0 0 0 0
! VAR bias_mode= 1     ! Specify V_out, I_out
! VAR bias_var = 1     ! Bias variable = I_out
! VAR V_out= 5.001000
! VAR I_out= 0.995000
! VAR V_in= 0.791100
! VAR I_in= 0.011001
! Device data file deembeded for feedlines and parallel
! Original file: \06 Compressed Noise after Statistics\BFU520_APG2013_37_A05_05p0V_001mA_NF_CM01_R.sf
! Feed-files: PR047V01_250413_Feed1.s2p, PR047V01_250413_Feed2.s2p
! Parallel-file: PR047V01_250413_Par.s2p
# MHz S MA R 50
!  Freq-MHz   S11-mag  S11-arg   S21-mag  S21-arg   S12-mag  S12-arg   S22-mag  S22-arg
        400   0.92178   -33.10    3.3255   152.98  0.065792    68.17   0.96164   -17.56
        420   0.91819   -34.74    3.3245   151.74  0.068747    67.17   0.95798   -18.41
        433   0.91609   -35.74    3.3098   150.86  0.070617    66.51   0.95592   -18.89
        440   0.91496   -36.32    3.3081   150.43  0.071645    66.13   0.95534   -19.18
        460   0.91143   -37.89    3.2984   149.25  0.074543    65.14   0.95273   -20.03
        480   0.90835   -39.43    3.2679   147.98  0.077235    64.10   0.94795   -20.81
        500   0.90377   -41.05     3.267   146.76  0.079975    63.15   0.94447   -21.61
        550   0.89308   -45.09    3.2275   143.60  0.086327    60.57   0.93422   -23.57
        600   0.88393   -48.88    3.2004   140.72  0.092623    58.33    0.9252   -25.45
        650   0.87493   -52.53    3.1286   137.85  0.098646    56.03   0.91569   -27.29
        700   0.86351   -56.52    3.0983   134.84   0.10387    53.68   0.90489   -29.08
        750     0.853   -60.02    3.0357   132.07   0.10922    51.58   0.89545   -30.81
        800   0.84352   -63.75    2.9992   129.32   0.11402    49.51   0.88351   -32.48
        850   0.83167   -67.39    2.9518   126.58    0.1186    47.40   0.87449   -34.06
        900   0.82003   -70.81    2.9037   123.93   0.12304    45.49   0.86511   -35.65
        950   0.81067   -74.41    2.8627   121.35   0.12667    43.44   0.85311   -37.26
       1000    0.8014   -77.68    2.8078   118.82    0.1304    41.60   0.84471   -38.70
       1050   0.78973   -81.07    2.7568   116.20   0.13364    39.70   0.83379   -40.27
       1100   0.78077   -84.39    2.7025   113.80   0.13644    37.97   0.82425   -41.59
       1150   0.77011   -87.57    2.6545   111.41   0.13976    36.30   0.81668   -42.87
       1200   0.76032   -90.92    2.6152   109.02   0.14199    34.51   0.80624   -44.36
       1250   0.75194   -93.93    2.5589   106.83   0.14446    33.04   0.79937   -45.42
       1300   0.74167   -97.05     2.526   104.57   0.14638    31.39   0.78982   -46.85
       1350    0.7337  -100.06    2.4763   102.35   0.14801    29.84   0.78076   -48.10
       1400   0.72733  -103.05    2.4331   100.23   0.14963    28.37   0.77385   -49.19
       1450   0.71631  -106.07    2.3878    98.04   0.15131    26.91   0.76675   -50.45
       1500    0.7096  -108.99    2.3438    95.91   0.15232    25.48   0.75961   -51.63
       1550     0.702  -111.70       2.3    93.93   0.15344    24.14   0.75328   -52.71
       1600   0.69336  -114.68    2.2649    91.85   0.15389    22.70   0.74465   -53.98
       1650   0.68924  -117.33    2.2222    89.97   0.15423    21.53   0.73854   -54.97
       1700   0.68197  -119.86    2.1846    88.13   0.15423    20.39   0.73046   -56.06
       1750   0.67484  -122.80    2.1458    86.13   0.15528    19.10   0.72569   -57.06
       1800   0.67233  -125.22    2.1098    84.38    0.1552    18.07   0.72081   -58.00
       1850   0.66482  -127.98    2.0725    82.38   0.15587    16.85   0.71719   -59.06
       1900   0.65956  -130.65     2.037    80.60   0.15519    15.67   0.71096   -60.17
       1950   0.65728  -132.77     1.998    78.91   0.15497    14.76   0.70802   -61.04
       2000   0.64985  -135.42    1.9645    77.09   0.15412    13.70   0.70116   -62.18

!  
! Device Noise Parameters
!  Freq-MHz   Fmin-dB  Gopt-mag  Gopt-arg   Rn-Ohm_normalized
        400    0.5116   0.71211    20.01    0.3537
        420    0.4502   0.68757    21.74    0.3284
        433    0.5214   0.70539    20.61    0.3934
        440    0.5240   0.69210    22.29    0.3389
        460    0.5265   0.65952    24.17    0.3490
        480    0.5304   0.67207    23.41    0.3760
        500    0.4790   0.67613    25.92    0.3194
        550    0.5721   0.68226    27.69    0.3688
        600    0.5584   0.67913    28.23    0.3446
        650    0.5544   0.64743    33.36    0.2884
        700    0.6772   0.65782    35.77    0.3295
        750    0.5842   0.65675    37.27    0.3279
        800    0.6361   0.64497    40.25    0.3303
        850    0.6647   0.63459    45.25    0.3034
        900    0.6452   0.63402    45.31    0.3263
        950    0.6927   0.63483    48.65    0.3198
       1000    0.6627   0.65149    50.86    0.3156
       1050    0.7621   0.62524    53.08    0.3080
       1100    0.6963   0.61801    55.97    0.2838
       1150    0.7037   0.61467    58.28    0.2765
       1200    0.7194   0.63731    59.89    0.3140
       1250    0.7223   0.63252    64.19    0.2943
       1300    0.8082   0.60296    66.19    0.2842
       1350    0.8574   0.60631    69.32    0.2744
       1400    0.7595   0.60047    71.60    0.2515
       1450    0.8082   0.75208    73.85    0.3289
       1500    0.9048   0.65127    77.14    0.2703
       1550    0.8899   0.62228    77.23    0.2530
       1600    0.8081   0.54283    86.59    0.1867
       1650    0.7309   0.55849    86.25    0.1799
       1700    0.8047   0.64800    89.45    0.2137
       1750    0.7506   0.57159    93.18    0.1821
       1800    0.3854   0.53429    95.94    0.1147
       1850    0.7214   0.54706   100.21    0.1495
       1900    1.0590   0.64748    96.47    0.2151
       1950    1.0996   0.62525   100.92    0.2046
       2000    0.9618   0.59926   105.92    0.1804

