! Filename:  P:\Prog\Test\Noise\ATS_data\Testdata_Net\06 Compressed Noise after Statistics\BFU520_APG2013_37_A05_08p0V_001mA_NF_CM01_D.sf
! Date/Time: Fri 26/Apr/2013 14:13:09
! BFU520_APG2013_37_A05_08p0V_1to20mA_NF_CM01_Bias1_R.sf
! Noise Parameter Data File
! BFU520_APG2013_37_A05_08p0V_1to20mA_NF_CM01
! Date/time: Tue Apr 23 18:16:22 2013
! freq range =  0.4000 to  2.0000 GHz, 37 points
! bias range =  1.0000 to 20.0000 mA, 8 points
! bias supplies used: 1 1 0 0 0 0
! VAR bias_mode= 1     ! Specify V_out, I_out
! VAR bias_var = 1     ! Bias variable = I_out
! VAR V_out= 8.000000
! VAR I_out= 1.000000
! VAR V_in= 0.789100
! VAR I_in= 0.010700
! Device data file deembeded for feedlines and parallel
! Original file: \06 Compressed Noise after Statistics\BFU520_APG2013_37_A05_08p0V_001mA_NF_CM01_R.sf
! Feed-files: PR047V01_250413_Feed1.s2p, PR047V01_250413_Feed2.s2p
! Parallel-file: PR047V01_250413_Par.s2p
# MHz S MA R 50
!  Freq-MHz   S11-mag  S11-arg   S21-mag  S21-arg   S12-mag  S12-arg   S22-mag  S22-arg
        400   0.92398   -32.52    3.3175   153.38  0.063705    68.52   0.96315   -17.16
        420    0.9209   -34.13    3.3172   152.15  0.066617    67.51   0.95972   -17.99
        433   0.91842   -35.12    3.3026   151.29  0.068404    66.90   0.95771   -18.47
        440   0.91761   -35.68    3.3015   150.87  0.069389    66.54   0.95712   -18.76
        460   0.91398   -37.24    3.2918   149.70  0.072214    65.51   0.95466   -19.58
        480   0.91108   -38.75    3.2622   148.44  0.074822    64.51   0.94994   -20.35
        500   0.90687   -40.34    3.2623   147.24  0.077486    63.56   0.94667   -21.13
        550   0.89603   -44.32    3.2237   144.11  0.083689    61.03   0.93681   -23.07
        600   0.88723   -48.05    3.1979   141.26  0.089869    58.80   0.92819   -24.92
        650   0.87812   -51.66    3.1279   138.43  0.095741    56.50     0.919   -26.74
        700   0.86722   -55.61    3.0984   135.44   0.10086    54.19   0.90859   -28.50
        750   0.85688   -59.05    3.0374   132.69   0.10612    52.11   0.89943   -30.21
        800    0.8472   -62.75    3.0017   129.97    0.1108    50.05   0.88782   -31.84
        850   0.83581   -66.35    2.9557   127.26   0.11532    47.96   0.87914   -33.41
        900    0.8242   -69.72    2.9089   124.63   0.11966    46.09   0.86995   -34.99
        950   0.81484   -73.29    2.8695   122.07   0.12325    44.03   0.85836   -36.58
       1000   0.80583   -76.52    2.8159   119.54   0.12695    42.20   0.85008   -38.00
       1050    0.7942   -79.89    2.7657   116.94   0.13015    40.31   0.83943   -39.56
       1100   0.78505   -83.19     2.712   114.54   0.13289    38.59   0.83011   -40.87
       1150   0.77433   -86.35    2.6648   112.17   0.13616    36.91   0.82251   -42.15
       1200   0.76453   -89.68    2.6268   109.79    0.1384    35.13    0.8124   -43.62
       1250   0.75607   -92.69    2.5712   107.61   0.14082    33.66   0.80558   -44.68
       1300   0.74607   -95.75    2.5396   105.35   0.14281    32.02   0.79636   -46.09
       1350   0.73796   -98.76    2.4904   103.13   0.14443    30.47   0.78742   -47.34
       1400   0.73152  -101.75    2.4477   101.02   0.14602    29.02   0.78062   -48.42
       1450   0.72048  -104.74     2.403    98.83    0.1477    27.55   0.77359   -49.68
       1500   0.71379  -107.66     2.359    96.71   0.14872    26.12   0.76651   -50.85
       1550   0.70583  -110.35    2.3155    94.73   0.14984    24.79   0.76023   -51.92
       1600   0.69746  -113.35    2.2812    92.65   0.15033    23.36   0.75172   -53.18
       1650   0.69283  -115.98     2.239    90.77   0.15072    22.20   0.74571   -54.16
       1700   0.68561  -118.51     2.202    88.94   0.15077    21.04   0.73783   -55.25
       1750   0.67833  -121.44    2.1633    86.92   0.15177    19.76    0.7331   -56.26
       1800   0.67566  -123.92    2.1271    85.18   0.15172    18.73   0.72817   -57.19
       1850   0.66781  -126.65    2.0902    83.17   0.15238    17.50   0.72453   -58.24
       1900   0.66263  -129.31     2.055    81.38   0.15173    16.33    0.7184   -59.36
       1950   0.65997  -131.44    2.0159    79.69   0.15149    15.41   0.71538   -60.24
       2000   0.65226  -134.11    1.9825    77.88    0.1507    14.35   0.70857   -61.36

!  
! Device Noise Parameters
!  Freq-MHz   Fmin-dB  Gopt-mag  Gopt-arg   Rn-Ohm_normalized
        400    0.5277   0.68512    17.43    0.3608
        420    0.4489   0.66938    21.57    0.3357
        433    0.5319   0.69695    19.48    0.4028
        440    0.5306   0.67507    19.45    0.3504
        460    0.5142   0.65478    23.21    0.3544
        480    0.5611   0.68635    23.09    0.3717
        500    0.5365   0.65269    25.43    0.3211
        550    0.5873   0.67944    26.93    0.3686
        600    0.5712   0.66925    28.31    0.3486
        650    0.5185   0.65958    32.10    0.2942
        700    0.6002   0.66549    37.01    0.3327
        750    0.6221   0.66908    36.25    0.3288
        800    0.6169   0.66103    40.05    0.3309
        850    0.6318   0.65541    43.49    0.3132
        900    0.6441   0.65496    44.55    0.3312
        950    0.6693   0.64722    46.47    0.3287
       1000    0.6670   0.65512    49.88    0.3200
       1050    0.6631   0.65593    53.73    0.3103
       1100    0.6860   0.64223    55.64    0.2795
       1150    0.7070   0.61441    58.17    0.2799
       1200    0.7240   0.65716    61.30    0.3026
       1250    0.7719   0.64115    64.48    0.2872
       1300    0.7640   0.63943    65.59    0.2845
       1350    0.7391   0.67178    69.36    0.2767
       1400    0.7399   0.62547    68.89    0.2632
       1450    1.0043   0.66124    73.38    0.3309
       1500    0.8925   0.65214    76.80    0.2746
       1550    0.8805   0.63936    78.39    0.2454
       1600    0.7201   0.60641    82.98    0.1955
       1650    0.7295   0.55658    87.49    0.1815
       1700    0.8136   0.59163    83.95    0.2489
       1750    0.7487   0.59591    90.92    0.1867
       1800    0.3851   0.55252    99.41    0.1061
       1850    0.6546   0.58062    97.03    0.1603
       1900    1.0491   0.60794    99.52    0.2131
       1950    1.0934   0.62806   101.45    0.2034
       2000    0.9626   0.58614   105.42    0.1894

