! Filename:  P:\Prog\Test\Noise\ATS_data\Testdata_Net\06 Compressed Noise after Statistics\BFU520_APG2013_37_A05_03p3V_008mA_NF_CM01_D.sf
! Date/Time: Fri 26/Apr/2013 14:13:18
! BFU520_APG2013_37_A05_03p3V_1to20mA_NF_CM01_Bias5_R.sf
! Noise Parameter Data File
! BFU520_APG2013_37_A05_03p3V_1to20mA_NF_CM01
! Date/time: Tue Apr 23 15:18:41 2013
! VAR V_out= 3.300000
! VAR I_out= 8.000000
! VAR V_in= 0.840700
! VAR I_in= 0.093105
! Device data file deembeded for feedlines and parallel
! Original file: \06 Compressed Noise after Statistics\BFU520_APG2013_37_A05_03p3V_008mA_NF_CM01_R.sf
! Feed-files: PR047V01_250413_Feed1.s2p, PR047V01_250413_Feed2.s2p
! Parallel-file: PR047V01_250413_Par.s2p
# MHz S MA R 50
!  Freq-MHz   S11-mag  S11-arg   S21-mag  S21-arg   S12-mag  S12-arg   S22-mag  S22-arg
        400   0.57874   -92.39    14.237   123.41  0.042757    52.49   0.67819   -41.26
        420   0.57206   -95.47    13.837   121.71  0.043809    51.69   0.66275   -42.35
        433    0.5676   -97.48    13.586   120.62  0.044495    51.18   0.65298   -42.96
        440   0.56588   -98.55    13.464   120.03  0.044778    50.92   0.64808   -43.27
        460   0.55928  -101.46    13.088   118.46  0.045753    50.23   0.63459   -44.24
        480    0.5546  -104.23    12.741   116.96  0.046554    49.58   0.61989   -45.04
        500   0.54851  -106.96    12.404   115.50  0.047392    49.03   0.60742   -45.85
        550   0.53473  -113.61    11.637   111.89   0.04901    47.81   0.57551   -47.56
        600   0.52551  -119.20    10.931   108.88  0.050884    46.97   0.55088   -49.08
        650   0.51829  -124.40     10.28   106.08  0.052479    46.21   0.52804   -50.49
        700   0.51112  -129.18    9.6968   103.46  0.053862    45.74   0.50752   -51.53
        750   0.50469  -133.78    9.1682   101.02  0.055292    45.38   0.48971   -52.62
        800   0.50006  -137.79    8.6942    98.78  0.056646    45.18    0.4735   -53.61
        850   0.49622  -141.72    8.2618    96.66  0.057959    44.98    0.4591   -54.40
        900   0.49092  -145.48    7.8657    94.60   0.05922    44.92   0.44684   -55.32
        950   0.48919  -148.81    7.5095    92.73  0.060478    44.94   0.43519   -56.06
       1000   0.48605  -151.88    7.1769    90.90  0.061729    45.00   0.42547   -56.71
       1050   0.48357  -155.17    6.8711    89.11  0.062924    45.06    0.4166   -57.56
       1100   0.48291  -157.76    6.5879    87.50  0.064204    45.24   0.40881   -58.09
       1150   0.48065  -160.69    6.3247    85.85  0.065457    45.35    0.4013   -58.81
       1200   0.47926  -163.37    6.0861    84.27  0.066689    45.48   0.39505   -59.57
       1250   0.47911  -165.64    5.8627    82.84   0.06799    45.73   0.38937   -60.01
       1300   0.47679  -168.12    5.6537    81.36  0.069245    45.90   0.38418   -60.81
       1350   0.47676  -170.35    5.4606    79.96  0.070538    46.11   0.37957   -61.46
       1400    0.4769  -172.38     5.281    78.62   0.07189    46.38    0.3753   -61.95
       1450   0.47586  -174.94     5.108    77.18  0.073225    46.48   0.37209   -62.80
       1500   0.47607  -176.85    4.9472    75.84  0.074512    46.66    0.3691   -63.50
       1550   0.47573  -178.76    4.7946    74.59  0.075845    46.86   0.36579   -64.08
       1600   0.47523   179.11    4.6491    73.27  0.077131    47.00   0.36336   -64.89
       1650   0.47639   177.63    4.5179    72.10  0.078567    47.26   0.36119   -65.40
       1700   0.47595   175.80     4.392    70.95  0.079919    47.49   0.35879   -66.09
       1750   0.47596   173.69    4.2689    69.69  0.081291    47.56   0.35677   -66.96
       1800   0.47796   172.35     4.163    68.55   0.08281    47.78   0.35571   -67.47
       1850   0.47765   170.30    4.0496    67.28  0.084158    47.83   0.35522   -68.41
       1900   0.47772   168.69    3.9447    66.14  0.085516    47.92   0.35414   -69.19
       1950   0.47895   167.62    3.8495    65.05  0.086914    48.08   0.35367   -69.75
       2000   0.47822   165.75    3.7476    63.90   0.08807    48.22    0.3526   -70.80

!  
! Device Noise Parameters
!  Freq-MHz   Fmin-dB  Gopt-mag  Gopt-arg   Rn-Ohm_normalized
        400    0.8571   0.07483    27.54    0.1231
        420    0.7836   0.05074    98.34    0.0947
        433    0.8006   0.04163    59.33    0.1030
        440    0.8001   0.03320    74.21    0.0976
        460    0.7825   0.05484   100.20    0.0946
        480    0.8102   0.03986    87.31    0.0952
        500    0.8146   0.03703   102.20    0.0974
        550    0.8165   0.04679    89.83    0.1046
        600    0.8471   0.04001    62.26    0.1096
        650    0.8366   0.05596   100.59    0.0985
        700    0.8606   0.05952   101.88    0.0988
        750    0.8490   0.05506   100.15    0.0990
        800    0.8715   0.06128   127.08    0.0955
        850    0.8794   0.07650   123.69    0.0923
        900    0.8743   0.06923   112.49    0.0988
        950    0.8621   0.07587   128.98    0.0945
       1000    0.8733   0.07762   127.22    0.0958
       1050    0.8927   0.08218   123.64    0.0959
       1100    0.8854   0.08887   134.12    0.0931
       1150    0.9222   0.08882   132.63    0.0943
       1200    0.9191   0.09512   134.87    0.0941
       1250    0.9311   0.10013   142.08    0.0927
       1300    0.9560   0.09806   147.94    0.0928
       1350    0.9451   0.11097   143.15    0.0920
       1400    0.9412   0.10730   142.77    0.0952
       1450    1.0005   0.11731   153.60    0.0934
       1500    0.9981   0.12599   153.83    0.0900
       1550    0.9509   0.12685   157.20    0.0917
       1600    0.9773   0.13785   160.93    0.0859
       1650    0.9611   0.15522   158.02    0.0827
       1700    0.9437   0.14608   164.64    0.0913
       1750    0.9994   0.15887   169.17    0.0777
       1800    0.9642   0.16402   173.51    0.0759
       1850    0.9752   0.16575   167.59    0.0797
       1900    1.0242   0.17639   176.14    0.0804
       1950    1.0383   0.18016   176.90    0.0800
       2000    1.0184   0.18148   176.23    0.0827

