! Filename:  P:\Prog\Test\Noise\ATS_data\Testdata_Net\06 Compressed Noise after Statistics\BFU520_APG2013_37_A05_05p0V_020mA_NF_CM01_D.sf
! Date/Time: Fri 26/Apr/2013 14:13:11
! BFU520_APG2013_37_A05_05p0V_1to20mA_NF_CM01_Bias8_R.sf
! Noise Parameter Data File
! BFU520_APG2013_37_A05_05p0V_1to20mA_NF_CM01
! Date/time: Tue Apr 23 16:46:24 2013
! VAR V_out= 5.000000
! VAR I_out= 19.995000
! VAR V_in= 0.845300
! VAR I_in= 0.234250
! Device data file deembeded for feedlines and parallel
! Original file: \06 Compressed Noise after Statistics\BFU520_APG2013_37_A05_05p0V_020mA_NF_CM01_R.sf
! Feed-files: PR047V01_250413_Feed1.s2p, PR047V01_250413_Feed2.s2p
! Parallel-file: PR047V01_250413_Par.s2p
# MHz S MA R 50
!  Freq-MHz   S11-mag  S11-arg   S21-mag  S21-arg   S12-mag  S12-arg   S22-mag  S22-arg
        400    0.4902  -134.14    16.678   109.19  0.028341    53.57   0.51067   -42.77
        420   0.49056  -136.69     16.03   107.78  0.029021    53.56   0.49786   -43.22
        433   0.48973  -138.30    15.635   106.88   0.02942    53.53   0.48999   -43.40
        440    0.4902  -139.16    15.434   106.40  0.029641    53.54   0.48623   -43.49
        460   0.49015  -141.46    14.871   105.12  0.030283    53.58   0.47586   -43.83
        480   0.49071  -143.60    14.355   103.89  0.030881    53.64    0.4649   -44.05
        500   0.49044  -145.69    13.862   102.75  0.031471    53.71   0.45591   -44.29
        550   0.48968  -150.57    12.775    99.87  0.032817    54.24   0.43378   -44.55
        600   0.49038  -154.49    11.836    97.51  0.034465    54.67   0.41865   -44.98
        650   0.49148  -158.17     11.01    95.29  0.035991    55.15   0.40471   -45.45
        700   0.49161  -161.21    10.288    93.28  0.037506    55.76    0.3933   -45.59
        750   0.49229  -164.48    9.6522    91.34  0.039087    56.33    0.3839   -45.99
        800   0.49324  -167.06    9.0897    89.58  0.040648    56.88   0.37513   -46.43
        850   0.49417  -169.66    8.5909    87.90  0.042234    57.34   0.36794   -46.67
        900   0.49385  -172.28    8.1363    86.24  0.043836    57.86   0.36218   -47.20
        950   0.49545  -174.43    7.7348    84.74  0.045468    58.38   0.35672   -47.59
       1000   0.49506  -176.47    7.3668    83.24  0.047164    58.79   0.35278   -47.96
       1050   0.49656  -178.80    7.0288    81.76  0.048816    59.15   0.34931   -48.65
       1100   0.49772   179.65     6.723    80.44  0.050548    59.57    0.3461   -49.01
       1150    0.4976   177.54    6.4379    79.07  0.052241    59.86   0.34317   -49.62
       1200   0.49891   175.68    6.1789    77.73  0.053933    60.11   0.34085   -50.33
       1250   0.50043   174.24    5.9432    76.53   0.05571    60.45   0.33891   -50.68
       1300   0.49956   172.38    5.7192    75.25  0.057436    60.63   0.33732   -51.49
       1350    0.5011   170.84    5.5141    74.06  0.059211    60.86   0.33581   -52.17
       1400   0.50222   169.48    5.3275    72.90  0.061056    61.09   0.33465   -52.64
       1450   0.50275   167.49    5.1444    71.64  0.062812    61.14   0.33416   -53.59
       1500   0.50433   166.24    4.9762    70.47  0.064556    61.27   0.33354   -54.33
       1550   0.50408   164.84    4.8196    69.37  0.066407    61.36   0.33294   -54.97
       1600   0.50511   163.12    4.6645    68.18  0.068131    61.39   0.33266   -55.91
       1650   0.50647   162.25    4.5306    67.16  0.070034    61.52   0.33248   -56.47
       1700   0.50649   160.81    4.4012    66.14  0.071852    61.62   0.33231   -57.28
       1750   0.50804   159.13    4.2711    65.00  0.073587    61.56   0.33187   -58.29
       1800    0.5101   158.30    4.1654    63.99  0.075582    61.62   0.33255   -58.85
       1850   0.51048   156.59    4.0474    62.81  0.077309    61.49    0.3337   -59.98
       1900   0.51138   155.40    3.9396    61.78  0.079114    61.43   0.33388   -60.87
       1950   0.51174   154.68    3.8448    60.79  0.080959    61.43   0.33507   -61.54
       2000   0.51178   153.13    3.7383    59.72  0.082481    61.39   0.33519   -62.77

!  
! Device Noise Parameters
!  Freq-MHz   Fmin-dB  Gopt-mag  Gopt-arg   Rn-Ohm_normalized
        400    1.2635   0.20426  -174.57    0.1015
        420    1.1658   0.24739  -173.48    0.0868
        433    1.1771   0.23210  -174.83    0.0890
        440    1.1778   0.23502  -172.51    0.0882
        460    1.1686   0.25997  -172.11    0.0824
        480    1.1573   0.23726  -172.61    0.0897
        500    1.1910   0.24111  -169.29    0.0910
        550    1.2299   0.24040  -173.63    0.0892
        600    1.2066   0.25054  -167.22    0.0940
        650    1.2102   0.25483  -169.67    0.0872
        700    1.2202   0.25886  -168.58    0.0865
        750    1.1987   0.26116  -167.47    0.0860
        800    1.2284   0.26171  -165.20    0.0885
        850    1.2367   0.27636  -166.69    0.0830
        900    1.2502   0.26920  -165.24    0.0861
        950    1.2465   0.27816  -163.53    0.0847
       1000    1.2549   0.27880  -163.13    0.0851
       1050    1.2674   0.28619  -161.79    0.0850
       1100    1.2635   0.28546  -161.20    0.0859
       1150    1.2832   0.29042  -159.52    0.0872
       1200    1.2949   0.28179  -161.53    0.0892
       1250    1.2949   0.29004  -158.29    0.0901
       1300    1.3142   0.29893  -156.90    0.0896
       1350    1.3217   0.29461  -156.90    0.0906
       1400    1.3423   0.30464  -155.69    0.0816
       1450    1.3479   0.31629  -153.15    0.0889
       1500    1.3535   0.30791  -153.99    0.0926
       1550    1.3382   0.31184  -153.47    0.0922
       1600    1.3302   0.30723  -151.36    0.0983
       1650    1.3498   0.32196  -150.30    0.0935
       1700    1.3675   0.32071  -150.97    0.0941
       1750    1.3490   0.32115  -149.32    0.0980
       1800    1.3334   0.32559  -149.66    0.0936
       1850    1.3570   0.32812  -149.87    0.0960
       1900    1.3902   0.32071  -145.60    0.1072
       1950    1.4391   0.32553  -144.05    0.1064
       2000    1.4188   0.34278  -146.01    0.1011

