! Filename:  P:\Prog\Test\Noise\ATS_data\Testdata_Net\06 Compressed Noise after Statistics\BFU520_APG2013_37_A05_05p0V_003mA_NF_CM01_D.sf
! Date/Time: Fri 26/Apr/2013 14:13:10
! BFU520_APG2013_37_A05_05p0V_1to20mA_NF_CM01_Bias3_R.sf
! Noise Parameter Data File
! BFU520_APG2013_37_A05_05p0V_1to20mA_NF_CM01
! Date/time: Tue Apr 23 16:46:24 2013
! VAR V_out= 5.000000
! VAR I_out= 3.000000
! VAR V_in= 0.816700
! VAR I_in= 0.033605
! Device data file deembeded for feedlines and parallel
! Original file: \06 Compressed Noise after Statistics\BFU520_APG2013_37_A05_05p0V_003mA_NF_CM01_R.sf
! Feed-files: PR047V01_250413_Feed1.s2p, PR047V01_250413_Feed2.s2p
! Parallel-file: PR047V01_250413_Par.s2p
# MHz S MA R 50
!  Freq-MHz   S11-mag  S11-arg   S21-mag  S21-arg   S12-mag  S12-arg   S22-mag  S22-arg
        400   0.78633   -53.64     8.306   141.33  0.057046    60.29   0.87183   -27.82
        420    0.7787   -56.07    8.2153   139.70  0.059172    59.15   0.86251   -28.96
        433   0.77371   -57.56    8.1361   138.68  0.060472    58.43   0.85651   -29.61
        440   0.77134   -58.42    8.1103   138.13  0.061175    58.01    0.8537   -29.99
        460   0.76382   -60.71    8.0084   136.60  0.063131    56.89   0.84541   -31.09
        480   0.75696   -62.94    7.8872   135.11  0.064838    55.78    0.8342   -32.08
        500   0.74862   -65.28    7.8038   133.60  0.066608    54.75   0.82518   -33.06
        550   0.72835   -71.01    7.5614   129.80  0.070344    52.18    0.8004   -35.42
        600   0.71137   -76.19    7.3176   126.46  0.074079    50.02   0.77938   -37.55
        650   0.69574   -81.05    7.0351   123.31  0.077384    47.92   0.75835   -39.59
        700   0.67909   -86.13    6.8022   120.10  0.080009    45.97   0.73713   -41.38
        750   0.66366   -90.63      6.55   117.23   0.08266    44.25   0.71852   -43.14
        800   0.65044   -95.21    6.3334   114.41  0.084882    42.69   0.69894   -44.75
        850   0.63639   -99.54    6.1137   111.73   0.08696    41.16   0.68231   -46.18
        900   0.62216  -103.73    5.9101   109.14  0.088866    39.80     0.667   -47.68
        950   0.61246  -107.73    5.7143   106.73  0.090291    38.53   0.65014   -49.03
       1000   0.60221  -111.42    5.5228   104.39  0.091816    37.40   0.63703   -50.23
       1050    0.5912  -115.31    5.3403   102.06   0.09297    36.30   0.62293   -51.57
       1100   0.58389  -118.71    5.1612    99.96  0.094076    35.42   0.61076   -52.56
       1150   0.57391  -122.27    5.0005    97.85  0.095306    34.48   0.59998   -53.66
       1200   0.56638  -125.74    4.8497    95.78  0.096098    33.61    0.5886   -54.81
       1250   0.56074  -128.77    4.6986    93.94  0.097019    32.96   0.57948   -55.59
       1300    0.5522  -131.92    4.5657    92.03   0.09772    32.26   0.56978   -56.72
       1350   0.54717  -134.95    4.4311    90.21  0.098311    31.68    0.5606   -57.64
       1400   0.54351  -137.73    4.3071    88.48  0.098943    31.15   0.55299   -58.41
       1450   0.53605  -140.93    4.1876    86.65  0.099566    30.58   0.54598   -59.46
       1500   0.53305  -143.63    4.0712    84.95  0.099987    30.11   0.53926   -60.32
       1550    0.5285  -146.14    3.9617    83.35    0.1005    29.71   0.53303   -61.10
       1600    0.5238  -149.04     3.858    81.66   0.10076    29.31   0.52618   -62.06
       1650   0.52278  -151.21    3.7587    80.20   0.10112    29.10   0.52102   -62.72
       1700   0.51843  -153.64    3.6668    78.74    0.1014    28.94   0.51523   -63.53
       1750   0.51499  -156.52    3.5758    77.13    0.1018    28.56   0.51026   -64.41
       1800   0.51558  -158.42    3.4951    75.75   0.10215    28.50   0.50674   -65.04
       1850   0.51129  -161.08    3.4104    74.15   0.10253    28.18   0.50357   -65.97
       1900   0.50956  -163.36    3.3293    72.74   0.10262    28.01   0.49953   -66.80
       1950   0.50963  -164.98    3.2543    71.40   0.10285    27.97   0.49719   -67.45
       2000   0.50567  -167.43    3.1771    69.96   0.10282    27.92   0.49305   -68.43

!  
! Device Noise Parameters
!  Freq-MHz   Fmin-dB  Gopt-mag  Gopt-arg   Rn-Ohm_normalized
        400    0.6136   0.40383    20.73    0.1695
        420    0.5866   0.33744    21.05    0.1543
        433    0.6225   0.39300    21.38    0.1610
        440    0.5949   0.37877    22.84    0.1522
        460    0.5676   0.37098    25.89    0.1533
        480    0.5978   0.37461    23.63    0.1584
        500    0.6089   0.35723    27.94    0.1518
        550    0.6267   0.37391    28.54    0.1692
        600    0.6773   0.38365    30.18    0.1654
        650    0.6319   0.35428    37.03    0.1476
        700    0.6879   0.35426    37.47    0.1513
        750    0.6537   0.34572    38.76    0.1513
        800    0.6631   0.34387    42.86    0.1504
        850    0.6999   0.34567    46.70    0.1442
        900    0.7079   0.34379    48.08    0.1456
        950    0.7025   0.33632    50.38    0.1457
       1000    0.7182   0.34103    53.99    0.1412
       1050    0.7346   0.33909    56.65    0.1396
       1100    0.7165   0.33367    60.01    0.1359
       1150    0.7479   0.32339    62.40    0.1344
       1200    0.7555   0.32911    64.83    0.1375
       1250    0.7659   0.33025    69.71    0.1322
       1300    0.7866   0.32022    71.63    0.1301
       1350    0.7972   0.32631    73.78    0.1292
       1400    0.7537   0.32421    77.03    0.1303
       1450    0.8945   0.31877    78.44    0.1345
       1500    0.8444   0.31394    82.74    0.1280
       1550    0.8409   0.31840    85.84    0.1191
       1600    0.7776   0.31555    88.86    0.1135
       1650    0.8073   0.30447    95.00    0.1062
       1700    0.8186   0.31974    93.16    0.1174
       1750    0.8280   0.31516    98.12    0.1027
       1800    0.6905   0.31636   103.83    0.0941
       1850    0.7822   0.31108   104.19    0.1007
       1900    0.9117   0.33063   106.94    0.0995
       1950    0.8976   0.32713   110.86    0.1053
       2000    0.8565   0.31350   115.01    0.1032

