! Filename:  P:\Prog\Test\Noise\ATS_data\Testdata_Net\06 Compressed Noise after Statistics\BFU520_APG2013_37_A05_05p0V_015mA_NF_CM01_D.sf
! Date/Time: Fri 26/Apr/2013 14:13:11
! BFU520_APG2013_37_A05_05p0V_1to20mA_NF_CM01_Bias7_R.sf
! Noise Parameter Data File
! BFU520_APG2013_37_A05_05p0V_1to20mA_NF_CM01
! Date/time: Tue Apr 23 16:46:24 2013
! VAR V_out= 5.000000
! VAR I_out= 15.000000
! VAR V_in= 0.843500
! VAR I_in= 0.173700
! Device data file deembeded for feedlines and parallel
! Original file: \06 Compressed Noise after Statistics\BFU520_APG2013_37_A05_05p0V_015mA_NF_CM01_R.sf
! Feed-files: PR047V01_250413_Feed1.s2p, PR047V01_250413_Feed2.s2p
! Parallel-file: PR047V01_250413_Par.s2p
# MHz S MA R 50
!  Freq-MHz   S11-mag  S11-arg   S21-mag  S21-arg   S12-mag  S12-arg   S22-mag  S22-arg
        400   0.49217  -119.25    16.806   113.90  0.032265    52.97   0.56058   -44.34
        420    0.4902  -122.14    16.205   112.38   0.03304    52.68   0.54596   -45.06
        433   0.48823  -123.97    15.837   111.41  0.033483    52.49   0.53684   -45.42
        440   0.48798  -124.97     15.65   110.89  0.033707    52.38   0.53239   -45.60
        460   0.48581  -127.66    15.116   109.49  0.034414    52.20   0.52018   -46.20
        480   0.48486  -130.15    14.626   108.17  0.035065    52.05   0.50728   -46.65
        500   0.48281  -132.57    14.151   106.92  0.035711    51.95   0.49638   -47.12
        550   0.47832  -138.32    13.104   103.78  0.037053    51.96   0.46946   -47.91
        600   0.47632  -142.98    12.185   101.23  0.038737    52.08   0.45027   -48.72
        650   0.47532  -147.35    11.368    98.82  0.040261    52.19   0.43247   -49.51
        700   0.47366  -151.02    10.646    96.64  0.041706    52.53   0.41736   -49.90
        750   0.47268  -154.83    10.009    94.55  0.043218    52.89   0.40474   -50.49
        800   0.47271  -157.94    9.4407    92.66  0.044766    53.25   0.39308   -51.07
        850   0.47244  -161.01     8.935    90.86  0.046257    53.62    0.3832   -51.44
        900   0.47093  -164.09    8.4729    89.09  0.047788    54.01   0.37507   -52.06
        950   0.47177  -166.60    8.0631    87.49  0.049344    54.40   0.36742   -52.50
       1000   0.47088  -168.98    7.6866    85.92  0.050967    54.80   0.36148   -52.90
       1050   0.47127  -171.70    7.3403    84.35  0.052535    55.10   0.35616   -53.60
       1100   0.47227  -173.56    7.0247    82.97  0.054166    55.52   0.35135   -53.95
       1150   0.47165  -175.95    6.7316    81.54  0.055777    55.76   0.34696   -54.54
       1200   0.47254  -178.07    6.4651    80.14  0.057375    56.01   0.34326   -55.23
       1250   0.47369  -179.77     6.221    78.89  0.059092    56.36   0.34006   -55.53
       1300   0.47256   178.14      5.99    77.57  0.060747    56.58   0.33745   -56.31
       1350   0.47386   176.35    5.7774    76.33  0.062423    56.82   0.33483   -56.93
       1400   0.47473   174.87    5.5842    75.14  0.064201    57.07   0.33267   -57.34
       1450   0.47503   172.62     5.394    73.84  0.065896    57.13   0.33139   -58.26
       1500   0.47648   171.19    5.2192    72.65   0.06758    57.28   0.32993   -58.92
       1550   0.47618   169.65    5.0559    71.52  0.069332    57.41   0.32854   -59.50
       1600    0.4769   167.78    4.8957    70.30  0.070972    57.47   0.32755   -60.38
       1650    0.4783   166.75    4.7559    69.26  0.072811    57.64   0.32669   -60.87
       1700   0.47805   165.17    4.6213    68.21  0.074564    57.76   0.32597   -61.62
       1750   0.47975   163.34    4.4855    67.06  0.076248    57.74   0.32497   -62.58
       1800   0.48152   162.42    4.3754    66.03  0.078191    57.83   0.32512   -63.06
       1850   0.48176   160.55    4.2529    64.84  0.079834    57.74   0.32581   -64.13
       1900   0.48257   159.25    4.1399    63.79  0.081538    57.72   0.32553   -64.95
       1950   0.48298   158.46    4.0402    62.79  0.083336    57.74   0.32626   -65.54
       2000   0.48313   156.78    3.9296    61.71  0.084828    57.75   0.32613   -66.73

!  
! Device Noise Parameters
!  Freq-MHz   Fmin-dB  Gopt-mag  Gopt-arg   Rn-Ohm_normalized
        400    1.1041   0.12307  -172.81    0.1094
        420    1.0150   0.16321  -176.16    0.0939
        433    1.0444   0.14955  -175.53    0.0930
        440    1.0065   0.15371  -176.55    0.0933
        460    1.0302   0.17144  -171.50    0.0905
        480    1.0386   0.16747  -176.09    0.0864
        500    1.0590   0.18003  -172.32    0.0866
        550    1.0830   0.15635  -173.95    0.0945
        600    1.0946   0.15170  -171.51    0.0995
        650    1.0778   0.17184  -174.07    0.0902
        700    1.0833   0.17918  -172.73    0.0896
        750    1.0776   0.17850  -170.03    0.0899
        800    1.0969   0.18474  -171.25    0.0884
        850    1.0945   0.19071  -172.00    0.0880
        900    1.1001   0.19113  -168.51    0.0887
        950    1.1094   0.19883  -168.66    0.0858
       1000    1.1137   0.19946  -170.75    0.0859
       1050    1.1209   0.19326  -168.03    0.0893
       1100    1.1267   0.20604  -167.11    0.0862
       1150    1.1437   0.20930  -165.31    0.0863
       1200    1.1436   0.20947  -166.04    0.0876
       1250    1.1568   0.20939  -165.05    0.0904
       1300    1.1621   0.22210  -163.59    0.0875
       1350    1.1605   0.22399  -164.26    0.0873
       1400    1.1644   0.24038  -160.01    0.0789
       1450    1.2102   0.22991  -160.77    0.0876
       1500    1.2045   0.23209  -162.33    0.0878
       1550    1.1727   0.23060  -161.24    0.0907
       1600    1.1947   0.23721  -157.94    0.0900
       1650    1.1898   0.23762  -161.23    0.0899
       1700    1.1964   0.23733  -160.36    0.0920
       1750    1.1968   0.24059  -158.29    0.0906
       1800    1.1504   0.25937  -160.07    0.0850
       1850    1.1733   0.24921  -156.64    0.0912
       1900    1.2199   0.24556  -151.86    0.0983
       1950    1.2331   0.26520  -153.96    0.0924
       2000    1.2475   0.25515  -154.50    0.0962

