! Filename:  P:\Prog\Test\Noise\ATS_data\Testdata_Net\06 Compressed Noise after Statistics\BFU520_APG2013_37_A05_08p0V_015mA_NF_CM01_D.sf
! Date/Time: Fri 26/Apr/2013 14:13:12
! BFU520_APG2013_37_A05_08p0V_1to20mA_NF_CM01_Bias7_R.sf
! Noise Parameter Data File
! BFU520_APG2013_37_A05_08p0V_1to20mA_NF_CM01
! Date/time: Tue Apr 23 18:16:22 2013
! VAR V_out= 8.001000
! VAR I_out= 14.990000
! VAR V_in= 0.825400
! VAR I_in= 0.166100
! Device data file deembeded for feedlines and parallel
! Original file: \06 Compressed Noise after Statistics\BFU520_APG2013_37_A05_08p0V_015mA_NF_CM01_R.sf
! Feed-files: PR047V01_250413_Feed1.s2p, PR047V01_250413_Feed2.s2p
! Parallel-file: PR047V01_250413_Par.s2p
# MHz S MA R 50
!  Freq-MHz   S11-mag  S11-arg   S21-mag  S21-arg   S12-mag  S12-arg   S22-mag  S22-arg
        400   0.48753  -113.06    17.323   115.70  0.032781    53.71    0.5797   -44.31
        420   0.48433  -116.04    16.724   114.15  0.033578    53.41   0.56462   -45.12
        433   0.48169  -117.92    16.356   113.16  0.034043    53.23   0.55518   -45.53
        440   0.48059  -119.01    16.168   112.63  0.034297    53.14   0.55054   -45.74
        460    0.4775  -121.75    15.633   111.21  0.035015    52.86   0.53782   -46.42
        480   0.47599  -124.31     15.14   109.86  0.035698    52.67    0.5244   -46.94
        500    0.4727  -126.85    14.664   108.57  0.036346    52.47   0.51302   -47.49
        550   0.46622  -132.91    13.598   105.37   0.03775    52.35   0.48453   -48.47
        600   0.46264  -137.82    12.665   102.76  0.039459    52.35   0.46415   -49.41
        650   0.46012  -142.43    11.829   100.30  0.041026    52.38   0.44513   -50.32
        700    0.4575  -146.38    11.087    98.06  0.042492    52.65   0.42881   -50.81
        750   0.45519  -150.41    10.434    95.94  0.044017    52.86   0.41508   -51.49
        800   0.45464  -153.71    9.8476    94.01  0.045536    53.18   0.40242   -52.13
        850   0.45354  -157.01    9.3256    92.18  0.047081    53.50   0.39154   -52.56
        900   0.45149  -160.26    8.8482    90.39  0.048606    53.83    0.3826   -53.21
        950   0.45196  -162.99    8.4237    88.76  0.050152    54.15   0.37411   -53.69
       1000   0.45049  -165.50    8.0339    87.17  0.051758    54.52   0.36744   -54.12
       1050   0.45031  -168.40    7.6738    85.58  0.053338    54.77   0.36148   -54.83
       1100    0.4513  -170.36    7.3456    84.18  0.054968    55.14   0.35596   -55.17
       1150   0.45034  -172.91    7.0412    82.74  0.056573    55.36   0.35098   -55.77
       1200   0.45083  -175.15    6.7643    81.33  0.058195    55.58   0.34681   -56.45
       1250   0.45179  -176.98    6.5096    80.07  0.059881    55.92   0.34305   -56.74
       1300   0.45037  -179.15    6.2701    78.74  0.061521    56.09   0.34004   -57.51
       1350    0.4515   178.96    6.0495    77.49  0.063218    56.31   0.33697   -58.13
       1400    0.4525   177.37    5.8476    76.29  0.064956    56.55    0.3344   -58.52
       1450   0.45228   175.00    5.6501    74.99  0.066666    56.58   0.33281   -59.42
       1500   0.45377   173.48    5.4668    73.79  0.068341    56.74   0.33095   -60.07
       1550   0.45337   171.92    5.2966    72.66  0.070074    56.84   0.32924   -60.61
       1600   0.45376   169.90    5.1293    71.45  0.071688    56.90   0.32797   -61.48
       1650   0.45561   168.85    4.9827    70.41  0.073524    57.06   0.32683   -61.93
       1700   0.45495   167.22    4.8429    69.37  0.075282    57.15   0.32584   -62.66
       1750    0.4564   165.28    4.7019    68.21  0.076931    57.13    0.3246   -63.61
       1800   0.45812   164.26    4.5855    67.17  0.078828    57.20    0.3244   -64.05
       1850   0.45846   162.36    4.4578    65.99  0.080499    57.13   0.32497   -65.09
       1900   0.45934   160.96    4.3394    64.95  0.082202    57.09   0.32444   -65.91
       1950   0.45941   160.21    4.2355    63.94  0.083954    57.09   0.32489   -66.45
       2000   0.45951   158.49    4.1196    62.88  0.085444    57.09    0.3246   -67.62

!  
! Device Noise Parameters
!  Freq-MHz   Fmin-dB  Gopt-mag  Gopt-arg   Rn-Ohm_normalized
        400    1.1212   0.09915   174.42    0.1143
        420    1.0232   0.12807   178.76    0.1037
        433    1.0637   0.11799   178.75    0.1011
        440    1.0546   0.12858  -176.42    0.0965
        460    1.0458   0.16368  -172.84    0.0905
        480    1.0431   0.12592   179.80    0.1009
        500    1.0741   0.14174  -171.74    0.0975
        550    1.0827   0.11136   178.32    0.1089
        600    1.0954   0.12641  -171.47    0.1081
        650    1.0851   0.13692  -176.36    0.1008
        700    1.0967   0.14542  -175.87    0.0975
        750    1.0778   0.14827  -173.04    0.0971
        800    1.0938   0.15910  -173.36    0.0957
        850    1.1102   0.15570  -172.93    0.0970
        900    1.1164   0.15751  -171.71    0.0959
        950    1.1191   0.16579  -168.89    0.0945
       1000    1.1288   0.16035  -172.24    0.0963
       1050    1.1348   0.16993  -173.22    0.0928
       1100    1.1394   0.17192  -169.49    0.0942
       1150    1.1598   0.17522  -169.43    0.0939
       1200    1.1524   0.17624  -166.93    0.0969
       1250    1.1679   0.17489  -167.87    0.0973
       1300    1.1698   0.18112  -166.16    0.0984
       1350    1.1822   0.18524  -167.41    0.0954
       1400    1.1810   0.19394  -165.08    0.0962
       1450    1.2180   0.18908  -163.65    0.0994
       1500    1.1997   0.20051  -164.84    0.0965
       1550    1.2111   0.19952  -162.27    0.0965
       1600    1.1968   0.20286  -160.69    0.0984
       1650    1.2118   0.20945  -161.08    0.0962
       1700    1.2159   0.21343  -161.80    0.0942
       1750    1.2174   0.21449  -158.63    0.0971
       1800    1.1565   0.21915  -158.61    0.0982
       1850    1.2135   0.21959  -156.79    0.0963
       1900    1.2315   0.21931  -156.21    0.1012
       1950    1.2445   0.22441  -156.62    0.1002
       2000    1.2623   0.22745  -156.77    0.1006

