! Filename:  P:\Prog\Test\Noise\ATS_data\Testdata_Net\06 Compressed Noise after Statistics\BFU520_APG2013_37_A05_08p0V_005mA_NF_CM01_D.sf
! Date/Time: Fri 26/Apr/2013 14:13:12
! BFU520_APG2013_37_A05_08p0V_1to20mA_NF_CM01_Bias4_R.sf
! Noise Parameter Data File
! BFU520_APG2013_37_A05_08p0V_1to20mA_NF_CM01
! Date/time: Tue Apr 23 18:16:22 2013
! VAR V_out= 8.000000
! VAR I_out= 5.000000
! VAR V_in= 0.820400
! VAR I_in= 0.054600
! Device data file deembeded for feedlines and parallel
! Original file: \06 Compressed Noise after Statistics\BFU520_APG2013_37_A05_08p0V_005mA_NF_CM01_R.sf
! Feed-files: PR047V01_250413_Feed1.s2p, PR047V01_250413_Feed2.s2p
! Parallel-file: PR047V01_250413_Par.s2p
# MHz S MA R 50
!  Freq-MHz   S11-mag  S11-arg   S21-mag  S21-arg   S12-mag  S12-arg   S22-mag  S22-arg
        400   0.68997   -67.74    11.598   133.89  0.048926    56.80   0.79739   -33.55
        420   0.68091   -70.51    11.385   132.17  0.050463    55.74   0.78488   -34.73
        433   0.67536   -72.23    11.237   131.08  0.051401    55.04   0.77678   -35.40
        440   0.67232   -73.27    11.175   130.49  0.051895    54.71   0.77268   -35.78
        460   0.66364   -75.87    10.958   128.89  0.053301    53.68   0.76132   -36.88
        480   0.65643   -78.39    10.743   127.34  0.054511    52.72   0.74763   -37.83
        500   0.64715   -81.01    10.549   125.79  0.055739    51.86   0.73633   -38.80
        550   0.62622   -87.39    10.076   121.93  0.058182    49.78   0.70597   -41.01
        600   0.60971   -92.95    9.6126   118.64  0.060759    48.10   0.68142   -42.95
        650   0.59497   -98.27    9.1478   115.56   0.06297    46.53    0.6574   -44.80
        700   0.58006  -103.38    8.7314   112.54  0.064717    45.19   0.63477   -46.29
        750   0.56679  -108.20    8.3339   109.82  0.066481    44.04   0.61487   -47.80
        800   0.55612  -112.75    7.9737   107.22  0.068066    43.11   0.59535   -49.13
        850   0.54574  -117.10    7.6347   104.78    0.0695    42.20   0.57846   -50.27
        900   0.53434  -121.34    7.3197   102.42  0.070834    41.45   0.56343   -51.54
        950   0.52754  -125.21    7.0286   100.25  0.071951    40.84   0.54809   -52.57
       1000   0.52014  -128.75    6.7521    98.14  0.073127    40.31   0.53575   -53.52
       1050    0.5122  -132.58    6.4937    96.05  0.074126    39.81   0.52349   -54.61
       1100   0.50825  -135.73    6.2467    94.20  0.075157    39.51    0.5127   -55.34
       1150   0.50116  -139.15    6.0229    92.31    0.0762    39.14   0.50291   -56.25
       1200   0.49657  -142.42    5.8142    90.48  0.077081    38.85   0.49356   -57.17
       1250   0.49358  -145.20    5.6146    88.85  0.078037    38.73   0.48558   -57.75
       1300   0.48806  -148.16    5.4321    87.17  0.078945    38.55   0.47785   -58.68
       1350   0.48528  -150.95    5.2572    85.56  0.079764    38.44   0.47056   -59.44
       1400   0.48375  -153.42    5.0959    84.04  0.080659    38.43   0.46435   -60.01
       1450   0.47925  -156.48      4.94    82.41   0.08158    38.29   0.45894   -60.94
       1500   0.47837  -158.85    4.7908    80.92  0.082371    38.26   0.45373   -61.67
       1550   0.47523  -161.16    4.6521    79.50  0.083246    38.27   0.44885   -62.31
       1600   0.47289  -163.82    4.5182    78.01  0.084017    38.28   0.44408   -63.16
       1650   0.47336  -165.64    4.3952    76.72  0.084891    38.43   0.44026   -63.69
       1700   0.47077  -167.86    4.2801    75.43  0.085743    38.57   0.43626   -64.40
       1750   0.46943  -170.49    4.1645    74.00  0.086574    38.53   0.43243   -65.26
       1800   0.47079  -172.12    4.0655    72.77  0.087567    38.75   0.43007   -65.77
       1850    0.4683  -174.61    3.9601    71.34  0.088437    38.73   0.42815   -66.68
       1900   0.46803  -176.57    3.8599    70.08  0.089196    38.81   0.42545   -67.44
       1950    0.4685  -177.88    3.7702    68.89  0.090059    38.99   0.42401   -68.01
       2000   0.46631   179.85    3.6739    67.61  0.090671    39.13    0.4214   -68.99

!  
! Device Noise Parameters
!  Freq-MHz   Fmin-dB  Gopt-mag  Gopt-arg   Rn-Ohm_normalized
        400    0.7475   0.22804    22.81    0.1386
        420    0.6680   0.20155    26.39    0.1197
        433    0.7022   0.20927    24.79    0.1275
        440    0.6824   0.20768    23.19    0.1231
        460    0.6949   0.18528    31.61    0.1195
        480    0.6972   0.20251    27.98    0.1225
        500    0.7088   0.18512    29.49    0.1233
        550    0.7212   0.20880    28.15    0.1376
        600    0.7400   0.18810    30.15    0.1395
        650    0.7238   0.19931    38.01    0.1251
        700    0.7638   0.19721    41.12    0.1240
        750    0.7506   0.18776    42.76    0.1215
        800    0.7539   0.19511    47.58    0.1206
        850    0.7913   0.19423    51.10    0.1193
        900    0.7721   0.19396    55.21    0.1173
        950    0.7820   0.18293    55.87    0.1182
       1000    0.7805   0.19176    59.34    0.1177
       1050    0.7883   0.18749    62.52    0.1158
       1100    0.7939   0.18445    68.09    0.1117
       1150    0.8162   0.18363    69.61    0.1117
       1200    0.8188   0.18542    70.20    0.1163
       1250    0.8259   0.19039    76.74    0.1120
       1300    0.8598   0.17601    78.30    0.1129
       1350    0.8668   0.19027    83.06    0.1076
       1400    0.8444   0.20004    91.23    0.1042
       1450    0.9137   0.19255    88.06    0.1119
       1500    0.8927   0.19192    93.99    0.1096
       1550    0.8849   0.19308    96.82    0.1032
       1600    0.8540   0.18619   101.20    0.1005
       1650    0.8601   0.20065   107.41    0.0957
       1700    0.8733   0.20138   108.38    0.1018
       1750    0.8672   0.19600   111.16    0.0963
       1800    0.8326   0.20179   117.28    0.0840
       1850    0.8631   0.20262   118.80    0.0902
       1900    0.9131   0.19738   115.27    0.1016
       1950    0.9334   0.20409   125.71    0.0924
       2000    0.9505   0.19838   127.93    0.0925

