! Filename:  P:\Prog\Test\Noise\ATS_data\Testdata_Net\06 Compressed Noise after Statistics\BFU520_APG2013_37_A05_08p0V_003mA_NF_CM01_D.sf
! Date/Time: Fri 26/Apr/2013 14:13:12
! BFU520_APG2013_37_A05_08p0V_1to20mA_NF_CM01_Bias3_R.sf
! Noise Parameter Data File
! BFU520_APG2013_37_A05_08p0V_1to20mA_NF_CM01
! Date/time: Tue Apr 23 18:16:22 2013
! VAR V_out= 8.000000
! VAR I_out= 2.995000
! VAR V_in= 0.812300
! VAR I_in= 0.032505
! Device data file deembeded for feedlines and parallel
! Original file: \06 Compressed Noise after Statistics\BFU520_APG2013_37_A05_08p0V_003mA_NF_CM01_R.sf
! Feed-files: PR047V01_250413_Feed1.s2p, PR047V01_250413_Feed2.s2p
! Parallel-file: PR047V01_250413_Par.s2p
# MHz S MA R 50
!  Freq-MHz   S11-mag  S11-arg   S21-mag  S21-arg   S12-mag  S12-arg   S22-mag  S22-arg
        400    0.7922   -52.22    8.3031   142.02  0.055605    60.92   0.87735   -27.08
        420   0.78447   -54.58    8.2165   140.43  0.057709    59.77   0.86856   -28.20
        433   0.77974   -56.02    8.1401   139.41  0.059007    59.06   0.86278   -28.84
        440   0.77733   -56.87    8.1158   138.87  0.059648    58.63   0.85992   -29.21
        460   0.76949   -59.15    8.0179   137.36  0.061622    57.51   0.85204   -30.29
        480   0.76295   -61.32    7.8994   135.88  0.063316    56.45   0.84112   -31.27
        500   0.75464   -63.62    7.8186   134.38  0.065055    55.43   0.83236   -32.23
        550   0.73428   -69.25    7.5864   130.60  0.068787    52.86    0.8082   -34.57
        600   0.71734   -74.34    7.3507   127.28  0.072539    50.71   0.78778   -36.68
        650   0.70148   -79.16    7.0728   124.14  0.075823    48.60   0.76702   -38.71
        700   0.68427   -84.14    6.8463   120.94  0.078458    46.66   0.74633   -40.49
        750   0.66849   -88.61    6.5975   118.07  0.081138    44.90     0.728   -42.25
        800   0.65486   -93.15    6.3847   115.26  0.083372    43.35   0.70859   -43.83
        850   0.64061   -97.45    6.1688   112.58  0.085472    41.79   0.69215   -45.27
        900   0.62601  -101.62    5.9672   109.99  0.087391    40.43   0.67689   -46.77
        950   0.61583  -105.62    5.7743   107.57  0.088817    39.15   0.66021   -48.11
       1000   0.60508  -109.27    5.5839   105.22  0.090356    37.99   0.64707   -49.32
       1050   0.59335  -113.14    5.4022   102.88  0.091554    36.88   0.63301   -50.66
       1100   0.58592  -116.57    5.2237   100.77  0.092682    35.98   0.62085   -51.64
       1150   0.57528  -120.10    5.0635    98.66  0.093917    35.03   0.61003   -52.74
       1200   0.56734  -123.59     4.913    96.58  0.094713    34.16   0.59858   -53.89
       1250   0.56119  -126.65    4.7613    94.73  0.095644    33.51   0.58941   -54.67
       1300   0.55274  -129.81    4.6287    92.82  0.096363    32.79   0.57969   -55.80
       1350     0.547  -132.85    4.4944    90.98  0.096966    32.17   0.57053   -56.73
       1400     0.543  -135.65      4.37    89.24  0.097619    31.65   0.56283   -57.49
       1450     0.535  -138.86    4.2496    87.41  0.098248    31.05    0.5557   -58.53
       1500   0.53208  -141.57    4.1327    85.70  0.098692    30.58    0.5489   -59.40
       1550    0.5267  -144.13     4.022    84.10  0.099185    30.17   0.54253   -60.18
       1600   0.52167  -147.07    3.9184    82.40   0.09946    29.75   0.53563   -61.13
       1650   0.52065  -149.27    3.8179    80.93  0.099795    29.54   0.53041   -61.79
       1700    0.5161  -151.69    3.7252    79.47   0.10009    29.37   0.52459   -62.60
       1750   0.51221  -154.56    3.6336    77.85   0.10048    28.99   0.51951   -63.48
       1800    0.5126  -156.57    3.5518    76.47   0.10085    28.90   0.51588   -64.10
       1850   0.50818  -159.21    3.4662    74.85   0.10122    28.59   0.51265   -65.03
       1900   0.50609  -161.52    3.3845    73.43   0.10133    28.41    0.5085   -65.86
       1950   0.50576  -163.17    3.3084    72.10   0.10151    28.37   0.50603   -66.51
       2000   0.50172  -165.69    3.2303    70.65    0.1015    28.29    0.5018   -67.48

!  
! Device Noise Parameters
!  Freq-MHz   Fmin-dB  Gopt-mag  Gopt-arg   Rn-Ohm_normalized
        400    0.6287   0.37880    16.87    0.1792
        420    0.5811   0.34862    20.13    0.1602
        433    0.6221   0.38520    21.08    0.1670
        440    0.6195   0.37375    20.06    0.1585
        460    0.6065   0.34399    24.97    0.1556
        480    0.6000   0.36597    23.92    0.1616
        500    0.6131   0.36538    27.31    0.1532
        550    0.6646   0.37898    26.27    0.1701
        600    0.6312   0.36522    26.14    0.1814
        650    0.6482   0.35144    34.64    0.1524
        700    0.6813   0.36042    36.55    0.1564
        750    0.6506   0.35798    37.50    0.1554
        800    0.6872   0.34854    42.73    0.1508
        850    0.6906   0.34862    45.00    0.1492
        900    0.7034   0.35320    45.61    0.1507
        950    0.7066   0.35183    50.60    0.1458
       1000    0.7289   0.34596    52.73    0.1441
       1050    0.7187   0.35056    56.01    0.1427
       1100    0.7263   0.33483    58.54    0.1384
       1150    0.7536   0.33940    59.72    0.1405
       1200    0.7523   0.34140    62.41    0.1431
       1250    0.7546   0.33212    65.98    0.1405
       1300    0.7711   0.32690    68.23    0.1396
       1350    0.7977   0.33360    70.56    0.1349
       1400    0.7644   0.33184    73.98    0.1340
       1450    0.8588   0.35450    73.76    0.1510
       1500    0.8464   0.31943    80.48    0.1350
       1550    0.8440   0.32658    82.26    0.1253
       1600    0.8159   0.30759    85.00    0.1197
       1650    0.8048   0.30828    89.01    0.1177
       1700    0.8192   0.32818    89.06    0.1268
       1750    0.8273   0.30455    95.30    0.1120
       1800    0.7338   0.29975   101.39    0.0992
       1850    0.8225   0.30183   100.03    0.1046
       1900    0.8954   0.29337   104.67    0.1149
       1950    0.9110   0.29887   107.45    0.1179
       2000    0.9072   0.28313   109.86    0.1114

