! Filename:  P:\Prog\Test\Noise\ATS_data\Testdata_Net\06 Compressed Noise after Statistics\BFU520_APG2013_37_A05_08p0V_002mA_NF_CM01_D.sf
! Date/Time: Fri 26/Apr/2013 14:13:11
! BFU520_APG2013_37_A05_08p0V_1to20mA_NF_CM01_Bias2_R.sf
! Noise Parameter Data File
! BFU520_APG2013_37_A05_08p0V_1to20mA_NF_CM01
! Date/time: Tue Apr 23 18:16:22 2013
! VAR V_out= 8.000000
! VAR I_out= 1.995000
! VAR V_in= 0.804200
! VAR I_in= 0.021505
! Device data file deembeded for feedlines and parallel
! Original file: \06 Compressed Noise after Statistics\BFU520_APG2013_37_A05_08p0V_002mA_NF_CM01_R.sf
! Feed-files: PR047V01_250413_Feed1.s2p, PR047V01_250413_Feed2.s2p
! Parallel-file: PR047V01_250413_Par.s2p
# MHz S MA R 50
!  Freq-MHz   S11-mag  S11-arg   S21-mag  S21-arg   S12-mag  S12-arg   S22-mag  S22-arg
        400   0.85485   -43.04     6.064   147.25  0.059542    64.15   0.92098   -22.64
        420   0.84912   -45.08    6.0326   145.79  0.062005    63.04   0.91464   -23.66
        433   0.84524   -46.34    5.9892   144.83  0.063536    62.33    0.9106   -24.24
        440   0.84355   -47.03    5.9796   144.35   0.06434    61.95   0.90892   -24.59
        460   0.83735   -49.02    5.9339   142.97  0.066689    60.82   0.90353   -25.58
        480   0.83221   -50.92    5.8622   141.58  0.068791    59.74   0.89517   -26.50
        500   0.82534   -52.94    5.8319   140.20  0.070956    58.72   0.88875   -27.41
        550   0.80814   -57.88    5.7091   136.65  0.075744    56.06   0.87063   -29.65
        600   0.79361   -62.46    5.5913   133.46  0.080488    53.78   0.85493   -31.72
        650   0.78003   -66.80    5.4204   130.40  0.084845    51.45   0.83867   -33.74
        700   0.76415   -71.44    5.3034   127.22  0.088424    49.24   0.82153   -35.60
        750   0.74911   -75.52    5.1472   124.36  0.092073    47.27   0.80639   -37.41
        800   0.73582   -79.80     5.028   121.50  0.095178    45.39    0.7892   -39.08
        850   0.72145   -83.90    4.8956   118.75  0.098128    43.50   0.77509   -40.65
        900   0.70668   -87.81     4.771   116.08    0.1009    41.83   0.76149   -42.23
        950   0.69561   -91.73    4.6511   113.54   0.10297    40.13   0.74567   -43.75
       1000   0.68401   -95.29     4.524   111.07   0.10516    38.61   0.73361   -45.10
       1050   0.67073   -99.01    4.4013   108.59   0.10691    37.10   0.71982   -46.58
       1100   0.66176  -102.50    4.2783   106.32   0.10844    35.78    0.7078   -47.73
       1150   0.64981  -105.94    4.1693   104.06   0.11026    34.46   0.69751   -48.94
       1200      0.64  -109.46    4.0676   101.82   0.11135    33.15    0.6856   -50.25
       1250     0.632  -112.56    3.9568    99.81   0.11265    32.09   0.67661   -51.17
       1300   0.62172  -115.77     3.867    97.73   0.11356    30.95   0.66605   -52.45
       1350   0.61418  -118.88    3.7674    95.73   0.11429    29.91   0.65612   -53.52
       1400   0.60876  -121.82    3.6764    93.82   0.11506    28.96   0.64812   -54.43
       1450   0.59863  -125.04    3.5867    91.83   0.11581    27.97   0.64033   -55.57
       1500    0.5936  -127.88    3.4987    89.95   0.11624    27.09   0.63276   -56.57
       1550   0.58678  -130.55     3.414    88.19   0.11666    26.28   0.62577   -57.47
       1600   0.57985  -133.57    3.3378    86.34   0.11676    25.45   0.61773   -58.56
       1650   0.57728  -136.01      3.26    84.70   0.11692    24.85    0.6117   -59.34
       1700   0.57086  -138.52    3.1888    83.09   0.11689    24.31   0.60453   -60.25
       1750   0.56519  -141.48    3.1173    81.31   0.11721    23.51     0.599   -61.17
       1800   0.56442  -143.70    3.0524    79.78   0.11723    23.08   0.59451   -61.92
       1850   0.55803  -146.46    2.9855    78.02   0.11739    22.40   0.59064   -62.89
       1900   0.55487  -148.96    2.9209    76.46   0.11706    21.87    0.5854   -63.81
       1950   0.55384  -150.83    2.8584    74.98   0.11688    21.48   0.58236   -64.55
       2000   0.54781  -153.40    2.7968    73.40   0.11635    21.07   0.57678   -65.55

!  
! Device Noise Parameters
!  Freq-MHz   Fmin-dB  Gopt-mag  Gopt-arg   Rn-Ohm_normalized
        400    0.5935   0.48701    21.02    0.2175
        420    0.5432   0.46353    21.06    0.2009
        433    0.6004   0.50222    20.75    0.2163
        440    0.5461   0.49252    21.68    0.2038
        460    0.5574   0.47290    22.34    0.2080
        480    0.5738   0.49581    22.39    0.2102
        500    0.5619   0.47948    25.98    0.1977
        550    0.6307   0.49090    25.74    0.2187
        600    0.6162   0.46322    25.69    0.2211
        650    0.6009   0.47102    33.78    0.1892
        700    0.6561   0.47824    35.47    0.2024
        750    0.6208   0.47797    36.91    0.1985
        800    0.6420   0.47644    40.71    0.1953
        850    0.6735   0.46974    43.26    0.1887
        900    0.6679   0.46834    45.46    0.1960
        950    0.6751   0.45786    48.16    0.1908
       1000    0.6904   0.46455    51.67    0.1853
       1050    0.6962   0.47075    53.34    0.1856
       1100    0.6952   0.44756    56.92    0.1726
       1150    0.7194   0.45299    59.40    0.1708
       1200    0.7578   0.45466    61.48    0.1775
       1250    0.7434   0.45053    64.10    0.1761
       1300    0.7819   0.44392    67.68    0.1682
       1350    0.7587   0.44421    70.11    0.1715
       1400    0.7386   0.44587    72.77    0.1583
       1450    0.9338   0.43823    76.05    0.1743
       1500    0.8656   0.44388    78.48    0.1629
       1550    0.8269   0.42939    81.29    0.1531
       1600    0.7561   0.41959    85.16    0.1368
       1650    0.7428   0.42699    87.53    0.1339
       1700    0.8346   0.42596    90.06    0.1436
       1750    0.8104   0.41908    92.11    0.1234
       1800    0.6323   0.38169   100.16    0.1076
       1850    0.7470   0.41571    98.96    0.1177
       1900    0.9418   0.42266   100.80    0.1312
       1950    0.9976   0.40030   103.52    0.1289
       2000    0.9104   0.42252   107.13    0.1235

