! Filename:  P:\Prog\Test\Noise\ATS_data\Testdata_Net\06 Compressed Noise after Statistics\BFU520_APG2013_37_A05_03p3V_015mA_NF_CM01_D.sf
! Date/Time: Fri 26/Apr/2013 14:13:18
! BFU520_APG2013_37_A05_03p3V_1to20mA_NF_CM01_Bias7_R.sf
! Noise Parameter Data File
! BFU520_APG2013_37_A05_03p3V_1to20mA_NF_CM01
! Date/time: Tue Apr 23 15:18:41 2013
! VAR V_out= 3.300000
! VAR I_out= 15.000000
! VAR V_in= 0.853400
! VAR I_in= 0.178600
! Device data file deembeded for feedlines and parallel
! Original file: \06 Compressed Noise after Statistics\BFU520_APG2013_37_A05_03p3V_015mA_NF_CM01_R.sf
! Feed-files: PR047V01_250413_Feed1.s2p, PR047V01_250413_Feed2.s2p
! Parallel-file: PR047V01_250413_Par.s2p
# MHz S MA R 50
!  Freq-MHz   S11-mag  S11-arg   S21-mag  S21-arg   S12-mag  S12-arg   S22-mag  S22-arg
        400   0.50885  -125.81    15.883   111.76     0.032    51.58   0.54035   -43.68
        420   0.50768  -128.59    15.296   110.28  0.032673    51.37   0.52646   -44.29
        433   0.50673  -130.32    14.937   109.32  0.033105    51.24   0.51784   -44.58
        440   0.50646  -131.28    14.754   108.81  0.033348    51.15   0.51362   -44.73
        460   0.50555  -133.80    14.236   107.45  0.033983    51.06   0.50219   -45.21
        480   0.50522  -136.12    13.762   106.16  0.034594    50.95   0.49004   -45.56
        500   0.50398  -138.44    13.306   104.95  0.035198    50.86   0.48002   -45.92
        550   0.50107  -143.79    12.299   101.90  0.036477    51.03   0.45525   -46.49
        600   0.50057  -148.16     11.42    99.40  0.038096    51.23    0.4376   -47.14
        650   0.50058  -152.20    10.641    97.05  0.039578    51.51   0.42158   -47.77
        700   0.49974  -155.68    9.9568    94.91  0.040993    51.96   0.40815   -48.07
        750   0.49964  -159.17    9.3515    92.87  0.042452    52.39   0.39678   -48.56
        800   0.49941  -162.10    8.8169    91.00  0.043966    52.84   0.38666   -49.08
        850   0.50023  -164.97    8.3385    89.23  0.045427    53.28   0.37791   -49.42
        900   0.49924  -167.79    7.9038    87.50  0.046903    53.76   0.37085   -49.97
        950   0.50058  -170.19    7.5188    85.91  0.048459    54.19   0.36432   -50.39
       1000   0.50003  -172.44    7.1633    84.35  0.050039    54.68   0.35922   -50.80
       1050   0.50069  -174.90    6.8389    82.81  0.051594    55.04    0.3548   -51.46
       1100   0.50181  -176.71    6.5431    81.42  0.053226    55.49   0.35085   -51.85
       1150   0.50179  -178.90    6.2672    80.00  0.054793    55.80   0.34697   -52.45
       1200   0.50221   179.09    6.0187    78.60  0.056388    56.11    0.3441   -53.13
       1250   0.50366   177.44    5.7895    77.34  0.058076    56.47   0.34149   -53.49
       1300   0.50277   175.50    5.5723    76.04  0.059716    56.74   0.33926   -54.27
       1350   0.50399   173.85    5.3751    74.80  0.061412    57.01   0.33738   -54.92
       1400   0.50507   172.31    5.1929    73.60  0.063148    57.28   0.33564   -55.40
       1450   0.50573   170.32     5.016    72.31  0.064829    57.41   0.33467   -56.29
       1500   0.50662   168.90    4.8532    71.10  0.066523    57.60   0.33384   -57.03
       1550   0.50699   167.42    4.6994    69.97  0.068253    57.75   0.33264   -57.65
       1600   0.50767   165.72    4.5513    68.75  0.069911    57.84   0.33217   -58.52
       1650   0.50883   164.64    4.4207    67.69  0.071742    58.04   0.33173   -59.10
       1700   0.50912   163.16     4.294    66.64  0.073482    58.17   0.33109   -59.87
       1750    0.5103   161.48     4.169    65.48  0.075161    58.17   0.33061   -60.83
       1800   0.51224   160.42    4.0644    64.42  0.077094    58.29   0.33096   -61.41
       1850   0.51293   158.80    3.9502    63.25  0.078724    58.25   0.33178   -62.46
       1900   0.51321   157.46    3.8462    62.17  0.080459    58.24   0.33201   -63.33
       1950   0.51373   156.65    3.7526    61.15  0.082234    58.29    0.3328   -64.00
       2000   0.51396   155.12    3.6506    60.08  0.083718    58.33   0.33285   -65.16

!  
! Device Noise Parameters
!  Freq-MHz   Fmin-dB  Gopt-mag  Gopt-arg   Rn-Ohm_normalized
        400    1.1142   0.14301   177.16    0.1003
        420    1.0369   0.17416  -172.38    0.0899
        433    1.0401   0.17071  -173.27    0.0887
        440    1.0056   0.16640  -171.64    0.0925
        460    1.0118   0.21120  -173.29    0.0794
        480    1.0288   0.17961  -171.60    0.0877
        500    1.0480   0.17797  -173.39    0.0893
        550    1.1027   0.17455  -171.95    0.0901
        600    1.0876   0.16147  -166.95    0.1023
        650    1.0706   0.19170  -172.75    0.0863
        700    1.0785   0.19445  -169.87    0.0870
        750    1.0696   0.19941  -168.80    0.0846
        800    1.0923   0.20519  -168.70    0.0849
        850    1.0966   0.21624  -169.18    0.0821
        900    1.0959   0.20366  -168.82    0.0860
        950    1.1109   0.21712  -166.96    0.0829
       1000    1.1266   0.21897  -165.99    0.0831
       1050    1.1193   0.21819  -166.34    0.0849
       1100    1.1246   0.22978  -165.12    0.0823
       1150    1.1433   0.24015  -165.26    0.0802
       1200    1.1529   0.23168  -163.35    0.0853
       1250    1.1555   0.23678  -163.62    0.0843
       1300    1.1716   0.23134  -161.69    0.0887
       1350    1.1727   0.23873  -163.09    0.0858
       1400    1.1719   0.24209  -162.53    0.0857
       1450    1.2042   0.25279  -159.53    0.0862
       1500    1.1952   0.25139  -163.47    0.0867
       1550    1.2011   0.24984  -162.75    0.0860
       1600    1.1730   0.25632  -158.17    0.0893
       1650    1.2140   0.27635  -158.30    0.0794
       1700    1.2150   0.25736  -156.67    0.0903
       1750    1.2381   0.27003  -155.95    0.0850
       1800    1.2214   0.26101  -156.13    0.0851
       1850    1.2428   0.26719  -156.12    0.0874
       1900    1.2398   0.27295  -157.67    0.0898
       1950    1.2553   0.28296  -149.64    0.0942
       2000    1.2748   0.27420  -150.46    0.0984

