! Filename:  P:\Prog\Test\Noise\ATS_data\Testdata_Net\06 Compressed Noise after Statistics\BFU520_APG2013_37_A05_03p3V_002mA_NF_CM01_D.sf
! Date/Time: Fri 26/Apr/2013 14:13:13
! BFU520_APG2013_37_A05_03p3V_1to20mA_NF_CM01_Bias2_R.sf
! Noise Parameter Data File
! BFU520_APG2013_37_A05_03p3V_1to20mA_NF_CM01
! Date/time: Tue Apr 23 15:18:41 2013
! VAR V_out= 3.300000
! VAR I_out= 2.005000
! VAR V_in= 0.808700
! VAR I_in= 0.022605
! Device data file deembeded for feedlines and parallel
! Original file: \06 Compressed Noise after Statistics\BFU520_APG2013_37_A05_03p3V_002mA_NF_CM01_R.sf
! Feed-files: PR047V01_250413_Feed1.s2p, PR047V01_250413_Feed2.s2p
! Parallel-file: PR047V01_250413_Par.s2p
# MHz S MA R 50
!  Freq-MHz   S11-mag  S11-arg   S21-mag  S21-arg   S12-mag  S12-arg   S22-mag  S22-arg
        400   0.84796   -44.76    6.0557   146.30  0.063437    63.26   0.91416   -23.88
        420    0.8422   -46.89    6.0205   144.79  0.066077    62.14   0.90747   -24.93
        433   0.83811   -48.17     5.975   143.81  0.067694    61.41   0.90311   -25.54
        440   0.83641   -48.93    5.9642   143.32  0.068543    61.00    0.9012   -25.91
        460   0.82983   -50.98    5.9149   141.90  0.070979    59.84   0.89534   -26.94
        480   0.82474   -52.92    5.8406   140.48  0.073169    58.73   0.88653   -27.90
        500   0.81742   -54.99    5.8053   139.08  0.075431    57.69   0.87972   -28.84
        550   0.80013   -60.07    5.6766   135.48  0.080403    54.99   0.86039   -31.17
        600   0.78553   -64.80    5.5516   132.24  0.085329    52.65   0.84355   -33.31
        650    0.7719   -69.22    5.3737   129.15   0.08982    50.33   0.82658   -35.37
        700   0.75561   -73.97    5.2518   125.93  0.093507    48.09   0.80852   -37.30
        750   0.74117   -78.19    5.0897   123.02  0.097243    46.08   0.79243   -39.15
        800   0.72765   -82.50     4.966   120.17   0.10045    44.19   0.77496   -40.88
        850   0.71344   -86.70    4.8302   117.38   0.10342    42.29   0.75998   -42.50
        900   0.69881   -90.67    4.7002   114.70   0.10625    40.61    0.7461   -44.10
        950   0.68788   -94.64    4.5777   112.16   0.10833    38.90   0.72979   -45.66
       1000   0.67666   -98.28     4.448   109.68   0.11055    37.37    0.7172   -47.03
       1050   0.66419  -102.02     4.323   107.21   0.11226    35.87   0.70305   -48.52
       1100   0.65524  -105.49    4.1999   104.95   0.11385    34.57   0.69093   -49.71
       1150    0.6438  -109.04    4.0879   102.67    0.1157    33.22   0.68029   -50.94
       1200   0.63443  -112.49     3.985   100.46   0.11677    31.94   0.66836   -52.28
       1250   0.62689  -115.64    3.8746    98.44   0.11811    30.87   0.65921   -53.22
       1300   0.61727  -118.91    3.7819    96.36   0.11893    29.71   0.64827   -54.52
       1350   0.61046  -121.91    3.6829    94.38   0.11968    28.71   0.63844   -55.59
       1400   0.60465  -124.93    3.5915    92.47   0.12042    27.73   0.63003   -56.54
       1450   0.59581  -128.08    3.5013    90.50   0.12114    26.76   0.62225   -57.67
       1500   0.59057  -130.90    3.4151    88.64    0.1216    25.87   0.61493   -58.70
       1550   0.58422  -133.66      3.33    86.87   0.12201    25.05   0.60757   -59.61
       1600   0.57825  -136.56    3.2543    85.04   0.12205    24.24   0.59969   -60.71
       1650   0.57531  -139.01    3.1776    83.40    0.1222    23.63   0.59355   -61.53
       1700   0.57026  -141.57    3.1055    81.79   0.12207    23.07   0.58602   -62.45
       1750   0.56521  -144.38    3.0357    80.04   0.12244    22.32   0.58087   -63.36
       1800   0.56384  -146.67    2.9716    78.50   0.12243    21.84   0.57621   -64.14
       1850   0.55869  -149.38    2.9045    76.76   0.12261    21.18   0.57246   -65.09
       1900   0.55559  -151.78     2.842    75.22   0.12222    20.65   0.56733   -66.04
       1950   0.55448  -153.72    2.7797    73.74   0.12206    20.25   0.56411   -66.78
       2000   0.54965  -156.24     2.719    72.18   0.12153    19.85   0.55876   -67.78

!  
! Device Noise Parameters
!  Freq-MHz   Fmin-dB  Gopt-mag  Gopt-arg   Rn-Ohm_normalized
        400    0.6023   0.47258    18.19    0.2246
        420    0.5255   0.45716    21.87    0.1943
        433    0.6248   0.47399    20.82    0.2088
        440    0.5657   0.45545    22.73    0.1971
        460    0.5961   0.45254    23.89    0.1967
        480    0.5763   0.45250    24.81    0.2060
        500    0.5917   0.45106    26.77    0.1901
        550    0.6454   0.47917    26.68    0.2102
        600    0.6144   0.47383    28.98    0.2071
        650    0.5848   0.45793    34.15    0.1874
        700    0.6714   0.45271    36.93    0.1930
        750    0.6485   0.45443    39.08    0.1885
        800    0.6717   0.44539    40.90    0.1893
        850    0.6900   0.45533    46.40    0.1798
        900    0.6716   0.44941    46.84    0.1847
        950    0.6832   0.45181    50.26    0.1817
       1000    0.6894   0.46416    52.44    0.1794
       1050    0.7003   0.45536    55.17    0.1795
       1100    0.7025   0.45039    59.23    0.1672
       1150    0.7138   0.43266    61.95    0.1663
       1200    0.7331   0.45157    63.67    0.1744
       1250    0.7565   0.44495    67.06    0.1673
       1300    0.7663   0.44770    69.55    0.1633
       1350    0.7689   0.44878    72.92    0.1618
       1400    0.7502   0.44878    76.00    0.1501
       1450    0.8969   0.45880    77.25    0.1810
       1500    0.8647   0.43506    83.22    0.1494
       1550    0.7865   0.43810    84.51    0.1481
       1600    0.7549   0.41993    86.60    0.1337
       1650    0.7294   0.44254    90.96    0.1250
       1700    0.8369   0.45341    93.65    0.1291
       1750    0.7774   0.42486    95.79    0.1211
       1800    0.5831   0.44213   101.30    0.0987
       1850    0.7438   0.44047   105.46    0.1014
       1900    0.9179   0.42673   104.18    0.1249
       1950    0.9604   0.43501   104.12    0.1257
       2000    0.9117   0.43522   108.88    0.1155

