! Infineon Technologies  Discrete & RF Semiconductors
! BAT15-03W-E6327
! IAC = 0.7 mA
! One-Port S-Parameters
# Hz  S  MA  R  50
!f									S11
!Hz							Mag  Ang
309850000		0.0269	46.8488
409800000		0.0312	55.4571
509750000		0.03569	59.8364
609700000		0.03965	63.6791
709650000		0.04365	61.5023
809600000		0.0468	64.2708
909550000		0.04962	65.2955
1009500000		0.05295	69.5336
1109450000		0.05748	68.6983
1209400000		0.06314	72.873
1309350000		0.06567	72.7854
1409300000		0.06964	73.3309
1509250000		0.07264	75.9935
1609200000		0.07713	77.0832
1709150000		0.08328	77.1774
1809100000		0.08585	78.5653
1909050000		0.09061	80.7036
2009000000		0.09457	82.7026
2108950000		0.09688	81.8697
2208900000		0.10007	82.6559
2308850000		0.10422	84.2589
2408800000		0.10982	84.5646
2508750000		0.11179	82.9694
2608700000		0.11434	83.6077
2708650000		0.1188	83.5402
2808600000		0.12204	85.1649
2908550000		0.12608	84.9393
3008500000		0.13344	84.9343
3108450000		0.13783	85.2742
3208400000		0.14179	86.4389
3308350000		0.14447	86.6942
3408300000		0.15035	87.6559
3508250000		0.15414	87.9416
3608200000		0.16077	88.3012
3708150000		0.16339	88.4704
3808100000		0.16788	88.4168
3908050000		0.17264	88.6237
4008000000		0.17754	88.5316
4107950000		0.18275	88.9232
4207900000		0.18627	88.7181
4307850000		0.19242	88.7162
4407800000		0.19627	88.9636
4507750000		0.20107	88.727
4607700000		0.20771	88.8048
4707650000		0.21511	88.7181
4807600000		0.22129	88.7124
4907550000		0.22548	88.4159
5007500000		0.23011	88.32
5107450000		0.23842	88.4427
5207400000		0.23947	88.1132
5307350000		0.24291	87.898
5407300000		0.24845	87.8889
5507250000		0.25528	87.7752
5607200000		0.26112	87.808
5707150000		0.26844	87.7603
5807100000		0.27307	87.7266
5907050000		0.27945	87.6057
6007000000		0.28361	87.6273
6106950000		0.2895	87.4927
6206900000		0.29737	87.3156
6306850000		0.30113	87.4536
6406800000		0.30835	87.2638
6506750000		0.3152	87.223
6606700000		0.32254	86.9632
6706650000		0.32939	86.9769
6806600000		0.33541	86.7387
6906550000		0.345	86.4737
7006500000		0.35156	86.2287
7106450000		0.35659	85.9747
7206400000		0.3651	85.6331
7306350000		0.37161	85.143
7406300000		0.38275	84.5807
7506250000		0.38669	84.2531
7606200000		0.39381	83.866
7706150000		0.4016	83.2059
7806100000		0.40824	82.8309
7906050000		0.41414	82.2619
!
!				Infineon Technologies AG
