! Infineon Technologies  Discrete & RF Semiconductors
! BAT15-03W-E6327
! IAC = 0.3 mA
! One-Port S-Parameters
# Hz  S  MA  R  50
!f									S11
!Hz							Mag  Ang
309850000		0.43679	-1.473
409800000		0.43686	-1.9181
509750000		0.43608	-2.4233
609700000		0.43567	-3.1437
709650000		0.43882	-4.0613
809600000		0.4318	-4.7718
909550000		0.4323	-5.7112
1009500000		0.43081	-6.4479
1109450000		0.43533	-7.1313
1209400000		0.42747	-7.3972
1309350000		0.42506	-8.4832
1409300000		0.42321	-9.1887
1509250000		0.4185	-10.1952
1609200000		0.4164	-10.8958
1709150000		0.42042	-11.3016
1809100000		0.41737	-12.4522
1909050000		0.41004	-13.0759
2009000000		0.4004	-13.9919
2108950000		0.40538	-15.2579
2208900000		0.39882	-16.2642
2308850000		0.39131	-17.1549
2408800000		0.38256	-17.5148
2508750000		0.38878	-18.6896
2608700000		0.38616	-20.0985
2708650000		0.38222	-20.8009
2808600000		0.37949	-22.4528
2908550000		0.37539	-23.2204
3008500000		0.37405	-23.6846
3108450000		0.36846	-24.6385
3208400000		0.36718	-26.4199
3308350000		0.36019	-27.8828
3408300000		0.34759	-28.8063
3508250000		0.34198	-30.3062
3608200000		0.34187	-31.515
3708150000		0.33632	-33.5037
3808100000		0.3263	-34.3825
3908050000		0.31438	-35.5887
4008000000		0.31093	-37.0465
4107950000		0.30323	-38.9817
4207900000		0.30386	-40.9909
4307850000		0.29579	-42.3157
4407800000		0.28925	-44.849
4507750000		0.27979	-46.009
4607700000		0.26951	-47.5234
4707650000		0.26038	-48.8643
4807600000		0.24467	-49.6935
4907550000		0.23599	-51.3974
5007500000		0.22654	-53.4655
5107450000		0.21831	-55.8661
5207400000		0.21404	-58.666
5307350000		0.20644	-61.1901
5407300000		0.19461	-63.5505
5507250000		0.188	-66.2596
5607200000		0.17983	-69.4177
5707150000		0.16827	-72.6016
5807100000		0.15858	-75.7783
5907050000		0.14945	-79.2744
6007000000		0.14306	-83.3102
6106950000		0.13521	-87.0396
6206900000		0.12551	-91.1814
6306850000		0.12211	-97.2071
6406800000		0.11259	-102.6957
6506750000		0.10914	-109.8285
6606700000		0.10272	-117.2839
6706650000		0.09794	-125.9935
6806600000		0.0966	-134.2905
6906550000		0.09489	-143.9955
7006500000		0.09955	-152.1136
7106450000		0.10266	-159.6067
7206400000		0.10696	-169.0264
7306350000		0.11461	-175.0135
7406300000		0.12028	176.2723
7506250000		0.13065	172.2052
7606200000		0.14028	166.2599
7706150000		0.1491	160.0952
7806100000		0.16165	157.0681
7906050000		0.17201	152.982
!
!				Infineon Technologies AG
