! Infineon Technologies  Discrete & RF Semiconductors
! BAT15-03W-E6327
! IAC = 9 mA
! One-Port S-Parameters
# Hz  S  MA  R  50
!f									S11
!Hz							Mag  Ang
309850000		0.72197	173.0753
409800000		0.72066	170.9901
509750000		0.71944	168.9469
609700000		0.71881	166.8949
709650000		0.71801	164.9311
809600000		0.71787	163.0722
909550000		0.7179	161.0615
1009500000		0.71814	159.1947
1109450000		0.71824	157.3294
1209400000		0.71959	155.5177
1309350000		0.72007	153.6412
1409300000		0.72099	151.8437
1509250000		0.72219	150.0747
1609200000		0.72436	148.2802
1709150000		0.72547	146.4611
1809100000		0.72667	144.7384
1909050000		0.72826	143.0996
2009000000		0.73113	141.3755
2108950000		0.73248	139.6709
2208900000		0.73383	138.0269
2308850000		0.73521	136.4494
2408800000		0.73736	134.8153
2508750000		0.73887	133.215
2608700000		0.74008	131.67
2708650000		0.74084	130.181
2808600000		0.74247	128.6651
2908550000		0.74406	127.2085
3008500000		0.74531	125.7679
3108450000		0.74657	124.3557
3208400000		0.74772	123.0303
3308350000		0.74911	121.6613
3408300000		0.75037	120.3644
3508250000		0.75223	119.0644
3608200000		0.75377	117.7743
3708150000		0.7553	116.4735
3808100000		0.75702	115.2234
3908050000		0.75898	113.9657
4008000000		0.76111	112.6994
4107950000		0.7631	111.4133
4207900000		0.76466	110.1611
4307850000		0.76661	108.8903
4407800000		0.76821	107.6774
4507750000		0.76995	106.462
4607700000		0.77085	105.2567
4707650000		0.77199	104.0364
4807600000		0.77284	102.9314
4907550000		0.77367	101.7668
5007500000		0.77432	100.6559
5107450000		0.77465	99.5725
5207400000		0.77481	98.4862
5307350000		0.77526	97.4567
5407300000		0.77569	96.4814
5507250000		0.77603	95.5315
5607200000		0.77631	94.6245
5707150000		0.7771	93.7117
5807100000		0.77849	92.8765
5907050000		0.77974	92.058
6007000000		0.78159	91.2972
6106950000		0.78326	90.4984
6206900000		0.78604	89.689
6306850000		0.78881	88.9414
6406800000		0.79179	88.1315
6506750000		0.79493	87.3889
6606700000		0.79821	86.547
6706650000		0.80181	85.773
6806600000		0.80568	84.9206
6906550000		0.80886	84.1235
7006500000		0.81194	83.2478
7106450000		0.81476	82.3799
7206400000		0.81812	81.5842
7306350000		0.82089	80.6771
7406300000		0.82418	79.8507
7506250000		0.82597	78.9404
7606200000		0.82892	78.0595
7706150000		0.83127	77.1181
7806100000		0.83398	76.282
7906050000		0.83566	75.3665
!
!				Infineon Technologies AG
