! Infineon Technologies  Discrete & RF Semiconductors
! BAT15-03W-E6327
! IAC = 0.03 mA
! One-Port S-Parameters
# Hz  S  MA  R  50
!f									S11
!Hz							Mag  Ang
309850000		0.9288	-2.5745
409800000		0.9289	-3.3895
509750000		0.9287	-4.1975
609700000		0.92915	-5.0576
709650000		0.92992	-5.9347
809600000		0.92677	-6.8045
909550000		0.92725	-7.7437
1009500000		0.92726	-8.6956
1109450000		0.92889	-9.5669
1209400000		0.92672	-10.5404
1309350000		0.92538	-11.4947
1409300000		0.92351	-12.4771
1509250000		0.92246	-13.3652
1609200000		0.92143	-14.3863
1709150000		0.92262	-15.3184
1809100000		0.92025	-16.3091
1909050000		0.91839	-17.2395
2009000000		0.91559	-18.3133
2108950000		0.91602	-19.352
2208900000		0.91292	-20.3844
2308850000		0.91074	-21.4099
2408800000		0.90719	-22.4829
2508750000		0.90972	-23.5075
2608700000		0.90929	-24.7156
2708650000		0.9081	-25.8551
2808600000		0.90852	-26.9979
2908550000		0.9072	-28.2129
3008500000		0.9077	-29.3429
3108450000		0.90623	-30.6244
3208400000		0.9081	-31.9911
3308350000		0.90504	-33.3973
3408300000		0.90158	-34.8353
3508250000		0.89994	-36.3146
3608200000		0.90128	-37.7144
3708150000		0.89871	-39.2074
3808100000		0.89352	-40.7724
3908050000		0.88772	-42.35
4008000000		0.8857	-43.8808
4107950000		0.88289	-45.4408
4207900000		0.88185	-46.9552
4307850000		0.87706	-48.5198
4407800000		0.87393	-50.1365
4507750000		0.86788	-51.7872
4607700000		0.86329	-53.4404
4707650000		0.85818	-55.057
4807600000		0.85008	-56.8518
4907550000		0.84458	-58.5763
5007500000		0.83966	-60.3368
5107450000		0.83898	-62.0063
5207400000		0.83444	-63.8185
5307350000		0.82891	-65.6839
5407300000		0.82349	-67.631
5507250000		0.82259	-69.436
5607200000		0.82086	-71.3367
5707150000		0.81704	-73.3221
5807100000		0.81144	-75.4874
5907050000		0.80838	-77.6279
6007000000		0.80413	-79.864
6106950000		0.80048	-82.1485
6206900000		0.79654	-84.449
6306850000		0.79404	-86.8501
6406800000		0.7894	-89.3307
6506750000		0.78773	-91.8422
6606700000		0.78292	-94.4881
6706650000		0.77866	-97.2289
6806600000		0.77389	-100.0295
6906550000		0.77315	-102.7936
7006500000		0.7725	-105.5664
7106450000		0.76747	-108.6961
7206400000		0.76357	-111.878
7306350000		0.76302	-114.8563
7406300000		0.7623	-117.9493
7506250000		0.7598	-121.2213
7606200000		0.75639	-124.6182
7706150000		0.75258	-128.0629
7806100000		0.75297	-131.3738
7906050000		0.74981	-134.9321
!
!				Infineon Technologies AG
