! Infineon Technologies  Discrete & RF Semiconductors
! BAT15-03W-E6327
! IAC = 7 mA
! One-Port S-Parameters
# Hz  S  MA  R  50
!f									S11
!Hz							Mag  Ang
309850000		0.6977	173.0451
409800000		0.69641	170.9847
509750000		0.69561	168.8659
609700000		0.69497	166.838
709650000		0.69429	164.8692
809600000		0.69439	162.9723
909550000		0.69445	160.9869
1009500000		0.69482	159.1163
1109450000		0.69508	157.2437
1209400000		0.69658	155.4264
1309350000		0.69717	153.5448
1409300000		0.69827	151.7393
1509250000		0.69961	149.9667
1609200000		0.702	148.1668
1709150000		0.70333	146.3431
1809100000		0.7047	144.619
1909050000		0.70631	143.0094
2009000000		0.70947	141.248
2108950000		0.71103	139.5432
2208900000		0.7126	137.9004
2308850000		0.71416	136.3229
2408800000		0.7165	134.6888
2508750000		0.71825	133.0862
2608700000		0.71972	131.5428
2708650000		0.72092	130.0202
2808600000		0.72261	128.5364
2908550000		0.7244	127.081
3008500000		0.72574	125.6752
3108450000		0.72745	124.2236
3208400000		0.72881	122.8996
3308350000		0.7304	121.5285
3408300000		0.73191	120.2353
3508250000		0.73398	118.9312
3608200000		0.73571	117.6422
3708150000		0.73749	116.3413
3808100000		0.73932	115.0922
3908050000		0.7415	113.8333
4008000000		0.74377	112.5675
4107950000		0.74593	111.2792
4207900000		0.74773	110.0303
4307850000		0.74991	108.7605
4407800000		0.75161	107.5501
4507750000		0.75354	106.3355
4607700000		0.75466	105.13
4707650000		0.75598	103.9125
4807600000		0.75706	102.8107
4907550000		0.75802	101.6472
5007500000		0.75887	100.5392
5107450000		0.75937	99.4592
5207400000		0.75978	98.3762
5307350000		0.76042	97.3483
5407300000		0.761	96.3732
5507250000		0.76153	95.4225
5607200000		0.76198	94.5207
5707150000		0.76296	93.6127
5807100000		0.76454	92.7778
5907050000		0.76593	91.9641
6007000000		0.76798	91.2027
6106950000		0.76975	90.4095
6206900000		0.77266	89.6032
6306850000		0.77559	88.8607
6406800000		0.77865	88.0538
6506750000		0.78183	87.3157
6606700000		0.78529	86.4777
6706650000		0.78905	85.7067
6806600000		0.79298	84.8606
6906550000		0.79623	84.0667
7006500000		0.79942	83.1971
7106450000		0.80245	82.334
7206400000		0.80587	81.541
7306350000		0.80872	80.6375
7406300000		0.8122	79.8156
7506250000		0.81414	78.91
7606200000		0.81715	78.0315
7706150000		0.81963	77.0955
7806100000		0.8225	76.2601
7906050000		0.8243	75.3482
!
!				Infineon Technologies AG
