! Infineon Technologies  Discrete & RF Semiconductors
! BAT15-03W-E6327
! VCA = 0.4 V
! One-Port S-Parameters
# Hz  S  MA  R  50
!f									S11
!Hz							Mag  Ang
309850000		0.9996	-2.2603
409800000		0.99922	-2.9869
509750000		0.99944	-3.6916
609700000		0.99937	-4.4318
709650000		0.99967	-5.1668
809600000		0.99905	-5.9372
909550000		0.99935	-6.6824
1009500000		0.99897	-7.4821
1109450000		0.9994	-8.2861
1209400000		0.99863	-9.0998
1309350000		0.99835	-9.9048
1409300000		0.99768	-10.7364
1509250000		0.99708	-11.5624
1609200000		0.9961	-12.4077
1709150000		0.99527	-13.2288
1809100000		0.99412	-14.085
1909050000		0.9931	-14.9401
2009000000		0.99194	-15.7987
2108950000		0.99069	-16.6693
2208900000		0.9898	-17.5308
2308850000		0.98892	-18.3845
2408800000		0.98843	-19.2689
2508750000		0.98867	-20.1889
2608700000		0.98856	-21.1508
2708650000		0.98848	-22.1164
2808600000		0.98851	-23.0724
2908550000		0.98857	-24.0923
3008500000		0.98893	-25.1906
3108450000		0.98992	-26.2813
3208400000		0.98962	-27.4363
3308350000		0.98955	-28.6249
3408300000		0.98959	-29.8026
3508250000		0.98959	-31.0537
3608200000		0.98847	-32.3122
3708150000		0.98728	-33.5762
3808100000		0.98564	-34.9054
3908050000		0.98362	-36.206
4008000000		0.98179	-37.5326
4107950000		0.97899	-38.859
4207900000		0.97647	-40.2033
4307850000		0.97329	-41.548
4407800000		0.97013	-42.9278
4507750000		0.96675	-44.2911
4607700000		0.96357	-45.6943
4707650000		0.96011	-47.0584
4807600000		0.95707	-48.5199
4907550000		0.95399	-49.9369
5007500000		0.9513	-51.3851
5107450000		0.94828	-52.8738
5207400000		0.94596	-54.3895
5307350000		0.9432	-55.9287
5407300000		0.94078	-57.5153
5507250000		0.93799	-59.1537
5607200000		0.9357	-60.8295
5707150000		0.93298	-62.5526
5807100000		0.93018	-64.3321
5907050000		0.92739	-66.1644
6007000000		0.924	-68.059
6106950000		0.92088	-69.9969
6206900000		0.91702	-71.9518
6306850000		0.91332	-74.0132
6406800000		0.90914	-76.0348
6506750000		0.90498	-78.1646
6606700000		0.90046	-80.2927
6706650000		0.89649	-82.4898
6806600000		0.89239	-84.6749
6906550000		0.8889	-86.973
7006500000		0.88566	-89.2658
7106450000		0.8828	-91.672
7206400000		0.8798	-94.1594
7306350000		0.87717	-96.6475
7406300000		0.87386	-99.2427
7506250000		0.8719	-101.8556
7606200000		0.8692	-104.5697
7706150000		0.86739	-107.2985
7806100000		0.86458	-110.1868
7906050000		0.86286	-113.0656
!
!				Infineon Technologies AG
