! Infineon Technologies  Discrete & RF Semiconductors
! BAT15-03W-E6327
! IAC = 10 mA
! One-Port S-Parameters
# Hz  S  MA  R  50
!f									S11
!Hz							Mag  Ang
309850000		0.44204	172.3
409800000		0.44233	170.0193
509750000		0.44253	167.8029
609700000		0.44353	165.5402
709650000		0.44347	163.4431
809600000		0.44418	161.4251
909550000		0.44591	159.344
1009500000		0.44829	157.3923
1109450000		0.45012	155.3971
1209400000		0.45286	153.4596
1309350000		0.4546	151.4676
1409300000		0.45712	149.5768
1509250000		0.46024	147.7227
1609200000		0.46407	145.8526
1709150000		0.46774	143.9323
1809100000		0.47126	142.1586
1909050000		0.47475	140.474
2009000000		0.4789	138.7351
2108950000		0.48252	137.0297
2208900000		0.48554	135.4519
2308850000		0.48936	133.8119
2408800000		0.49304	132.1721
2508750000		0.49656	130.5703
2608700000		0.50016	129.0588
2708650000		0.50327	127.5656
2808600000		0.50786	126.1363
2908550000		0.51148	124.6931
3008500000		0.51585	123.2073
3108450000		0.51957	121.8146
3208400000		0.52359	120.5754
3308350000		0.52704	119.2088
3408300000		0.53071	117.9413
3508250000		0.53466	116.665
3608200000		0.5391	115.4013
3708150000		0.54256	114.1315
3808100000		0.54584	112.9087
3908050000		0.5494	111.6798
4008000000		0.55358	110.4426
4107950000		0.55768	109.201
4207900000		0.5615	107.9986
4307850000		0.56554	106.7657
4407800000		0.5691	105.6142
4507750000		0.57253	104.4444
4607700000		0.57578	103.2945
4707650000		0.57945	102.1311
4807600000		0.58222	101.09
4907550000		0.58482	99.9731
5007500000		0.58759	98.9171
5107450000		0.59082	97.8998
5207400000		0.59272	96.8681
5307350000		0.59503	95.8925
5407300000		0.59754	94.9731
5507250000		0.60036	94.0802
5607200000		0.60297	93.2413
5707150000		0.60586	92.3901
5807100000		0.60884	91.6213
5907050000		0.61197	90.861
6007000000		0.61528	90.1699
6106950000		0.61849	89.4404
6206900000		0.6228	88.7069
6306850000		0.62656	88.0385
6406800000		0.63085	87.299
6506750000		0.63542	86.6355
6606700000		0.64005	85.8709
6706650000		0.64477	85.1865
6806600000		0.64955	84.417
6906550000		0.6544	83.7019
7006500000		0.65881	82.906
7106450000		0.66283	82.1213
7206400000		0.66761	81.3992
7306350000		0.67172	80.5525
7406300000		0.67698	79.7887
7506250000		0.67998	78.9495
7606200000		0.68422	78.1394
7706150000		0.68811	77.2538
7806100000		0.69234	76.4761
7906050000		0.69535	75.6134
!
!				Infineon Technologies AG
