! Infineon Technologies  Discrete & RF Semiconductors
! BAT15-03W-E6327
! VCA = 0.2 V
! One-Port S-Parameters
# Hz  S  MA  R  50
!f									S11
!Hz							Mag  Ang
309850000		0.99957	-2.3402
409800000		0.99922	-3.0915
509750000		0.99939	-3.8198
609700000		0.9994	-4.5836
709650000		0.99962	-5.3474
809600000		0.99887	-6.1122
909550000		0.99929	-6.9138
1009500000		0.99889	-7.74
1109450000		0.99928	-8.5715
1209400000		0.9985	-9.4117
1309350000		0.99826	-10.2446
1409300000		0.99736	-11.0724
1509250000		0.99695	-11.9593
1609200000		0.99597	-12.8331
1709150000		0.99504	-13.6823
1809100000		0.99395	-14.5686
1909050000		0.99284	-15.452
2009000000		0.9917	-16.3451
2108950000		0.99029	-17.214
2208900000		0.98958	-18.1402
2308850000		0.98883	-19.0601
2408800000		0.98816	-19.9435
2508750000		0.98841	-20.9033
2608700000		0.98822	-21.9008
2708650000		0.98837	-22.9348
2808600000		0.98837	-23.9281
2908550000		0.98832	-24.9907
3008500000		0.98852	-26.0917
3108450000		0.98942	-27.2232
3208400000		0.98908	-28.4217
3308350000		0.98894	-29.6538
3408300000		0.9889	-30.8783
3508250000		0.98881	-32.1719
3608200000		0.98764	-33.4794
3708150000		0.98633	-34.7908
3808100000		0.98458	-36.1686
3908050000		0.98227	-37.4834
4008000000		0.98051	-38.8962
4107950000		0.97765	-40.2722
4207900000		0.97501	-41.6725
4307850000		0.97173	-43.0681
4407800000		0.9685	-44.5071
4507750000		0.96501	-45.9271
4607700000		0.96172	-47.3895
4707650000		0.95817	-48.8183
4807600000		0.9551	-50.3396
4907550000		0.95194	-51.8239
5007500000		0.94908	-53.3406
5107450000		0.94597	-54.9039
5207400000		0.94359	-56.4922
5307350000		0.94059	-58.1065
5407300000		0.93811	-59.7782
5507250000		0.93518	-61.4988
5607200000		0.93275	-63.2593
5707150000		0.92981	-65.0747
5807100000		0.92677	-66.9466
5907050000		0.92372	-68.8738
6007000000		0.92004	-70.8656
6106950000		0.91664	-72.8994
6206900000		0.9124	-74.954
6306850000		0.90833	-77.1144
6406800000		0.90385	-79.2373
6506750000		0.89934	-81.4681
6606700000		0.89442	-83.6944
6706650000		0.89016	-85.993
6806600000		0.88579	-88.2778
6906550000		0.88201	-90.6811
7006500000		0.8785	-93.0751
7106450000		0.8754	-95.5805
7206400000		0.87219	-98.1671
7306350000		0.86931	-100.756
7406300000		0.86591	-103.4531
7506250000		0.86388	-106.1624
7606200000		0.86105	-108.9753
7706150000		0.8592	-111.8019
7806100000		0.85647	-114.7935
7906050000		0.8548	-117.7649
!
!				Infineon Technologies AG
