! Infineon Technologies  Discrete & RF Semiconductors
! BAT15-03W-E6327
! IAC = 8 mA
! One-Port S-Parameters
# Hz  S  MA  R  50
!f									S11
!Hz							Mag  Ang
309850000		0.71142	173.0611
409800000		0.71015	170.9721
509750000		0.70903	168.9267
609700000		0.70846	166.871
709650000		0.70766	164.9055
809600000		0.70772	163.0123
909550000		0.7077	161.0308
1009500000		0.70799	159.1623
1109450000		0.70813	157.294
1209400000		0.70957	155.4796
1309350000		0.71009	153.6007
1409300000		0.71107	151.8012
1509250000		0.71237	150.03
1609200000		0.71464	148.2303
1709150000		0.71583	146.4092
1809100000		0.71709	144.6878
1909050000		0.7188	143.0497
2009000000		0.72171	141.3198
2108950000		0.72314	139.6162
2208900000		0.72462	137.9743
2308850000		0.72605	136.3946
2408800000		0.72809	134.7941
2508750000		0.72988	133.1585
2608700000		0.73126	131.6188
2708650000		0.73229	130.0944
2808600000		0.73385	128.6115
2908550000		0.73531	127.1874
3008500000		0.73688	125.7145
3108450000		0.73826	124.2989
3208400000		0.73948	122.9731
3308350000		0.74083	121.6395
3408300000		0.74242	120.3091
3508250000		0.74433	119.0088
3608200000		0.74594	117.7186
3708150000		0.74759	116.4174
3808100000		0.74935	115.1673
3908050000		0.75142	113.9105
4008000000		0.75358	112.6434
4107950000		0.75564	111.3564
4207900000		0.75734	110.1061
4307850000		0.75937	108.8345
4407800000		0.76099	107.6244
4507750000		0.76281	106.4091
4607700000		0.7638	105.203
4707650000		0.76506	103.9816
4807600000		0.766	102.8808
4907550000		0.7669	101.7166
5007500000		0.76761	100.6047
5107450000		0.76803	99.5244
5207400000		0.7683	98.44
5307350000		0.76881	97.4102
5407300000		0.76928	96.4343
5507250000		0.76974	95.4846
5607200000		0.77013	94.5807
5707150000		0.77094	93.6691
5807100000		0.77239	92.8337
5907050000		0.77375	92.0174
6007000000		0.77573	91.2552
6106950000		0.77737	90.4604
6206900000		0.7802	89.6524
6306850000		0.7831	88.9051
6406800000		0.78613	88.0976
6506750000		0.78927	87.3568
6606700000		0.7926	86.5176
6706650000		0.79631	85.7445
6806600000		0.80022	84.8941
6906550000		0.8034	84.0991
7006500000		0.80653	83.2257
7106450000		0.80944	82.3603
7206400000		0.81283	81.5637
7306350000		0.81558	80.6601
7406300000		0.81899	79.8348
7506250000		0.82091	78.9259
7606200000		0.82386	78.0465
7706150000		0.82625	77.1068
7806100000		0.82903	76.2707
7906050000		0.83078	75.3571
!
!				Infineon Technologies AG
