! Infineon Technologies  Discrete & RF Semiconductors
! BAT15-03W-E6327
! IAC = 0.05 mA
! One-Port S-Parameters
# Hz  S  MA  R  50
!f									S11
!Hz							Mag  Ang
309850000		0.88385	-2.5438
409800000		0.88428	-3.3633
509750000		0.8838	-4.164
609700000		0.88439	-5.0352
709650000		0.88566	-5.9335
809600000		0.88135	-6.8378
909550000		0.88151	-7.7658
1009500000		0.88195	-8.7237
1109450000		0.88435	-9.5994
1209400000		0.881	-10.5557
1309350000		0.87926	-11.5295
1409300000		0.87716	-12.5138
1509250000		0.87576	-13.4198
1609200000		0.87447	-14.4333
1709150000		0.8769	-15.3496
1809100000		0.87435	-16.3538
1909050000		0.87176	-17.2943
2009000000		0.86758	-18.3817
2108950000		0.86921	-19.432
2208900000		0.86525	-20.4826
2308850000		0.8619	-21.4906
2408800000		0.85683	-22.5891
2508750000		0.86099	-23.6626
2608700000		0.8602	-24.8592
2708650000		0.85848	-25.9996
2808600000		0.85899	-27.1906
2908550000		0.85703	-28.3973
3008500000		0.85771	-29.4867
3108450000		0.85543	-30.8016
3208400000		0.8578	-32.1455
3308350000		0.85405	-33.6413
3408300000		0.84862	-35.05
3508250000		0.84621	-36.5429
3608200000		0.84873	-37.9517
3708150000		0.84577	-39.4851
3808100000		0.83919	-41.0423
3908050000		0.83171	-42.6286
4008000000		0.82975	-44.1671
4107950000		0.82676	-45.7475
4207900000		0.827	-47.3224
4307850000		0.82176	-48.8977
4407800000		0.81874	-50.586
4507750000		0.81172	-52.236
4607700000		0.80652	-53.9131
4707650000		0.80101	-55.5423
4807600000		0.79086	-57.327
4907550000		0.7845	-59.0751
5007500000		0.77872	-60.8768
5107450000		0.77881	-62.6086
5207400000		0.77376	-64.4699
5307350000		0.76745	-66.3804
5407300000		0.76072	-68.3624
5507250000		0.76041	-70.2169
5607200000		0.75868	-72.1676
5707150000		0.75424	-74.2065
5807100000		0.74733	-76.3981
5907050000		0.74374	-78.5817
6007000000		0.73879	-80.846
6106950000		0.73439	-83.1516
6206900000		0.72991	-85.4812
6306850000		0.72747	-87.9336
6406800000		0.72162	-90.451
6506750000		0.72019	-93.0307
6606700000		0.71438	-95.7378
6706650000		0.70921	-98.5371
6806600000		0.70341	-101.3953
6906550000		0.70274	-104.2341
7006500000		0.70254	-107.0788
7106450000		0.69607	-110.2612
7206400000		0.69143	-113.5334
7306350000		0.69128	-116.5844
7406300000		0.69101	-119.7688
7506250000		0.68819	-123.1033
7606200000		0.68428	-126.5849
7706150000		0.67966	-130.1168
7806100000		0.68142	-133.4989
7906050000		0.67781	-137.1246
!
!				Infineon Technologies AG
