! Infineon Technologies  Discrete & RF Semiconductors
! BAT15-03W-E6327
! IAC = 0.07 mA
! One-Port S-Parameters
# Hz  S  MA  R  50
!f									S11
!Hz							Mag  Ang
309850000		0.84039	-2.4672
409800000		0.8412	-3.3195
509750000		0.8405	-4.1147
609700000		0.84117	-4.984
709650000		0.84288	-5.8995
809600000		0.83751	-6.8043
909550000		0.83763	-7.7457
1009500000		0.8383	-8.7055
1109450000		0.84141	-9.5782
1209400000		0.83695	-10.512
1309350000		0.83491	-11.5
1409300000		0.83273	-12.4803
1509250000		0.83087	-13.4054
1609200000		0.82933	-14.4064
1709150000		0.83274	-15.3054
1809100000		0.8301	-16.3222
1909050000		0.82684	-17.2651
2009000000		0.8213	-18.3276
2108950000		0.82408	-19.4273
2208900000		0.81922	-20.453
2308850000		0.8155	-21.543
2408800000		0.80868	-22.5426
2508750000		0.81407	-23.6656
2608700000		0.81321	-24.8916
2708650000		0.81084	-25.9832
2808600000		0.81156	-27.2604
2908550000		0.80882	-28.4152
3008500000		0.80958	-29.4657
3108450000		0.80656	-30.7687
3208400000		0.80987	-32.2245
3308350000		0.80495	-33.7069
3408300000		0.79802	-35.1148
3508250000		0.79515	-36.6209
3608200000		0.79845	-38.0281
3708150000		0.79513	-39.6095
3808100000		0.7874	-41.1429
3908050000		0.77853	-42.7328
4008000000		0.77671	-44.2738
4107950000		0.77369	-45.9368
4207900000		0.77458	-47.5125
4307850000		0.76905	-49.0939
4407800000		0.76604	-50.862
4507750000		0.75818	-52.4983
4607700000		0.7523	-54.1953
4707650000		0.74646	-55.8323
4807600000		0.73448	-57.5955
4907550000		0.7275	-59.3585
5007500000		0.72098	-61.1975
5107450000		0.72128	-62.9964
5207400000		0.71597	-64.9092
5307350000		0.70913	-66.8642
5407300000		0.70124	-68.8765
5507250000		0.70118	-70.7851
5607200000		0.69921	-72.7865
5707150000		0.69404	-74.8818
5807100000		0.6861	-77.0946
5907050000		0.68193	-79.3245
6007000000		0.6765	-81.6119
6106950000		0.67158	-83.9352
6206900000		0.66647	-86.2909
6306850000		0.6639	-88.7999
6406800000		0.65716	-91.3473
6506750000		0.65573	-94.0025
6606700000		0.64911	-96.7783
6706650000		0.64308	-99.6299
6806600000		0.63671	-102.5453
6906550000		0.63576	-105.4688
7006500000		0.6357	-108.3916
7106450000		0.6285	-111.6256
7206400000		0.62325	-115.002
7306350000		0.62346	-118.1364
7406300000		0.62309	-121.4197
7506250000		0.6204	-124.8188
7606200000		0.61618	-128.4005
7706150000		0.61094	-132.0309
7806100000		0.61389	-135.4918
7906050000		0.61017	-139.2006
!
!				Infineon Technologies AG
