! Infineon Technologies  Discrete & RF Semiconductors
! BAT15-03W-E6327
! IAC = 0.9 mA
! One-Port S-Parameters
# Hz  S  MA  R  50
!f									S11
!Hz							Mag  Ang
309850000		0.1133	164.6315
409800000		0.1162	160.3697
509750000		0.11851	156.4799
609700000		0.12166	152.943
709650000		0.12174	149.5909
809600000		0.12422	146.6191
909550000		0.1272	143.981
1009500000		0.13272	141.6319
1109450000		0.13548	138.6971
1209400000		0.14165	136.1113
1309350000		0.14429	133.7974
1409300000		0.14825	131.5294
1509250000		0.15379	129.9506
1609200000		0.15919	127.9938
1709150000		0.16522	125.688
1809100000		0.17016	124.4108
1909050000		0.17631	123.0801
2009000000		0.18213	121.8134
2108950000		0.18591	120.3015
2208900000		0.19035	119.019
2308850000		0.19605	118.0262
2408800000		0.20148	116.4636
2508750000		0.20429	114.8656
2608700000		0.20889	113.9296
2708650000		0.21368	112.5894
2808600000		0.22004	112.0526
2908550000		0.22461	110.8302
3008500000		0.23209	109.5092
3108450000		0.23747	108.5023
3208400000		0.24382	107.9782
3308350000		0.24769	107.1394
3408300000		0.25374	106.4579
3508250000		0.25877	105.6058
3608200000		0.26631	104.8423
3708150000		0.27038	104.0071
3808100000		0.27479	103.1064
3908050000		0.27958	102.2836
4008000000		0.28529	101.4208
4107950000		0.29123	100.716
4207900000		0.29609	99.8951
4307850000		0.30234	99.0489
4407800000		0.30703	98.4042
4507750000		0.31169	97.5594
4607700000		0.31786	96.834
4707650000		0.32468	96.051
4807600000		0.32975	95.3851
4907550000		0.33378	94.5782
5007500000		0.33828	93.8978
5107450000		0.34579	93.3124
5207400000		0.34761	92.5808
5307350000		0.35101	91.9456
5407300000		0.35588	91.3625
5507250000		0.36192	90.8212
5607200000		0.36717	90.346
5707150000		0.37322	89.8304
5807100000		0.37753	89.3544
5907050000		0.38308	88.8748
6007000000		0.38715	88.5111
6106950000		0.39218	88.0994
6206900000		0.39899	87.6383
6306850000		0.40285	87.3424
6406800000		0.40908	86.8773
6506750000		0.41535	86.5079
6606700000		0.42181	85.9995
6706650000		0.42785	85.6561
6806600000		0.43334	85.1764
6906550000		0.44143	84.6961
7006500000		0.44727	84.1959
7106450000		0.45193	83.6837
7206400000		0.45912	83.1735
7306350000		0.46486	82.5302
7406300000		0.47408	81.8946
7506250000		0.47758	81.3336
7606200000		0.48366	80.7482
7706150000		0.48995	80.0169
7806100000		0.49587	79.4427
7906050000		0.50062	78.7678
!
!				Infineon Technologies AG
