! Infineon Technologies  Discrete & RF Semiconductors
! BAT15-03W-E6327
! VCA = 0.6 V
! One-Port S-Parameters
# Hz  S  MA  R  50
!f									S11
!Hz							Mag  Ang
309850000		0.99967	-2.2093
409800000		0.9993	-2.9169
509750000		0.99946	-3.6029
609700000		0.99944	-4.3261
709650000		0.99968	-5.044
809600000		0.99914	-5.7998
909550000		0.99939	-6.5248
1009500000		0.99902	-7.3075
1109450000		0.99943	-8.0943
1209400000		0.99862	-8.8884
1309350000		0.9984	-9.6752
1409300000		0.99776	-10.4912
1509250000		0.99714	-11.2942
1609200000		0.99622	-12.1228
1709150000		0.99534	-12.9233
1809100000		0.9942	-13.7567
1909050000		0.99326	-14.5953
2009000000		0.99209	-15.4324
2108950000		0.9909	-16.2803
2208900000		0.99005	-17.1192
2308850000		0.98933	-17.9879
2408800000		0.98872	-18.8155
2508750000		0.98892	-19.7093
2608700000		0.98882	-20.6474
2708650000		0.98898	-21.6228
2808600000		0.98903	-22.5516
2908550000		0.98908	-23.5469
3008500000		0.98931	-24.5806
3108450000		0.99001	-25.6093
3208400000		0.99004	-26.7719
3308350000		0.99001	-27.9308
3408300000		0.99006	-29.0807
3508250000		0.98982	-30.2661
3608200000		0.98901	-31.5281
3708150000		0.98787	-32.7589
3808100000		0.98609	-34.0244
3908050000		0.98438	-35.325
4008000000		0.98254	-36.6184
4107950000		0.97981	-37.9088
4207900000		0.97739	-39.2177
4307850000		0.97429	-40.5244
4407800000		0.97113	-41.8657
4507750000		0.96786	-43.1921
4607700000		0.9648	-44.5555
4707650000		0.96133	-45.8786
4807600000		0.95841	-47.2951
4907550000		0.9554	-48.6695
5007500000		0.95273	-50.0716
5107450000		0.94982	-51.5118
5207400000		0.94762	-52.9769
5307350000		0.94485	-54.467
5407300000		0.94253	-55.9988
5507250000		0.93987	-57.5805
5607200000		0.93775	-59.1965
5707150000		0.93514	-60.8638
5807100000		0.93245	-62.5792
5907050000		0.92984	-64.3493
6007000000		0.92665	-66.1793
6106950000		0.92367	-68.0537
6206900000		0.92002	-69.941
6306850000		0.91654	-71.9363
6406800000		0.91263	-73.8908
6506750000		0.90871	-75.9494
6606700000		0.9044	-78.0111
6706650000		0.90063	-80.1421
6806600000		0.89677	-82.2597
6906550000		0.89344	-84.4865
7006500000		0.89041	-86.7112
7106450000		0.88771	-89.045
7206400000		0.88486	-91.4648
7306350000		0.88238	-93.8835
7406300000		0.87911	-96.4059
7506250000		0.87728	-98.9499
7606200000		0.87451	-101.5946
7706150000		0.87274	-104.2532
7806100000		0.87	-107.0673
7906050000		0.86829	-109.8773
!
!				Infineon Technologies AG
