! Infineon Technologies  Discrete & RF Semiconductors
! BAT15-03W-E6327
! IAC = 1 mA
! One-Port S-Parameters
# Hz  S  MA  R  50
!f									S11
!Hz							Mag  Ang
309850000		0.16389	167.9134
409800000		0.16626	164.4537
509750000		0.16805	161.2301
609700000		0.17068	158.154
709650000		0.17058	155.3285
809600000		0.17244	152.6745
909550000		0.17523	150.2126
1009500000		0.18028	147.8851
1109450000		0.18282	145.2827
1209400000		0.18812	142.799
1309350000		0.19053	140.5297
1409300000		0.19419	138.3311
1509250000		0.19941	136.5184
1609200000		0.20457	134.4977
1709150000		0.21031	132.249
1809100000		0.21523	130.7243
1909050000		0.22098	129.1363
2009000000		0.22651	127.6227
2108950000		0.23059	126.0288
2208900000		0.2349	124.5548
2308850000		0.24045	123.2746
2408800000		0.24539	121.6778
2508750000		0.24861	120.0519
2608700000		0.25331	118.8862
2708650000		0.25793	117.4471
2808600000		0.2645	116.5684
2908550000		0.26898	115.2462
3008500000		0.27614	113.8228
3108450000		0.28144	112.6504
3208400000		0.28786	111.8494
3308350000		0.2918	110.8344
3408300000		0.2976	109.9002
3508250000		0.30261	108.9145
3608200000		0.31002	107.9466
3708150000		0.31413	106.974
3808100000		0.3184	105.9567
3908050000		0.32299	104.9818
4008000000		0.32864	103.9896
4107950000		0.33452	103.1017
4207900000		0.33951	102.1584
4307850000		0.3455	101.18
4407800000		0.35022	100.3684
4507750000		0.35471	99.4199
4607700000		0.36045	98.5606
4707650000		0.36688	97.6529
4807600000		0.37151	96.8696
4907550000		0.37537	95.9661
5007500000		0.37958	95.2011
5107450000		0.38656	94.4795
5207400000		0.38863	93.6291
5307350000		0.39196	92.9026
5407300000		0.39639	92.24
5507250000		0.40207	91.5705
5607200000		0.40697	90.9591
5707150000		0.41249	90.3772
5807100000		0.4166	89.8119
5907050000		0.42169	89.2886
6007000000		0.42571	88.8346
6106950000		0.43054	88.3113
6206900000		0.43692	87.7817
6306850000		0.44077	87.3842
6406800000		0.44666	86.8451
6506750000		0.4527	86.4028
6606700000		0.45884	85.8301
6706650000		0.46459	85.3993
6806600000		0.46992	84.8473
6906550000		0.47749	84.3145
7006500000		0.48308	83.7382
7106450000		0.4876	83.1605
7206400000		0.4944	82.6009
7306350000		0.49989	81.9093
7406300000		0.50834	81.2514
7506250000		0.51176	80.6191
7606200000		0.5175	79.9831
7706150000		0.52334	79.2185
7806100000		0.52895	78.5957
7906050000		0.53335	77.8759
!
!				Infineon Technologies AG
