! Infineon Technologies  Discrete & RF Semiconductors
! BAT15-03W-E6327
! IAC = 0.08 mA
! One-Port S-Parameters
# Hz  S  MA  R  50
!f									S11
!Hz							Mag  Ang
309850000		0.81943	-2.4804
409800000		0.82017	-3.2909
509750000		0.81943	-4.0792
609700000		0.82015	-4.9504
709650000		0.82198	-5.8699
809600000		0.8161	-6.7767
909550000		0.81631	-7.7244
1009500000		0.81698	-8.6848
1109450000		0.82036	-9.5536
1209400000		0.81551	-10.4686
1309350000		0.81332	-11.4681
1409300000		0.81108	-12.4431
1509250000		0.80904	-13.3793
1609200000		0.80738	-14.3726
1709150000		0.81123	-15.2576
1809100000		0.80859	-16.2815
1909050000		0.80493	-17.2251
2009000000		0.79904	-18.3242
2108950000		0.80218	-19.3984
2208900000		0.79711	-20.4645
2308850000		0.79284	-21.5204
2408800000		0.78562	-22.5431
2508750000		0.79131	-23.6385
2608700000		0.79038	-24.8744
2708650000		0.78777	-25.9558
2808600000		0.78851	-27.2575
2908550000		0.78574	-28.4414
3008500000		0.78653	-29.4654
3108450000		0.78316	-30.7623
3208400000		0.7863	-32.1793
3308350000		0.78106	-33.6638
3408300000		0.77351	-35.1023
3508250000		0.7704	-36.6138
3608200000		0.77409	-38.0213
3708150000		0.77062	-39.6265
3808100000		0.76232	-41.147
3908050000		0.75293	-42.7349
4008000000		0.75098	-44.2446
4107950000		0.74795	-45.9677
4207900000		0.74929	-47.5624
4307850000		0.74354	-49.143
4407800000		0.74049	-50.9506
4507750000		0.73225	-52.5812
4607700000		0.72607	-54.2853
4707650000		0.72008	-55.9263
4807600000		0.70736	-57.6731
4907550000		0.70009	-59.441
5007500000		0.69321	-61.3003
5107450000		0.69357	-63.1366
5207400000		0.68812	-65.074
5307350000		0.68102	-67.0483
5407300000		0.67262	-69.0756
5507250000		0.67254	-71.0143
5607200000		0.67038	-73.0457
5707150000		0.66485	-75.1715
5807100000		0.65649	-77.3949
5907050000		0.65206	-79.6513
6007000000		0.64639	-81.9506
6106950000		0.6412	-84.281
6206900000		0.63582	-86.6507
6306850000		0.63319	-89.1932
6406800000		0.62598	-91.7524
6506750000		0.62454	-94.4526
6606700000		0.61756	-97.2605
6706650000		0.61124	-100.1454
6806600000		0.60459	-103.0964
6906550000		0.60347	-106.0623
7006500000		0.60347	-109.0337
7106450000		0.596	-112.294
7206400000		0.5905	-115.7269
7306350000		0.59085	-118.9086
7406300000		0.59036	-122.2524
7506250000		0.58778	-125.6915
7606200000		0.58357	-129.3266
7706150000		0.57811	-133.0143
7806100000		0.58154	-136.5234
7906050000		0.57793	-140.275
!
!				Infineon Technologies AG
