! Infineon Technologies  Discrete & RF Semiconductors
! BAT15-03W-E6327
! VCA = 0.5 V
! One-Port S-Parameters
# Hz  S  MA  R  50
!f									S11
!Hz							Mag  Ang
309850000		0.99966	-2.232
409800000		0.99933	-2.9489
509750000		0.99948	-3.6443
609700000		0.99943	-4.3733
709650000		0.99968	-5.1001
809600000		0.99891	-5.8281
909550000		0.99937	-6.5993
1009500000		0.99897	-7.3884
1109450000		0.99944	-8.1827
1209400000		0.99869	-8.9861
1309350000		0.99837	-9.7805
1409300000		0.99768	-10.6024
1509250000		0.99712	-11.4188
1609200000		0.99617	-12.255
1709150000		0.99529	-13.063
1809100000		0.99422	-13.9075
1909050000		0.99316	-14.7522
2009000000		0.99209	-15.6003
2108950000		0.99088	-16.4577
2208900000		0.98998	-17.3069
2308850000		0.98907	-18.1485
2408800000		0.98861	-19.0215
2508750000		0.98866	-19.8967
2608700000		0.98871	-20.8793
2708650000		0.98887	-21.8641
2808600000		0.9889	-22.8048
2908550000		0.98894	-23.8148
3008500000		0.98914	-24.8591
3108450000		0.98985	-25.8988
3208400000		0.98964	-27.0462
3308350000		0.98981	-28.2521
3408300000		0.98981	-29.4134
3508250000		0.98987	-30.6443
3608200000		0.98887	-31.8885
3708150000		0.98766	-33.1329
3808100000		0.98604	-34.4475
3908050000		0.98408	-35.7275
4008000000		0.98218	-37.0373
4107950000		0.9794	-38.3432
4207900000		0.97698	-39.6692
4307850000		0.97365	-40.9622
4407800000		0.97072	-42.3521
4507750000		0.96739	-43.6954
4607700000		0.96418	-45.0781
4707650000		0.96079	-46.4181
4807600000		0.9578	-47.8559
4907550000		0.95481	-49.2498
5007500000		0.95206	-50.673
5107450000		0.9491	-52.1347
5207400000		0.94689	-53.6232
5307350000		0.94403	-55.1338
5407300000		0.94174	-56.6919
5507250000		0.93905	-58.3022
5607200000		0.93684	-59.9442
5707150000		0.93418	-61.6344
5807100000		0.93138	-63.3818
5907050000		0.92875	-65.1796
6007000000		0.9254	-67.0385
6106950000		0.92242	-68.9423
6206900000		0.91866	-70.8614
6306850000		0.91507	-72.8867
6406800000		0.91107	-74.8713
6506750000		0.90703	-76.9635
6606700000		0.90258	-79.057
6706650000		0.89874	-81.2161
6806600000		0.8948	-83.3648
6906550000		0.89138	-85.6248
7006500000		0.88821	-87.8835
7106450000		0.88545	-90.2483
7206400000		0.88253	-92.6993
7306350000		0.87995	-95.1494
7406300000		0.87667	-97.7083
7506250000		0.87484	-100.2815
7606200000		0.87209	-102.9592
7706150000		0.87027	-105.6508
7806100000		0.8675	-108.5001
7906050000		0.86583	-111.3424
!
!				Infineon Technologies AG
