! Infineon Technologies  Discrete & RF Semiconductors
! BAT15-03W-E6327
! IAC = 0.5 mA
! One-Port S-Parameters
# Hz  S  MA  R  50
!f									S11
!Hz							Mag  Ang
309850000		0.19336	1.8177
409800000		0.19266	2.4654
509750000		0.19245	2.8327
609700000		0.19162	2.9079
709650000		0.19468	2.3753
809600000		0.19121	2.4359
909550000		0.19134	1.9448
1009500000		0.18862	2.0601
1109450000		0.19166	1.9651
1209400000		0.18676	3.2693
1309350000		0.18559	2.5653
1409300000		0.18485	2.6477
1509250000		0.18031	2.5206
1609200000		0.17882	2.7815
1709150000		0.18083	3.3938
1809100000		0.17758	2.9272
1909050000		0.17229	3.7411
2009000000		0.16583	4.1695
2108950000		0.16757	3.047
2208900000		0.16338	3.0551
2308850000		0.15785	3.6007
2408800000		0.15435	5.0442
2508750000		0.15733	3.7548
2608700000		0.15385	3.2239
2708650000		0.15202	3.8226
2808600000		0.14665	3.289
2908550000		0.14474	3.8271
3008500000		0.14397	5.4097
3108450000		0.14055	6.1551
3208400000		0.13554	6.0111
3308350000		0.13082	6.0151
3408300000		0.12421	8.4916
3508250000		0.11993	9.0111
3608200000		0.11756	10.3901
3708150000		0.11251	10.3345
3808100000		0.1091	12.5675
3908050000		0.1044	15.2739
4008000000		0.10194	16.61
4107950000		0.09689	19.0291
4207900000		0.09428	19.0043
4307850000		0.09186	22.5224
4407800000		0.08648	24.6611
4507750000		0.08515	28.2632
4607700000		0.08379	33.4979
4707650000		0.08434	38.7333
4807600000		0.086	44.8521
4907550000		0.08625	48.2096
5007500000		0.08655	52.238
5107450000		0.08956	57.8181
5207400000		0.08736	59.4676
5307350000		0.08809	62.5311
5407300000		0.09192	66.962
5507250000		0.0965	70.4592
5607200000		0.1008	74.1095
5707150000		0.10796	77.5608
5807100000		0.1126	80.0952
5907050000		0.11927	82.2521
6007000000		0.12315	84.3731
6106950000		0.12971	85.8844
6206900000		0.13881	87.1554
6306850000		0.14257	89.267
6406800000		0.15161	90.2026
6506750000		0.15916	91.571
6606700000		0.1682	92.217
6706650000		0.1773	93.2244
6806600000		0.18466	93.8821
6906550000		0.19665	94.0324
7006500000		0.20461	94.6667
7106450000		0.2113	94.9608
7206400000		0.22233	94.9626
7306350000		0.23021	94.9856
7406300000		0.24426	94.2368
7506250000		0.24981	94.6153
7606200000		0.25959	94.4593
7706150000		0.27018	93.8363
7806100000		0.27867	93.8111
7906050000		0.28706	93.4247
!
!				Infineon Technologies AG
