! Infineon Technologies  Discrete & RF Semiconductors
! BAT15-03W-E6327
! VCA = 1 V
! One-Port S-Parameters
# Hz  S  MA  R  50
!f									S11
!Hz							Mag  Ang
309850000		0.9997	-2.1379
409800000		0.99937	-2.8235
509750000		0.99957	-3.4876
609700000		0.9995	-4.187
709650000		0.99982	-4.8814
809600000		0.9993	-5.6116
909550000		0.99954	-6.3144
1009500000		0.99909	-7.0767
1109450000		0.99953	-7.8388
1209400000		0.9988	-8.6083
1309350000		0.99849	-9.3716
1409300000		0.99784	-10.1608
1509250000		0.99733	-10.9389
1609200000		0.99639	-11.7442
1709150000		0.99555	-12.5174
1809100000		0.99446	-13.3254
1909050000		0.99338	-14.1319
2009000000		0.99235	-14.9434
2108950000		0.99115	-15.7643
2208900000		0.9903	-16.5743
2308850000		0.98935	-17.3774
2408800000		0.98875	-18.1704
2508750000		0.98925	-19.0753
2608700000		0.98909	-19.9826
2708650000		0.98926	-20.9205
2808600000		0.98938	-21.815
2908550000		0.98949	-22.7797
3008500000		0.98969	-23.7732
3108450000		0.99065	-24.7988
3208400000		0.9903	-25.8594
3308350000		0.99049	-27.0127
3408300000		0.99058	-28.1209
3508250000		0.99068	-29.2996
3608200000		0.98973	-30.4843
3708150000		0.98868	-31.6765
3808100000		0.98717	-32.9307
3908050000		0.98531	-34.1536
4008000000		0.98359	-35.4021
4107950000		0.98092	-36.648
4207900000		0.97862	-37.9113
4307850000		0.97559	-39.1696
4407800000		0.97254	-40.4616
4507750000		0.96933	-41.7342
4607700000		0.96628	-43.0467
4707650000		0.96296	-44.3147
4807600000		0.96013	-45.6754
4907550000		0.95713	-46.9918
5007500000		0.95454	-48.3316
5107450000		0.9518	-49.7079
5207400000		0.94961	-51.1071
5307350000		0.94696	-52.5292
5407300000		0.94481	-53.9904
5507250000		0.94234	-55.4995
5607200000		0.94031	-57.0394
5707150000		0.93788	-58.6274
5807100000		0.9354	-60.2619
5907050000		0.93306	-61.9504
6007000000		0.93004	-63.6937
6106950000		0.92736	-65.4809
6206900000		0.92406	-67.2818
6306850000		0.92088	-69.1923
6406800000		0.91721	-71.054
6506750000		0.91361	-73.0226
6606700000		0.90965	-74.996
6706650000		0.90615	-77.0339
6806600000		0.9026	-79.062
6906550000		0.89945	-81.1939
7006500000		0.89662	-83.3298
7106450000		0.89416	-85.5614
7206400000		0.89144	-87.8906
7306350000		0.88917	-90.2148
7406300000		0.88604	-92.6416
7506250000		0.88431	-95.0882
7606200000		0.88161	-97.6359
7706150000		0.88	-100.195
7806100000		0.87724	-102.9076
7906050000		0.87551	-105.6214
!
!				Infineon Technologies AG
