! Infineon Technologies  Discrete & RF Semiconductors
! BAT15-03W-E6327
! IAC = 0.4 mA
! One-Port S-Parameters
# Hz  S  MA  R  50
!f									S11
!Hz							Mag  Ang
309850000		0.30479	-0.38661
409800000		0.3043	-0.44483
509750000		0.30375	-0.66043
609700000		0.30292	-1.1303
709650000		0.30602	-1.9276
809600000		0.30064	-2.3544
909550000		0.30099	-3.1979
1009500000		0.29858	-3.6941
1109450000		0.3023	-4.1746
1209400000		0.29549	-3.8629
1309350000		0.29366	-4.8812
1409300000		0.29214	-5.248
1509250000		0.28722	-6.0794
1609200000		0.2852	-6.4735
1709150000		0.28794	-6.5436
1809100000		0.28454	-7.5145
1909050000		0.27763	-7.7013
2009000000		0.26908	-8.2351
2108950000		0.27244	-9.5168
2208900000		0.26675	-10.2565
2308850000		0.25966	-10.7596
2408800000		0.25303	-10.4675
2508750000		0.25764	-11.7614
2608700000		0.25424	-12.9868
2708650000		0.25084	-13.2603
2808600000		0.2462	-14.7856
2908550000		0.24278	-15.1533
3008500000		0.24073	-14.9754
3108450000		0.23552	-15.4319
3208400000		0.23147	-17.0262
3308350000		0.22514	-18.189
3408300000		0.21418	-18.2219
3508250000		0.20843	-19.3258
3608200000		0.20563	-19.9851
3708150000		0.1996	-21.7521
3808100000		0.19172	-21.7813
3908050000		0.18189	-22.0294
4008000000		0.17755	-22.9163
4107950000		0.16915	-24.1532
4207900000		0.16713	-26.1298
4307850000		0.15944	-26.3789
4407800000		0.15145	-28.5577
4507750000		0.14371	-28.5331
4607700000		0.13401	-28.4735
4707650000		0.12533	-27.9585
4807600000		0.11376	-25.9537
4907550000		0.10621	-26.0429
5007500000		0.09746	-26.2431
5107450000		0.08738	-25.6481
5207400000		0.08198	-28.5808
5307350000		0.07439	-29.5562
5407300000		0.0639	-27.9058
5507250000		0.05546	-26.7292
5607200000		0.04576	-25.2801
5707150000		0.03505	-18.1322
5807100000		0.02668	-10.2044
5907050000		0.01986	7.7736
6007000000		0.01456	29.8895
6106950000		0.01603	64.0845
6206900000		0.02421	86.0258
6306850000		0.0291	103.3892
6406800000		0.04036	107.2532
6506750000		0.05003	112.7288
6606700000		0.06147	113.691
6706650000		0.07358	114.9725
6806600000		0.08358	116.0189
6906550000		0.09724	115.0115
7006500000		0.10772	116.1419
7106450000		0.11694	116.3072
7206400000		0.13038	115.3889
7306350000		0.14034	115.3655
7406300000		0.15546	113.1091
7506250000		0.16407	113.8255
7606200000		0.17643	113.0674
7706150000		0.18914	111.538
7806100000		0.1999	111.4881
7906050000		0.2107	110.6316
!
!				Infineon Technologies AG
