! Infineon Technologies  Discrete & RF Semiconductors
! BAT15-03W-E6327
! IAC = 5 mA
! One-Port S-Parameters
# Hz  S  MA  R  50
!f									S11
!Hz							Mag  Ang
309850000		0.65382	172.9742
409800000		0.65284	170.8639
509750000		0.65211	168.7606
609700000		0.65185	166.6869
709650000		0.65115	164.7373
809600000		0.65143	162.8258
909550000		0.65179	160.8302
1009500000		0.65253	158.9481
1109450000		0.65309	157.0604
1209400000		0.65479	155.2324
1309350000		0.65565	153.336
1409300000		0.65702	151.5232
1509250000		0.6587	149.7382
1609200000		0.66129	147.9309
1709150000		0.66301	146.095
1809100000		0.66477	144.3688
1909050000		0.66687	142.7223
2009000000		0.67007	140.9921
2108950000		0.67202	139.2828
2208900000		0.67391	137.6377
2308850000		0.67588	136.0608
2408800000		0.67853	134.4267
2508750000		0.68069	132.8231
2608700000		0.68256	131.2808
2708650000		0.68417	129.7545
2808600000		0.68634	128.2749
2908550000		0.68835	126.85
3008500000		0.69048	125.3713
3108450000		0.69242	123.957
3208400000		0.69426	122.6354
3308350000		0.6962	121.2639
3408300000		0.69799	120.0039
3508250000		0.70057	118.6669
3608200000		0.70271	117.3769
3708150000		0.70476	116.0756
3808100000		0.70695	114.8274
3908050000		0.70925	113.605
4008000000		0.71201	112.3029
4107950000		0.71451	111.0153
4207900000		0.71668	109.7713
4307850000		0.71912	108.5043
4407800000		0.72122	107.2985
4507750000		0.72345	106.0893
4607700000		0.72493	104.8894
4707650000		0.72666	103.6733
4807600000		0.72801	102.5792
4907550000		0.72929	101.4199
5007500000		0.73051	100.3145
5107450000		0.73143	99.2387
5207400000		0.73215	98.1615
5307350000		0.73308	97.1368
5407300000		0.73402	96.1677
5507250000		0.73495	95.2233
5607200000		0.73572	94.3259
5707150000		0.73704	93.422
5807100000		0.73884	92.5949
5907050000		0.74053	91.785
6007000000		0.74284	91.0344
6106950000		0.74485	90.2461
6206900000		0.74797	89.4488
6306850000		0.75106	88.7113
6406800000		0.75438	87.9142
6506750000		0.75785	87.1837
6606700000		0.76146	86.3563
6706650000		0.76538	85.5949
6806600000		0.76949	84.759
6906550000		0.77299	83.9742
7006500000		0.77641	83.112
7106450000		0.77963	82.2592
7206400000		0.78325	81.4744
7306350000		0.7863	80.5767
7406300000		0.79005	79.7618
7506250000		0.7922	78.8658
7606200000		0.79548	77.9926
7706150000		0.79815	77.0624
7806100000		0.80129	76.234
7906050000		0.8033	75.329
!
!				Infineon Technologies AG
