! Infineon Technologies  Discrete & RF Semiconductors
! BAT15-03W-E6327
! IAC = 6 mA
! One-Port S-Parameters
# Hz  S  MA  R  50
!f									S11
!Hz							Mag  Ang
309850000		0.67937	173.0154
409800000		0.67826	170.915
509750000		0.67744	168.8248
609700000		0.6769	166.7923
709650000		0.67629	164.8162
809600000		0.67645	162.9153
909550000		0.67667	160.9252
1009500000		0.6772	159.0479
1109450000		0.67753	157.1693
1209400000		0.67915	155.3504
1309350000		0.67984	153.4594
1409300000		0.68104	151.6553
1509250000		0.68261	149.875
1609200000		0.685	148.0752
1709150000		0.68647	146.2447
1809100000		0.68802	144.52
1909050000		0.68995	142.876
2009000000		0.69288	141.1806
2108950000		0.69473	139.4392
2208900000		0.69644	137.7956
2308850000		0.69815	136.2221
2408800000		0.70067	134.5835
2508750000		0.70261	132.9828
2608700000		0.70423	131.4378
2708650000		0.70543	129.9453
2808600000		0.70753	128.4322
2908550000		0.70944	126.9744
3008500000		0.71114	125.5321
3108450000		0.71286	124.1189
3208400000		0.71442	122.7936
3308350000		0.71619	121.4236
3408300000		0.71789	120.1283
3508250000		0.72007	118.8267
3608200000		0.72198	117.5359
3708150000		0.72388	116.2349
3808100000		0.72585	114.9845
3908050000		0.72811	113.7277
4008000000		0.73057	112.4599
4107950000		0.7329	111.173
4207900000		0.73478	109.9248
4307850000		0.73708	108.6545
4407800000		0.73896	107.4479
4507750000		0.74105	106.2344
4607700000		0.74227	105.0317
4707650000		0.74379	103.8166
4807600000		0.74495	102.7166
4907550000		0.74608	101.5544
5007500000		0.7471	100.4481
5107450000		0.74777	99.3709
5207400000		0.74827	98.2873
5307350000		0.74906	97.2611
5407300000		0.74978	96.2901
5507250000		0.75049	95.3431
5607200000		0.75108	94.4403
5707150000		0.75216	93.5325
5807100000		0.75384	92.7039
5907050000		0.75535	91.8908
6007000000		0.75748	91.1354
6106950000		0.75939	90.3405
6206900000		0.76239	89.5391
6306850000		0.76532	88.7987
6406800000		0.76854	87.9961
6506750000		0.77187	87.2595
6606700000		0.77538	86.4253
6706650000		0.77919	85.6602
6806600000		0.78322	84.8165
6906550000		0.78658	84.0248
7006500000		0.78989	83.1597
7106450000		0.79294	82.299
7206400000		0.79652	81.5109
7306350000		0.79947	80.6106
7406300000		0.80302	79.7912
7506250000		0.80503	78.8879
7606200000		0.80816	78.0132
7706150000		0.81075	77.0786
7806100000		0.81369	76.248
7906050000		0.81559	75.3355
!
!				Infineon Technologies AG
