! Infineon Technologies  Discrete & RF Semiconductors
! BAT15-03W-E6327
! IAC = 0.8 mA
! One-Port S-Parameters
# Hz  S  MA  R  50
!f									S11
!Hz							Mag  Ang
309850000		0.0562	153.4066
409800000		0.06042	147.1254
509750000		0.06396	141.7728
609700000		0.06819	137.4861
709650000		0.06913	132.7779
809600000		0.07286	129.6414
909550000		0.07624	126.986
1009500000		0.08225	125.3585
1109450000		0.08566	121.9416
1209400000		0.09301	120.0189
1309350000		0.09599	117.9105
1409300000		0.10042	115.9005
1509250000		0.10596	115.2783
1609200000		0.11153	113.8133
1709150000		0.11795	111.7417
1809100000		0.12256	111.1861
1909050000		0.12897	110.6242
2009000000		0.13472	110.218
2108950000		0.13795	108.9109
2208900000		0.14237	108.1076
2308850000		0.14807	107.761
2408800000		0.15384	106.6024
2508750000		0.15625	104.997
2608700000		0.16033	104.5457
2708650000		0.16519	103.5274
2808600000		0.17083	103.6468
2908550000		0.17533	102.6802
3008500000		0.18311	101.633
3108450000		0.1883	101.0619
3208400000		0.19412	101.0387
3308350000		0.19769	100.5521
3408300000		0.20404	100.3049
3508250000		0.20874	99.8245
3608200000		0.21627	99.3742
3708150000		0.21988	98.8839
3808100000		0.22444	98.2208
3908050000		0.22936	97.7019
4008000000		0.23491	97.0759
4107950000		0.24078	96.719
4207900000		0.24524	96.1102
4307850000		0.25155	95.5398
4407800000		0.25611	95.1683
4507750000		0.26092	94.5149
4607700000		0.26741	94.0419
4707650000		0.27466	93.4779
4807600000		0.28025	93.0205
4907550000		0.28442	92.3828
5007500000		0.28906	91.9
5107450000		0.2971	91.5509
5207400000		0.29862	90.9612
5307350000		0.30214	90.4478
5407300000		0.30731	90.0822
5507250000		0.31386	89.6654
5607200000		0.31941	89.3688
5707150000		0.32612	89.0151
5807100000		0.33052	88.7177
5907050000		0.33647	88.3678
6007000000		0.34055	88.1849
6106950000		0.34608	87.8109
6206900000		0.3534	87.4569
6306850000		0.3572	87.3234
6406800000		0.36374	86.9952
6506750000		0.37034	86.7531
6606700000		0.37716	86.3329
6706650000		0.38356	86.1157
6806600000		0.38921	85.7399
6906550000		0.39806	85.3361
7006500000		0.40418	84.9451
7106450000		0.40899	84.5258
7206400000		0.41678	84.0855
7306350000		0.4228	83.5136
7406300000		0.43296	82.9002
7506250000		0.43653	82.4415
7606200000		0.44309	81.9291
7706150000		0.44997	81.2403
7806100000		0.45625	80.7371
7906050000		0.46142	80.1194
!
!				Infineon Technologies AG
