! Infineon Technologies  Discrete & RF Semiconductors
! BAT15-03W-E6327
! IAC = 4 mA
! One-Port S-Parameters
# Hz  S  MA  R  50
!f									S11
!Hz							Mag  Ang
309850000		0.61594	172.9014
409800000		0.61521	170.7696
509750000		0.61461	168.6512
609700000		0.61455	166.5619
709650000		0.61408	164.5956
809600000		0.61444	162.673
909550000		0.61505	160.6656
1009500000		0.61609	158.7711
1109450000		0.61686	156.8708
1209400000		0.6188	155.0296
1309350000		0.61982	153.1209
1409300000		0.62143	151.3001
1509250000		0.62337	149.5038
1609200000		0.62623	147.6872
1709150000		0.62824	145.8434
1809100000		0.63028	144.1108
1909050000		0.63264	142.4602
2009000000		0.63609	140.7272
2108950000		0.63831	139.0169
2208900000		0.6405	137.3733
2308850000		0.64261	135.8261
2408800000		0.64568	134.157
2508750000		0.64811	132.5531
2608700000		0.65035	131.0156
2708650000		0.65229	129.4884
2808600000		0.65476	128.0455
2908550000		0.65735	126.5558
3008500000		0.6596	125.1376
3108450000		0.66207	123.6886
3208400000		0.66428	122.3688
3308350000		0.66653	121.0037
3408300000		0.6688	119.7089
3508250000		0.67153	118.406
3608200000		0.67406	117.1162
3708150000		0.67641	115.8195
3808100000		0.67884	114.572
3908050000		0.6815	113.3173
4008000000		0.68437	112.053
4107950000		0.6872	110.7687
4207900000		0.68965	109.527
4307850000		0.69236	108.2623
4407800000		0.69475	107.0619
4507750000		0.69721	105.8563
4607700000		0.69893	104.6617
4707650000		0.70102	103.4533
4807600000		0.70264	102.3636
4907550000		0.7042	101.2077
5007500000		0.70573	100.1078
5107450000		0.70701	99.0393
5207400000		0.70798	97.966
5307350000		0.70922	96.9477
5407300000		0.7104	95.9845
5507250000		0.71165	95.0461
5607200000		0.71275	94.1528
5707150000		0.7143	93.2567
5807100000		0.71636	92.4373
5907050000		0.71832	91.6316
6007000000		0.72078	90.8896
6106950000		0.72304	90.1081
6206900000		0.72638	89.3165
6306850000		0.72961	88.5891
6406800000		0.73308	87.799
6506750000		0.73674	87.0776
6606700000		0.74054	86.2583
6706650000		0.74461	85.5084
6806600000		0.74886	84.6787
6906550000		0.75261	83.9036
7006500000		0.75621	83.0535
7106450000		0.75958	82.2058
7206400000		0.76342	81.4311
7306350000		0.7667	80.5385
7406300000		0.77061	79.7339
7506250000		0.77294	78.8426
7606200000		0.77641	77.9797
7706150000		0.77931	77.054
7806100000		0.78261	76.2319
7906050000		0.78483	75.3324
!
!				Infineon Technologies AG
