! Infineon Technologies  Discrete & RF Semiconductors
! BAT15-03W-E6327
! IAC = 0.01 mA
! One-Port S-Parameters
# Hz  S  MA  R  50
!f									S11
!Hz							Mag  Ang
309850000		0.97524	-2.5436
409800000		0.97524	-3.3727
509750000		0.97544	-4.173
609700000		0.97562	-5.0214
709650000		0.97586	-5.8667
809600000		0.97458	-6.7508
909550000		0.97467	-7.5999
1009500000		0.9744	-8.5658
1109450000		0.97504	-9.4232
1209400000		0.97425	-10.3874
1309350000		0.97342	-11.3215
1409300000		0.97193	-12.2894
1509250000		0.97123	-13.1572
1609200000		0.9707	-14.1731
1709150000		0.97032	-15.1051
1809100000		0.96812	-16.0745
1909050000		0.96712	-16.986
2009000000		0.96592	-18.0345
2108950000		0.96498	-19.0552
2208900000		0.96297	-20.0633
2308850000		0.96171	-21.0618
2408800000		0.96036	-22.1197
2508750000		0.96139	-23.1573
2608700000		0.96085	-24.2921
2708650000		0.96029	-25.4195
2808600000		0.96038	-26.4746
2908550000		0.96019	-27.71
3008500000		0.96023	-28.8766
3108450000		0.96025	-30.1791
3208400000		0.96051	-31.43
3308350000		0.95918	-32.8629
3408300000		0.95759	-34.2395
3508250000		0.9569	-35.697
3608200000		0.95641	-37.0491
3708150000		0.95452	-38.5297
3808100000		0.95116	-40.0753
3908050000		0.9473	-41.6228
4008000000		0.94526	-43.1353
4107950000		0.94223	-44.6424
4207900000		0.93996	-46.1286
4307850000		0.93556	-47.6658
4407800000		0.93204	-49.2156
4507750000		0.92736	-50.842
4607700000		0.92339	-52.4582
4707650000		0.91866	-54.0401
4807600000		0.91326	-55.8043
4907550000		0.90865	-57.4893
5007500000		0.90479	-59.1923
5107450000		0.90273	-60.8034
5207400000		0.89896	-62.5531
5307350000		0.89448	-64.3616
5407300000		0.89053	-66.2548
5507250000		0.88857	-68.0031
5607200000		0.88662	-69.8472
5707150000		0.88335	-71.7675
5807100000		0.87942	-73.8817
5907050000		0.87679	-75.9561
6007000000		0.87351	-78.1483
6106950000		0.87066	-80.3837
6206900000		0.86739	-82.6302
6306850000		0.86486	-84.9637
6406800000		0.86144	-87.3817
6506750000		0.85941	-89.818
6606700000		0.85587	-92.3811
6706650000		0.85272	-95.0381
6806600000		0.84923	-97.7554
6906550000		0.84803	-100.4309
7006500000		0.84694	-103.1242
7106450000		0.84384	-106.1727
7206400000		0.84094	-109.2494
7306350000		0.8398	-112.1428
7406300000		0.83819	-115.1416
7506250000		0.83634	-118.3384
7606200000		0.83368	-121.632
7706150000		0.83114	-124.9728
7806100000		0.82975	-128.2162
7906050000		0.82745	-131.6908
!
!				Infineon Technologies AG
