! Infineon Technologies  Discrete & RF Semiconductors
! BAT15-03W-E6327
! IAC = 0.06 mA
! One-Port S-Parameters
# Hz  S  MA  R  50
!f									S11
!Hz							Mag  Ang
309850000		0.86199	-2.5248
409800000		0.86254	-3.343
509750000		0.86196	-4.1437
609700000		0.86258	-5.0124
709650000		0.86411	-5.9198
809600000		0.85919	-6.8248
909550000		0.85939	-7.7594
1009500000		0.85991	-8.7194
1109450000		0.86273	-9.5938
1209400000		0.85882	-10.5404
1309350000		0.85687	-11.5217
1409300000		0.85474	-12.5025
1509250000		0.85309	-13.4198
1609200000		0.85167	-14.4278
1709150000		0.85463	-15.3354
1809100000		0.85206	-16.3456
1909050000		0.84908	-17.2899
2009000000		0.8443	-18.3787
2108950000		0.84645	-19.4385
2208900000		0.84206	-20.4928
2308850000		0.83858	-21.5436
2408800000		0.83253	-22.5944
2508750000		0.83729	-23.6778
2608700000		0.83653	-24.8857
2708650000		0.8344	-25.986
2808600000		0.83483	-27.2014
2908550000		0.8327	-28.4376
3008500000		0.83351	-29.5047
3108450000		0.83083	-30.8137
3208400000		0.8337	-32.2144
3308350000		0.82922	-33.6874
3408300000		0.82303	-35.0961
3508250000		0.82037	-36.597
3608200000		0.82332	-38.0046
3708150000		0.82019	-39.5621
3808100000		0.81298	-41.1093
3908050000		0.80479	-42.6963
4008000000		0.80291	-44.2349
4107950000		0.8	-45.8753
4207900000		0.80052	-47.4317
4307850000		0.79508	-49.0121
4407800000		0.79211	-50.739
4507750000		0.78463	-52.3818
4607700000		0.77907	-54.0692
4707650000		0.77346	-55.7037
4807600000		0.76233	-57.4815
4907550000		0.75565	-59.2341
5007500000		0.74949	-61.0542
5107450000		0.7497	-62.8214
5207400000		0.74449	-64.7084
5307350000		0.7379	-66.6375
5407300000		0.73055	-68.6351
5507250000		0.73041	-70.5204
5607200000		0.72857	-72.4935
5707150000		0.7238	-74.5592
5807100000		0.71634	-76.7624
5907050000		0.71247	-78.9716
6007000000		0.70726	-81.2448
6106950000		0.7026	-83.5592
6206900000		0.69778	-85.9016
6306850000		0.69526	-88.3826
6406800000		0.68899	-90.913
6506750000		0.68759	-93.5302
6606700000		0.68131	-96.2717
6706650000		0.67569	-99.0948
6806600000		0.66963	-101.9822
6906550000		0.66882	-104.8633
7006500000		0.66867	-107.7453
7106450000		0.6618	-110.9516
7206400000		0.65684	-114.2707
7306350000		0.65687	-117.3643
7406300000		0.65657	-120.5982
7506250000		0.65384	-123.9617
7606200000		0.64972	-127.4917
7706150000		0.64476	-131.0706
7806100000		0.64713	-134.4913
7906050000		0.64343	-138.156
!
!				Infineon Technologies AG
