! Infineon Technologies  Discrete & RF Semiconductors
! BAT15-03W-E6327
! VCA = 0.9 V
! One-Port S-Parameters
# Hz  S  MA  R  50
!f									S11
!Hz							Mag  Ang
309850000		0.99965	-2.1547
409800000		0.99933	-2.8422
509750000		0.99953	-3.5127
609700000		0.99945	-4.2152
709650000		0.99973	-4.9156
809600000		0.99926	-5.6518
909550000		0.99931	-6.3269
1009500000		0.9991	-7.127
1109450000		0.99951	-7.8908
1209400000		0.99875	-8.6672
1309350000		0.99851	-9.4341
1409300000		0.99787	-10.2299
1509250000		0.99726	-11.0139
1609200000		0.9963	-11.8232
1709150000		0.99549	-12.6019
1809100000		0.99441	-13.416
1909050000		0.99341	-14.2298
2009000000		0.99232	-15.0479
2108950000		0.99107	-15.8722
2208900000		0.99022	-16.6885
2308850000		0.9895	-17.533
2408800000		0.98889	-18.3362
2508750000		0.9892	-19.2072
2608700000		0.98884	-20.0846
2708650000		0.98916	-21.0658
2808600000		0.98924	-21.9707
2908550000		0.98941	-22.94
3008500000		0.98965	-23.9426
3108450000		0.99054	-24.9766
3208400000		0.9904	-26.0719
3308350000		0.99043	-27.2062
3408300000		0.9905	-28.323
3508250000		0.99053	-29.5076
3608200000		0.98946	-30.6719
3708150000		0.98855	-31.9033
3808100000		0.98699	-33.1662
3908050000		0.9851	-34.3969
4008000000		0.98335	-35.655
4107950000		0.98039	-36.8794
4207900000		0.97832	-38.1832
4307850000		0.97525	-39.454
4407800000		0.9722	-40.7552
4507750000		0.96896	-42.0389
4607700000		0.96589	-43.3651
4707650000		0.96256	-44.6408
4807600000		0.95971	-46.0119
4907550000		0.95673	-47.3414
5007500000		0.95415	-48.6924
5107450000		0.95132	-50.0847
5207400000		0.94919	-51.4972
5307350000		0.9465	-52.9329
5407300000		0.94432	-54.4098
5507250000		0.94184	-55.9331
5607200000		0.93975	-57.4886
5707150000		0.93729	-59.0904
5807100000		0.93475	-60.7455
5907050000		0.93236	-62.449
6007000000		0.92931	-64.21
6106950000		0.92656	-66.0157
6206900000		0.92315	-67.8333
6306850000		0.91997	-69.7624
6406800000		0.91627	-71.6423
6506750000		0.91257	-73.6305
6606700000		0.90854	-75.6242
6706650000		0.90499	-77.6808
6806600000		0.90134	-79.7257
6906550000		0.89817	-81.877
7006500000		0.89535	-84.0329
7106450000		0.89281	-86.2869
7206400000		0.89007	-88.633
7306350000		0.88779	-90.9787
7406300000		0.88462	-93.4263
7506250000		0.88288	-95.8957
7606200000		0.88019	-98.4629
7706150000		0.8785	-101.0409
7806100000		0.87567	-103.7758
7906050000		0.87399	-106.5105
!
!				Infineon Technologies AG
