! Infineon Technologies  Discrete & RF Semiconductors
! BAT15-03W-E6327
! VCA = 0.1 V
! One-Port S-Parameters
# Hz  S  MA  R  50
!f									S11
!Hz							Mag  Ang
309850000		0.99957	-2.3967
409800000		0.99923	-3.1669
509750000		0.99933	-3.9143
609700000		0.99931	-4.6991
709650000		0.99954	-5.4797
809600000		0.99899	-6.2941
909550000		0.9992	-7.0849
1009500000		0.99884	-7.9313
1109450000		0.99922	-8.7818
1209400000		0.99844	-9.639
1309350000		0.9981	-10.4933
1409300000		0.99744	-11.3732
1509250000		0.99679	-12.2473
1609200000		0.99581	-13.1445
1709150000		0.99488	-14.016
1809100000		0.99383	-14.9233
1909050000		0.9927	-15.8302
2009000000		0.99151	-16.7451
2108950000		0.99031	-17.6674
2208900000		0.98941	-18.5853
2308850000		0.98862	-19.5317
2408800000		0.98795	-20.4412
2508750000		0.98815	-21.4224
2608700000		0.98801	-22.4463
2708650000		0.98808	-23.5106
2808600000		0.98783	-24.4994
2908550000		0.98805	-25.6247
3008500000		0.98812	-26.7578
3108450000		0.98894	-27.9188
3208400000		0.98866	-29.1474
3308350000		0.98848	-30.4131
3408300000		0.98832	-31.6684
3508250000		0.98812	-32.9987
3608200000		0.98693	-34.3367
3708150000		0.98558	-35.6822
3808100000		0.98381	-37.099
3908050000		0.98167	-38.4823
4008000000		0.97951	-39.8955
4107950000		0.97662	-41.3123
4207900000		0.97391	-42.7543
4307850000		0.97055	-44.1897
4407800000		0.96719	-45.6708
4507750000		0.96373	-47.1321
4607700000		0.9604	-48.6422
4707650000		0.95675	-50.1112
4807600000		0.95363	-51.6839
4907550000		0.95031	-53.2158
5007500000		0.94746	-54.7845
5107450000		0.9443	-56.4025
5207400000		0.94189	-58.047
5307350000		0.93873	-59.7179
5407300000		0.93613	-61.4484
5507250000		0.93313	-63.2329
5607200000		0.93049	-65.0606
5707150000		0.9274	-66.9435
5807100000		0.92424	-68.8804
5907050000		0.921	-70.878
6007000000		0.91707	-72.9427
6106950000		0.9134	-75.0469
6206900000		0.90895	-77.1786
6306850000		0.90465	-79.4143
6406800000		0.89989	-81.6093
6506750000		0.89504	-83.9151
6606700000		0.8899	-86.2147
6706650000		0.88539	-88.5886
6806600000		0.88078	-90.9419
6906550000		0.87678	-93.4214
7006500000		0.87306	-95.8891
7106450000		0.86977	-98.4673
7206400000		0.86634	-101.1189
7306350000		0.86336	-103.7825
7406300000		0.85989	-106.5502
7506250000		0.8577	-109.3226
7606200000		0.85489	-112.2045
7706150000		0.85302	-115.0992
7806100000		0.85035	-118.1636
7906050000		0.8487	-121.1912
!
!				Infineon Technologies AG
