! Infineon Technologies  Discrete & RF Semiconductors
! BAT15-03W-E6327
! IAC = 0.04 mA
! One-Port S-Parameters
# Hz  S  MA  R  50
!f									S11
!Hz							Mag  Ang
309850000		0.90609	-2.561
409800000		0.90639	-3.3805
509750000		0.906	-4.1868
609700000		0.90654	-5.05
709650000		0.90761	-5.9417
809600000		0.90394	-6.8443
909550000		0.90413	-7.7618
1009500000		0.90434	-8.7153
1109450000		0.90645	-9.5912
1209400000		0.90366	-10.5601
1309350000		0.90211	-11.522
1409300000		0.90014	-12.5039
1509250000		0.89886	-13.4043
1609200000		0.8977	-14.4213
1709150000		0.89957	-15.3475
1809100000		0.8971	-16.3444
1909050000		0.89487	-17.2821
2009000000		0.89137	-18.3612
2108950000		0.89244	-19.4085
2208900000		0.88884	-20.4483
2308850000		0.88598	-21.4486
2408800000		0.88174	-22.5524
2508750000		0.88519	-23.6207
2608700000		0.88446	-24.8053
2708650000		0.88305	-25.9473
2808600000		0.88351	-27.1146
2908550000		0.88184	-28.3266
3008500000		0.8824	-29.4372
3108450000		0.88073	-30.7544
3208400000		0.88282	-32.105
3308350000		0.87931	-33.5603
3408300000		0.87478	-34.9663
3508250000		0.87276	-36.454
3608200000		0.87471	-37.8595
3708150000		0.87196	-39.3713
3808100000		0.866	-40.9352
3908050000		0.8591	-42.4831
4008000000		0.85738	-44.0545
4107950000		0.85455	-45.6407
4207900000		0.85409	-47.1681
4307850000		0.84892	-48.7067
4407800000		0.84605	-50.3919
4507750000		0.83947	-52.0426
4607700000		0.83456	-53.7065
4707650000		0.82922	-55.3313
4807600000		0.82008	-57.1238
4907550000		0.81413	-58.8586
5007500000		0.80877	-60.6398
5107450000		0.80852	-62.3442
5207400000		0.80372	-64.1821
5307350000		0.79775	-66.0687
5407300000		0.79164	-68.0349
5507250000		0.79109	-69.8654
5607200000		0.78942	-71.7895
5707150000		0.7853	-73.8004
5807100000		0.77904	-75.9815
5907050000		0.77564	-78.1453
6007000000		0.77108	-80.3952
6106950000		0.76703	-82.6914
6206900000		0.76274	-85.0066
6306850000		0.76036	-87.4342
6406800000		0.75508	-89.9375
6506750000		0.75356	-92.4811
6606700000		0.74817	-95.1571
6706650000		0.7435	-97.9263
6806600000		0.7382	-100.7578
6906550000		0.73751	-103.5589
7006500000		0.73708	-106.367
7106450000		0.73125	-109.5244
7206400000		0.72696	-112.7512
7306350000		0.72666	-115.7654
7406300000		0.72616	-118.905
7506250000		0.7235	-122.2077
7606200000		0.71978	-125.6444
7706150000		0.71553	-129.1325
7806100000		0.71667	-132.4773
7906050000		0.71326	-136.0715
!
!				Infineon Technologies AG
