! Infineon Technologies  Discrete & RF Semiconductors
! BAT15-03W-E6327
! VCA = 0.7 V
! One-Port S-Parameters
# Hz  S  MA  R  50
!f									S11
!Hz							Mag  Ang
309850000		0.99967	-2.1869
409800000		0.99929	-2.8905
509750000		0.9995	-3.5707
609700000		0.99942	-4.283
709650000		0.9997	-4.9974
809600000		0.99916	-5.7448
909550000		0.99943	-6.4643
1009500000		0.99905	-7.2403
1109450000		0.99946	-8.0181
1209400000		0.99869	-8.8064
1309350000		0.99847	-9.5862
1409300000		0.99784	-10.3929
1509250000		0.99721	-11.1901
1609200000		0.99628	-12.0104
1709150000		0.9954	-12.801
1809100000		0.99429	-13.6306
1909050000		0.99333	-14.4565
2009000000		0.99222	-15.2882
2108950000		0.99096	-16.1275
2208900000		0.99012	-16.9565
2308850000		0.98939	-17.816
2408800000		0.98871	-18.6362
2508750000		0.98901	-19.5222
2608700000		0.98888	-20.4502
2708650000		0.989	-21.4181
2808600000		0.9891	-22.3337
2908550000		0.98921	-23.32
3008500000		0.9894	-24.341
3108450000		0.99012	-25.3597
3208400000		0.99023	-26.5097
3308350000		0.99013	-27.6578
3408300000		0.99023	-28.7947
3508250000		0.99022	-30.0018
3608200000		0.98924	-31.2163
3708150000		0.98814	-32.4354
3808100000		0.98661	-33.7203
3908050000		0.98465	-34.9744
4008000000		0.98282	-36.2565
4107950000		0.98013	-37.5328
4207900000		0.9778	-38.83
4307850000		0.97467	-40.1224
4407800000		0.97154	-41.45
4507750000		0.96827	-42.7563
4607700000		0.9652	-44.1066
4707650000		0.96176	-45.4118
4807600000		0.95889	-46.8122
4907550000		0.95586	-48.1682
5007500000		0.95322	-49.5528
5107450000		0.95032	-50.9744
5207400000		0.94816	-52.4198
5307350000		0.94548	-53.8876
5407300000		0.94319	-55.3977
5507250000		0.94057	-56.9598
5607200000		0.93847	-58.5546
5707150000		0.93594	-60.1964
5807100000		0.93327	-61.8899
5907050000		0.93077	-63.6339
6007000000		0.92766	-65.4383
6106950000		0.92479	-67.2869
6206900000		0.92123	-69.1479
6306850000		0.91778	-71.1188
6406800000		0.91394	-73.0433
6506750000		0.91013	-75.0745
6606700000		0.90595	-77.1135
6706650000		0.90227	-79.2129
6806600000		0.89845	-81.3072
6906550000		0.89522	-83.5053
7006500000		0.89227	-85.7045
7106450000		0.88959	-88.0058
7206400000		0.88676	-90.3991
7306350000		0.88439	-92.7894
7406300000		0.88117	-95.2859
7506250000		0.87935	-97.7994
7606200000		0.87665	-100.4172
7706150000		0.87489	-103.0448
7806100000		0.87215	-105.8303
7906050000		0.87043	-108.6134
!
!				Infineon Technologies AG
