! Infineon Technologies  Discrete & RF Semiconductors
! BAT15-03W-E6327
! VCA = 0.8 V
! One-Port S-Parameters
# Hz  S  MA  R  50
!f									S11
!Hz							Mag  Ang
309850000		0.99969	-2.1675
409800000		0.99933	-2.8649
509750000		0.99957	-3.5377
609700000		0.99947	-4.248
709650000		0.99974	-4.9513
809600000		0.9992	-5.6921
909550000		0.99948	-6.4065
1009500000		0.99912	-7.18
1109450000		0.99949	-7.9495
1209400000		0.99871	-8.7318
1309350000		0.99847	-9.5061
1409300000		0.99781	-10.3047
1509250000		0.99727	-11.0956
1609200000		0.99632	-11.9102
1709150000		0.99548	-12.6933
1809100000		0.99439	-13.5134
1909050000		0.99334	-14.3359
2009000000		0.99221	-15.1581
2108950000		0.99103	-15.9896
2208900000		0.99019	-16.8137
2308850000		0.98944	-17.662
2408800000		0.98857	-18.4372
2508750000		0.98912	-19.3542
2608700000		0.98899	-20.2757
2708650000		0.9891	-21.2305
2808600000		0.98918	-22.1389
2908550000		0.9893	-23.1169
3008500000		0.98953	-24.1294
3108450000		0.99022	-25.1361
3208400000		0.99029	-26.2765
3308350000		0.9903	-27.4161
3408300000		0.99037	-28.5432
3508250000		0.99036	-29.7383
3608200000		0.98943	-30.9418
3708150000		0.98836	-32.1519
3808100000		0.98683	-33.4247
3908050000		0.98494	-34.6662
4008000000		0.98313	-35.9347
4107950000		0.9804	-37.2022
4207900000		0.97809	-38.4847
4307850000		0.975	-39.7645
4407800000		0.97193	-41.0769
4507750000		0.96868	-42.3735
4607700000		0.96558	-43.7102
4707650000		0.96221	-44.9994
4807600000		0.95934	-46.3854
4907550000		0.9564	-47.7263
5007500000		0.95372	-49.0934
5107450000		0.95089	-50.5006
5207400000		0.94874	-51.9274
5307350000		0.94599	-53.3782
5407300000		0.94379	-54.8707
5507250000		0.94127	-56.4136
5607200000		0.93919	-57.9868
5707150000		0.93667	-59.6089
5807100000		0.93408	-61.2808
5907050000		0.93167	-63.0027
6007000000		0.92858	-64.7846
6106950000		0.92576	-66.6087
6206900000		0.92227	-68.4455
6306850000		0.91897	-70.3953
6406800000		0.91523	-72.2964
6506750000		0.91147	-74.3063
6606700000		0.90733	-76.3188
6706650000		0.90374	-78.3966
6806600000		0.90004	-80.4646
6906550000		0.8968	-82.6388
7006500000		0.89392	-84.8141
7106450000		0.89129	-87.0901
7206400000		0.88852	-89.458
7306350000		0.88619	-91.8239
7406300000		0.88304	-94.2982
7506250000		0.88129	-96.7863
7606200000		0.87854	-99.3763
7706150000		0.87681	-101.9783
7806100000		0.87406	-104.7375
7906050000		0.87234	-107.4946
!
!				Infineon Technologies AG
