! Infineon Technologies  Discrete & RF Semiconductors
! BAT15-03W-E6327
! IAC = 0.09 mA
! One-Port S-Parameters
# Hz  S  MA  R  50
!f									S11
!Hz							Mag  Ang
309850000		0.79868	-2.4173
409800000		0.79955	-3.2601
509750000		0.79876	-4.0426
609700000		0.79949	-4.9128
709650000		0.80149	-5.842
809600000		0.7952	-6.7436
909550000		0.79541	-7.698
1009500000		0.79616	-8.6555
1109450000		0.79982	-9.5237
1209400000		0.79452	-10.4205
1309350000		0.79224	-11.4278
1409300000		0.78992	-12.3962
1509250000		0.78768	-13.3431
1609200000		0.78599	-14.328
1709150000		0.7901	-15.2004
1809100000		0.78745	-16.2321
1909050000		0.78351	-17.1726
2009000000		0.77712	-18.2753
2108950000		0.78046	-19.3225
2208900000		0.77536	-20.4276
2308850000		0.77057	-21.4554
2408800000		0.763	-22.4941
2508750000		0.76906	-23.5944
2608700000		0.76791	-24.8055
2708650000		0.76548	-25.9529
2808600000		0.76581	-27.2048
2908550000		0.76303	-28.4142
3008500000		0.76362	-29.3848
3108450000		0.76017	-30.7048
3208400000		0.76335	-32.145
3308350000		0.758	-33.6715
3408300000		0.74975	-35.0684
3508250000		0.74636	-36.5876
3608200000		0.75009	-37.9632
3708150000		0.74663	-39.6225
3808100000		0.7379	-41.1273
3908050000		0.72803	-42.7151
4008000000		0.72621	-44.2591
4107950000		0.72283	-45.9726
4207900000		0.72451	-47.5823
4307850000		0.7186	-49.1686
4407800000		0.71545	-51.0154
4507750000		0.70691	-52.6368
4607700000		0.70049	-54.3503
4707650000		0.69429	-55.992
4807600000		0.68087	-57.7225
4907550000		0.67334	-59.4973
5007500000		0.66617	-61.3753
5107450000		0.66641	-63.2474
5207400000		0.66091	-65.2094
5307350000		0.65357	-67.207
5407300000		0.64477	-69.2511
5507250000		0.64464	-71.2186
5607200000		0.64227	-73.28
5707150000		0.63634	-75.4391
5807100000		0.62762	-77.6704
5907050000		0.62285	-79.9507
6007000000		0.61701	-82.2688
6106950000		0.6116	-84.6096
6206900000		0.60597	-86.9925
6306850000		0.60325	-89.5661
6406800000		0.59568	-92.1434
6506750000		0.59413	-94.8889
6606700000		0.58686	-97.7377
6706650000		0.58022	-100.6567
6806600000		0.57339	-103.6427
6906550000		0.57202	-106.66
7006500000		0.57205	-109.6827
7106450000		0.56448	-112.9744
7206400000		0.55876	-116.4704
7306350000		0.5592	-119.7056
7406300000		0.55854	-123.1118
7506250000		0.55614	-126.5957
7606200000		0.55195	-130.2912
7706150000		0.54642	-134.0455
7806100000		0.5503	-137.6003
7906050000		0.54677	-141.4049
!
!				Infineon Technologies AG
