! Infineon Technologies  Discrete & RF Semiconductors
! BAT15-03W-E6327
! VCA = 0.3 V
! One-Port S-Parameters
# Hz  S  MA  R  50
!f									S11
!Hz							Mag  Ang
309850000		0.99957	-2.2949
409800000		0.99922	-3.0336
509750000		0.99942	-3.7471
609700000		0.99934	-4.4986
709650000		0.99953	-5.247
809600000		0.99904	-6.0291
909550000		0.9993	-6.7837
1009500000		0.99889	-7.5975
1109450000		0.99928	-8.4142
1209400000		0.99852	-9.2373
1309350000		0.99826	-10.0547
1409300000		0.99751	-10.9001
1509250000		0.99696	-11.7391
1609200000		0.99596	-12.5981
1709150000		0.99511	-13.4289
1809100000		0.99399	-14.2978
1909050000		0.99292	-15.1674
2009000000		0.99177	-16.0402
2108950000		0.99058	-16.9222
2208900000		0.98971	-17.7983
2308850000		0.98889	-18.7029
2408800000		0.98803	-19.5288
2508750000		0.98852	-20.5056
2608700000		0.98838	-21.4822
2708650000		0.98849	-22.4978
2808600000		0.98855	-23.4704
2908550000		0.98858	-24.5103
3008500000		0.98867	-25.5896
3108450000		0.98959	-26.6989
3208400000		0.98938	-27.8722
3308350000		0.98924	-29.0782
3408300000		0.98924	-30.2802
3508250000		0.9891	-31.5506
3608200000		0.98807	-32.8276
3708150000		0.98677	-34.1119
3808100000		0.98515	-35.4648
3908050000		0.98291	-36.7538
4008000000		0.98112	-38.1363
4107950000		0.97828	-39.4836
4207900000		0.97581	-40.855
4307850000		0.97258	-42.2218
4407800000		0.96932	-43.6247
4507750000		0.96596	-45.0154
4607700000		0.96271	-46.4467
4707650000		0.95922	-47.8375
4807600000		0.95627	-49.3244
4907550000		0.95308	-50.7726
5007500000		0.95027	-52.2496
5107450000		0.94726	-53.7706
5207400000		0.9449	-55.3162
5307350000		0.94195	-56.8928
5407300000		0.93958	-58.515
5507250000		0.93679	-60.1904
5607200000		0.9344	-61.9021
5707150000		0.93159	-63.6674
5807100000		0.92865	-65.4881
5907050000		0.92582	-67.359
6007000000		0.92226	-69.2994
6106950000		0.919	-71.2794
6206900000		0.91499	-73.2803
6306850000		0.91111	-75.385
6406800000		0.90677	-77.4515
6506750000		0.90247	-79.6219
6606700000		0.89778	-81.7975
6706650000		0.89369	-84.0387
6806600000		0.88943	-86.2667
6906550000		0.88584	-88.6132
7006500000		0.88252	-90.9506
7106450000		0.87953	-93.403
7206400000		0.8764	-95.9342
7306350000		0.87368	-98.4656
7406300000		0.87034	-101.1094
7506250000		0.86833	-103.7635
7606200000		0.86555	-106.5224
7706150000		0.8637	-109.2967
7806100000		0.86101	-112.2335
7906050000		0.85925	-115.1519
!
!				Infineon Technologies AG
