! Infineon Technologies  Discrete & RF Semiconductors
! BAT17-04W
! VCA = 0.2 V
! One-Port S-Parameters
# Hz  S  MA  R  50
!f									S11
!Hz							Mag  Ang
309850000		0.99903	-5.6293
409800000		0.99856	-7.451
509750000		0.99797	-9.2736
609700000		0.9973	-11.1028
709650000		0.99654	-12.9343
809600000		0.99581	-14.772
909550000		0.99503	-16.621
1009500000		0.9942	-18.4831
1109450000		0.99339	-20.357
1209400000		0.99266	-22.2467
1309350000		0.99182	-24.1587
1409300000		0.99106	-26.0949
1509250000		0.99022	-28.0482
1609200000		0.98949	-30.0348
1709150000		0.98868	-32.0509
1809100000		0.98776	-34.0912
1909050000		0.98671	-36.1534
2009000000		0.98555	-38.2403
2108950000		0.98458	-40.389
2208900000		0.98325	-42.4958
2308850000		0.98198	-44.6583
2408800000		0.98067	-46.8429
2508750000		0.9793	-49.0578
2608700000		0.978	-51.3008
2708650000		0.97703	-53.5742
2808600000		0.97521	-55.8742
2908550000		0.97365	-58.1802
3008500000		0.97192	-60.5312
3108450000		0.97039	-62.8869
3208400000		0.96879	-65.2802
3308350000		0.96718	-67.6793
3408300000		0.9657	-70.1152
3508250000		0.96439	-72.5849
3608200000		0.96234	-75.041
3708150000		0.96066	-77.531
3808100000		0.95897	-80.0481
3908050000		0.95735	-82.5801
4008000000		0.95563	-85.1389
4107950000		0.95373	-87.716
4207900000		0.95186	-90.3119
4307850000		0.94993	-92.9223
4407800000		0.94813	-95.5481
4507750000		0.94645	-98.1883
4607700000		0.94484	-100.8633
4707650000		0.94317	-103.554
4807600000		0.94176	-106.2797
4907550000		0.94029	-109.0327
5007500000		0.93898	-111.8143
5107450000		0.93751	-114.626
5207400000		0.93629	-117.4525
5307350000		0.93491	-120.3243
5407300000		0.93357	-123.2227
5507250000		0.93211	-126.1507
5607200000		0.93063	-129.1064
5707150000		0.92904	-132.0865
5807100000		0.92723	-135.0917
5907050000		0.92521	-138.1146
6007000000		0.92314	-141.1472
6106950000		0.92086	-144.1873
6206900000		0.91852	-147.2211
6306850000		0.91614	-150.2571
6406800000		0.91372	-153.281
6506750000		0.91137	-156.2954
6606700000		0.90891	-159.288
6706650000		0.90689	-162.2845
6806600000		0.90461	-165.264
6906550000		0.90276	-168.2369
7006500000		0.90073	-171.2029
7106450000		0.89917	-174.1748
7206400000		0.89685	-177.143
7306350000		0.89455	179.8543
!
!				Infineon Technologies AG
