! Infineon Technologies  Discrete & RF Semiconductors
! BAT17-04W
! IAC = 0.8 mA
! One-Port S-Parameters
# Hz  S  MA  R  50
!f									S11
!Hz							Mag  Ang
309850000		0.08904	-178.1461
409800000		0.09209	-177.9108
509750000		0.09382	-176.7736
609700000		0.09685	-175.9538
709650000		0.09691	-173.8204
809600000		0.09967	-172.5982
909550000		0.10356	-170.8619
1009500000		0.10919	-171.2462
1109450000		0.11244	-170.6175
1209400000		0.11738	-171.8811
1309350000		0.1223	-170.9223
1409300000		0.1274	-170.9818
1509250000		0.13544	-171.718
1609200000		0.14124	-172.1529
1709150000		0.14481	-172.7929
1809100000		0.15297	-173.2964
1909050000		0.16059	-174.7407
2009000000		0.16844	-175.7172
2108950000		0.17468	-175.7647
2208900000		0.18159	-176.3142
2308850000		0.18935	-177.3272
2408800000		0.19458	-177.7335
2508750000		0.20123	-178.452
2608700000		0.20962	-179.3471
2708650000		0.21682	179.4763
2808600000		0.2261	178.5384
2908550000		0.23363	177.4151
3008500000		0.24049	175.2603
3108450000		0.24845	174.2719
3208400000		0.25726	172.8721
3308350000		0.26559	172.0516
3408300000		0.27402	170.6415
3508250000		0.28262	169.3972
3608200000		0.29103	167.5487
3708150000		0.29991	166.2838
3808100000		0.3074	165.1296
3908050000		0.31549	163.7962
4008000000		0.32422	162.0615
4107950000		0.33279	160.629
4207900000		0.34099	159.4949
4307850000		0.3487	158.2332
4407800000		0.35795	156.5343
4507750000		0.36604	155.1347
4607700000		0.37433	153.5819
4707650000		0.38215	152.3307
4807600000		0.39005	150.881
4907550000		0.39828	149.5412
5007500000		0.40685	148.0367
5107450000		0.41557	146.1481
5207400000		0.4238	144.9385
5307350000		0.4321	143.6422
5407300000		0.44027	142.17
5507250000		0.44857	140.432
5607200000		0.45694	138.834
5707150000		0.46519	137.3504
5807100000		0.47325	135.9843
5907050000		0.48133	134.4053
6007000000		0.48928	133.1158
6106950000		0.49705	131.7669
6206900000		0.50484	130.3298
6306850000		0.51265	128.9492
6406800000		0.52035	127.5348
6506750000		0.5283	126.1536
6606700000		0.53608	124.7724
6706650000		0.54401	123.39
6806600000		0.55178	122.1086
6906550000		0.55957	120.616
7006500000		0.56748	119.332
7106450000		0.57526	118.049
7206400000		0.58285	116.6435
7306350000		0.59006	115.1939
!
!				Infineon Technologies AG
