! Infineon Technologies  Discrete & RF Semiconductors
! BAT17-04W
! IAC = 0.4 mA
! One-Port S-Parameters
# Hz  S  MA  R  50
!f									S11
!Hz							Mag  Ang
309850000		0.28615	-9.4795
409800000		0.28456	-12.3614
509750000		0.28448	-15.6175
609700000		0.28328	-19.0119
709650000		0.28745	-22.5646
809600000		0.28292	-26.1938
909550000		0.28535	-30.1384
1009500000		0.28482	-33.4229
1109450000		0.28859	-36.7154
1209400000		0.28227	-39.6732
1309350000		0.2822	-43.8944
1409300000		0.28173	-47.6009
1509250000		0.27797	-51.864
1609200000		0.27875	-55.6426
1709150000		0.28645	-58.1537
1809100000		0.2859	-62.6874
1909050000		0.28095	-66.6975
2009000000		0.27699	-71.1345
2108950000		0.28549	-74.8737
2208900000		0.28643	-78.9962
2308850000		0.28714	-83.1111
2408800000		0.29004	-86.6774
2508750000		0.29518	-90.2155
2608700000		0.29956	-94.304
2708650000		0.30125	-98.2079
2808600000		0.30949	-102.0535
2908550000		0.31194	-105.9586
3008500000		0.31114	-109.6654
3108450000		0.3166	-113.4579
3208400000		0.32374	-116.8824
3308350000		0.33099	-120.535
3408300000		0.33427	-124.3819
3508250000		0.34038	-128.0545
3608200000		0.34531	-131.4685
3708150000		0.35124	-135.1888
3808100000		0.35702	-138.498
3908050000		0.36226	-141.9857
4008000000		0.36682	-145.6414
4107950000		0.37389	-148.8961
4207900000		0.38433	-151.569
4307850000		0.393	-154.2388
4407800000		0.39832	-157.866
4507750000		0.40478	-160.9341
4607700000		0.41174	-163.9908
4707650000		0.42216	-166.3474
4807600000		0.4289	-169.2823
4907550000		0.43779	-171.9301
5007500000		0.44514	-174.9445
5107450000		0.45147	-178.0122
5207400000		0.46121	179.478
5307350000		0.47078	176.9892
5407300000		0.47913	174.3749
5507250000		0.48575	171.4951
5607200000		0.49358	168.8491
5707150000		0.50199	166.3484
5807100000		0.51078	163.9756
5907050000		0.51786	161.3387
6007000000		0.52712	159.1518
6106950000		0.5358	156.9524
6206900000		0.54384	154.6817
6306850000		0.55148	152.3623
6406800000		0.559	150.0899
6506750000		0.56709	147.9223
6606700000		0.57481	145.7608
6706650000		0.58252	143.597
6806600000		0.59089	141.6077
6906550000		0.59791	139.41
7006500000		0.60658	137.5011
7106450000		0.61495	135.5609
7206400000		0.6226	133.5553
7306350000		0.62961	131.4985
!
!				Infineon Technologies AG
