! Infineon Technologies  Discrete & RF Semiconductors
! BAT17-04W
! IAC = 0.3 mA
! One-Port S-Parameters
# Hz  S  MA  R  50
!f									S11
!Hz							Mag  Ang
309850000		0.4233	-8.5892
409800000		0.42242	-11.2986
509750000		0.42207	-14.1913
609700000		0.42109	-17.1896
709650000		0.42502	-20.3121
809600000		0.41838	-23.4773
909550000		0.42045	-26.8636
1009500000		0.42075	-29.7404
1109450000		0.42478	-32.699
1209400000		0.41722	-35.392
1309350000		0.41567	-38.9844
1409300000		0.41394	-42.2341
1509250000		0.40923	-45.8008
1609200000		0.40911	-49.1538
1709150000		0.41872	-51.6157
1809100000		0.41659	-55.4537
1909050000		0.40981	-58.8722
2009000000		0.40296	-62.6116
2108950000		0.41133	-66.0513
2208900000		0.40968	-69.6856
2308850000		0.40816	-73.2715
2408800000		0.40849	-76.7092
2508750000		0.41235	-79.9866
2608700000		0.41461	-83.6695
2708650000		0.41369	-87.3139
2808600000		0.42094	-90.8653
2908550000		0.42035	-94.6056
3008500000		0.41765	-97.9543
3108450000		0.42034	-101.5877
3208400000		0.42695	-104.9076
3308350000		0.43138	-108.538
3408300000		0.43131	-112.168
3508250000		0.43483	-115.8769
3608200000		0.43863	-119.1938
3708150000		0.4413	-122.9091
3808100000		0.44406	-126.3122
3908050000		0.4463	-129.9138
4008000000		0.44796	-133.5762
4107950000		0.45284	-136.9457
4207900000		0.46226	-139.8343
4307850000		0.46992	-142.7536
4407800000		0.47187	-146.4305
4507750000		0.47578	-149.7526
4607700000		0.48073	-152.9803
4707650000		0.49095	-155.5883
4807600000		0.4954	-158.7672
4907550000		0.50283	-161.6818
5007500000		0.5079	-164.9317
5107450000		0.51247	-168.1313
5207400000		0.52067	-170.96
5307350000		0.52895	-173.7409
5407300000		0.53588	-176.6087
5507250000		0.54067	-179.694
5607200000		0.547	177.4287
5707150000		0.55425	174.6983
5807100000		0.56188	172.0538
5907050000		0.56716	169.1729
6007000000		0.5755	166.7178
6106950000		0.58328	164.2685
6206900000		0.59029	161.7672
6306850000		0.5964	159.1893
6406800000		0.60263	156.6873
6506750000		0.60966	154.2957
6606700000		0.61624	151.9162
6706650000		0.62273	149.5324
6806600000		0.63015	147.327
6906550000		0.63602	144.9416
7006500000		0.64399	142.8332
7106450000		0.65142	140.6907
7206400000		0.65823	138.5143
7306350000		0.66427	136.2749
!
!				Infineon Technologies AG
