! Infineon Technologies  Discrete & RF Semiconductors
! BAT17-04W
! IAC = 2 mA
! One-Port S-Parameters
# Hz  S  MA  R  50
!f									S11
!Hz							Mag  Ang
309850000		0.50084	175.1403
409800000		0.50123	173.703
509750000		0.50133	172.3146
609700000		0.50166	170.9037
709650000		0.50122	169.6111
809600000		0.50093	168.2749
909550000		0.50203	166.972
1009500000		0.50369	165.612
1109450000		0.50488	164.2867
1209400000		0.50606	162.9419
1309350000		0.50665	161.6643
1409300000		0.50796	160.3777
1509250000		0.50981	159.1035
1609200000		0.51155	157.8329
1709150000		0.51381	156.5057
1809100000		0.51575	155.2956
1909050000		0.51747	154.1189
2009000000		0.51921	152.9215
2108950000		0.52136	151.7329
2208900000		0.52284	150.6005
2308850000		0.52474	149.5039
2408800000		0.52615	148.3575
2508750000		0.52805	147.3031
2608700000		0.53061	146.1752
2708650000		0.53273	145.0475
2808600000		0.53594	143.9507
2908550000		0.5379	142.9014
3008500000		0.54094	141.6972
3108450000		0.54324	140.6355
3208400000		0.54654	139.5519
3308350000		0.54867	138.5262
3408300000		0.55125	137.4794
3508250000		0.55385	136.4118
3608200000		0.55743	135.3064
3708150000		0.55999	134.2696
3808100000		0.56214	133.2415
3908050000		0.56455	132.2098
4008000000		0.56785	131.1297
4107950000		0.57081	130.0701
4207900000		0.57378	129.017
4307850000		0.57662	127.9554
4407800000		0.58	126.8958
4507750000		0.58293	125.8487
4607700000		0.58639	124.7573
4707650000		0.58955	123.6638
4807600000		0.59231	122.601
4907550000		0.5953	121.55
5007500000		0.59848	120.486
5107450000		0.60259	119.3599
5207400000		0.60531	118.3154
5307350000		0.60828	117.2801
5407300000		0.61142	116.2065
5507250000		0.61498	115.1345
5607200000		0.61845	114.0774
5707150000		0.62202	113.0518
5807100000		0.62544	112.0291
5907050000		0.62904	111.007
6007000000		0.63228	110.006
6106950000		0.63571	109.0184
6206900000		0.63924	108.0163
6306850000		0.6426	107.055
6406800000		0.64617	106.0922
6506750000		0.64996	105.1321
6606700000		0.65375	104.1738
6706650000		0.65776	103.2263
6806600000		0.66154	102.2831
6906550000		0.66586	101.29
7006500000		0.6699	100.324
7106450000		0.67374	99.3568
7206400000		0.67787	98.3434
7306350000		0.68157	97.292
!
!				Infineon Technologies AG
