! Infineon Technologies  Discrete & RF Semiconductors
! BAT17-04W
! IAC = 0.06 mA
! One-Port S-Parameters
# Hz  S  MA  R  50
!f									S11
!Hz							Mag  Ang
309850000		0.85958	-7.5866
409800000		0.85947	-10.0336
509750000		0.85834	-12.5119
609700000		0.85801	-15.0033
709650000		0.85915	-17.5272
809600000		0.85383	-20.1204
909550000		0.85363	-22.7025
1009500000		0.85475	-25.2032
1109450000		0.85616	-27.7128
1209400000		0.85139	-30.3336
1309350000		0.84918	-33.0125
1409300000		0.84667	-35.7018
1509250000		0.84415	-38.4256
1609200000		0.84271	-41.1405
1709150000		0.84798	-43.5979
1809100000		0.84563	-46.4416
1909050000		0.84113	-49.3317
2009000000		0.83563	-52.3205
2108950000		0.83848	-55.0354
2208900000		0.83516	-58.0068
2308850000		0.83228	-60.9445
2408800000		0.82849	-64.0242
2508750000		0.8287	-66.8739
2608700000		0.8277	-69.8751
2708650000		0.82416	-72.9982
2808600000		0.8265	-75.8523
2908550000		0.82222	-79.0422
3008500000		0.81876	-82.0676
3108450000		0.81652	-85.2234
3208400000		0.81907	-88.0824
3308350000		0.81743	-91.2425
3408300000		0.81368	-94.5017
3508250000		0.81206	-97.7056
3608200000		0.81229	-100.6739
3708150000		0.80969	-103.9506
3808100000		0.80653	-107.2423
3908050000		0.8033	-110.5656
4008000000		0.80022	-113.8888
4107950000		0.7994	-117.0519
4207900000		0.80179	-119.9621
4307850000		0.803	-122.9141
4407800000		0.79966	-126.3148
4507750000		0.79715	-129.6335
4607700000		0.79645	-132.8192
4707650000		0.80017	-135.5996
4807600000		0.79853	-138.8984
4907550000		0.79928	-141.9895
5007500000		0.79809	-145.3046
5107450000		0.798	-148.4811
5207400000		0.79883	-151.597
5307350000		0.80012	-154.6473
5407300000		0.80076	-157.7607
5507250000		0.80004	-161.0004
5607200000		0.80038	-164.1207
5707150000		0.80161	-167.1098
5807100000		0.80245	-170.1218
5907050000		0.80164	-173.2964
6007000000		0.80315	-176.1661
6106950000		0.80448	-179.0003
6206900000		0.80542	178.1462
6306850000		0.80505	175.158
6406800000		0.80526	172.2826
6506750000		0.80637	169.5297
6606700000		0.80718	166.7857
6706650000		0.80804	164.0198
6806600000		0.80965	161.4127
6906550000		0.8106	158.6953
7006500000		0.81302	156.2089
7106450000		0.81508	153.6577
7206400000		0.81683	151.1452
7306350000		0.81787	148.5484
!
!				Infineon Technologies AG
