! Infineon Technologies  Discrete & RF Semiconductors
! BAT17-04W
! VCA = 0.5 V
! One-Port S-Parameters
# Hz  S  MA  R  50
!f									S11
!Hz							Mag  Ang
309850000		0.99902	-5.1433
409800000		0.99857	-6.8067
509750000		0.99797	-8.4713
609700000		0.99741	-10.1414
709650000		0.99666	-11.8128
809600000		0.99598	-13.4859
909550000		0.99519	-15.1762
1009500000		0.99452	-16.8728
1109450000		0.99376	-18.5823
1209400000		0.99302	-20.3027
1309350000		0.99231	-22.0471
1409300000		0.99166	-23.8169
1509250000		0.99096	-25.5954
1609200000		0.99036	-27.4095
1709150000		0.98961	-29.2461
1809100000		0.98875	-31.1082
1909050000		0.98789	-32.9949
2009000000		0.98682	-34.8997
2108950000		0.98606	-36.8643
2208900000		0.98483	-38.7855
2308850000		0.98365	-40.7625
2408800000		0.9825	-42.7614
2508750000		0.98135	-44.7842
2608700000		0.98019	-46.8414
2708650000		0.97941	-48.9236
2808600000		0.97774	-51.0299
2908550000		0.97616	-53.1116
3008500000		0.97491	-55.3026
3108450000		0.9735	-57.4701
3208400000		0.97209	-59.6684
3308350000		0.97062	-61.8765
3408300000		0.96928	-64.116
3508250000		0.96816	-66.395
3608200000		0.96625	-68.6574
3708150000		0.96475	-70.9559
3808100000		0.96322	-73.2826
3908050000		0.96165	-75.6285
4008000000		0.96006	-78.0022
4107950000		0.95836	-80.392
4207900000		0.95662	-82.8033
4307850000		0.9548	-85.2315
4407800000		0.95301	-87.681
4507750000		0.9514	-90.1442
4607700000		0.94988	-92.6437
4707650000		0.94826	-95.1646
4807600000		0.9468	-97.7185
4907550000		0.94537	-100.3061
5007500000		0.94403	-102.9221
5107450000		0.94258	-105.5713
5207400000		0.94135	-108.2455
5307350000		0.93997	-110.9697
5407300000		0.93866	-113.7241
5507250000		0.93723	-116.5206
5607200000		0.93577	-119.3464
5707150000		0.93426	-122.2125
5807100000		0.93245	-125.1117
5907050000		0.93048	-128.045
6007000000		0.92841	-130.9992
6106950000		0.92606	-133.9698
6206900000		0.9236	-136.9512
6306850000		0.92108	-139.9485
6406800000		0.91849	-142.9447
6506750000		0.91589	-145.9455
6606700000		0.91315	-148.9378
6706650000		0.91073	-151.9447
6806600000		0.90802	-154.9466
6906550000		0.90581	-157.9531
7006500000		0.9033	-160.9588
7106450000		0.90121	-163.9842
7206400000		0.89835	-167.017
7306350000		0.8955	-170.0907
!
!				Infineon Technologies AG
