! Infineon Technologies  Discrete & RF Semiconductors
! BAT17-04W
! VCA = 0.1 V
! One-Port S-Parameters
# Hz  S  MA  R  50
!f									S11
!Hz							Mag  Ang
309850000		0.99895	-5.8765
409800000		0.99849	-7.7768
509750000		0.99791	-9.6791
609700000		0.99721	-11.5858
709650000		0.99648	-13.5007
809600000		0.99565	-15.4153
909550000		0.99483	-17.3473
1009500000		0.99399	-19.292
1109450000		0.99314	-21.2482
1209400000		0.99239	-23.2201
1309350000		0.9915	-25.2185
1409300000		0.99064	-27.2416
1509250000		0.9898	-29.2803
1609200000		0.989	-31.3541
1709150000		0.98813	-33.4564
1809100000		0.98719	-35.5862
1909050000		0.98603	-37.7401
2009000000		0.98459	-39.8794
2108950000		0.98374	-42.1551
2208900000		0.9823	-44.3518
2308850000		0.98087	-46.6041
2408800000		0.97936	-48.8464
2508750000		0.97819	-51.1918
2608700000		0.97674	-53.5273
2708650000		0.97549	-55.8588
2808600000		0.97354	-58.2537
2908550000		0.97207	-60.6883
3008500000		0.97026	-63.1305
3108450000		0.96836	-65.5434
3208400000		0.96699	-68.065
3308350000		0.96532	-70.5563
3408300000		0.9637	-73.0819
3508250000		0.96214	-75.6141
3608200000		0.96024	-78.191
3708150000		0.95847	-80.7702
3808100000		0.95671	-83.3736
3908050000		0.95498	-85.9941
4008000000		0.95319	-88.6388
4107950000		0.95129	-91.2987
4207900000		0.9494	-93.9784
4307850000		0.94742	-96.6673
4407800000		0.94552	-99.3733
4507750000		0.94376	-102.0911
4607700000		0.94214	-104.8426
4707650000		0.94059	-107.6068
4807600000		0.93917	-110.4025
4907550000		0.93767	-113.2261
5007500000		0.93637	-116.0769
5107450000		0.93497	-118.9525
5207400000		0.9337	-121.8394
5307350000		0.93228	-124.7678
5407300000		0.93097	-127.7198
5507250000		0.92959	-130.6972
5607200000		0.92802	-133.6988
5707150000		0.92644	-136.7174
5807100000		0.92467	-139.7565
5907050000		0.9227	-142.8048
6007000000		0.92061	-145.8581
6106950000		0.91837	-148.9109
6206900000		0.91609	-151.9538
6306850000		0.91382	-154.9911
6406800000		0.91156	-158.0093
6506750000		0.9093	-161.015
6606700000		0.90699	-163.992
6706650000		0.90515	-166.9669
6806600000		0.9031	-169.9195
6906550000		0.90147	-172.8623
7006500000		0.89968	-175.7939
7106450000		0.89836	-178.7266
7206400000		0.89631	178.3438
7306350000		0.8942	175.3888
!
!				Infineon Technologies AG
