! Infineon Technologies  Discrete & RF Semiconductors
! BAT17-04W
! IAC = 0.2 mA
! One-Port S-Parameters
# Hz  S  MA  R  50
!f									S11
!Hz							Mag  Ang
309850000		0.5848	-8.1117
409800000		0.58454	-10.6991
509750000		0.58378	-13.3798
609700000		0.5831	-16.103
709650000		0.58636	-18.9255
809600000		0.57863	-21.8375
909550000		0.58008	-24.8511
1009500000		0.58158	-27.5577
1109450000		0.5854	-30.3029
1209400000		0.57751	-32.9322
1309350000		0.57508	-36.0874
1409300000		0.57246	-39.0629
1509250000		0.56787	-42.2037
1609200000		0.56702	-45.2238
1709150000		0.57736	-47.6857
1809100000		0.57454	-51.0383
1909050000		0.5673	-54.1612
2009000000		0.55927	-57.5124
2108950000		0.56698	-60.6575
2208900000		0.56348	-63.9087
2308850000		0.56096	-67.231
2408800000		0.55854	-70.424
2508750000		0.56119	-73.4705
2608700000		0.56216	-76.8876
2708650000		0.55917	-80.2545
2808600000		0.56569	-83.5285
2908550000		0.56236	-86.9896
3008500000		0.55876	-90.1404
3108450000		0.55894	-93.5601
3208400000		0.56518	-96.6969
3308350000		0.56679	-100.1502
3408300000		0.5643	-103.6435
3508250000		0.56522	-107.1073
3608200000		0.56809	-110.2815
3708150000		0.56786	-113.8277
3808100000		0.56766	-117.2349
3908050000		0.56679	-120.7205
4008000000		0.56592	-124.2914
4107950000		0.56834	-127.5799
4207900000		0.57612	-130.5754
4307850000		0.58201	-133.5702
4407800000		0.58084	-137.1636
4507750000		0.5817	-140.537
4607700000		0.58437	-143.7964
4707650000		0.59336	-146.5474
4807600000		0.59508	-149.8276
4907550000		0.60031	-152.8836
5007500000		0.60254	-156.2182
5107450000		0.60527	-159.449
5207400000		0.61096	-162.4753
5307350000		0.61706	-165.4351
5407300000		0.62184	-168.458
5507250000		0.62431	-171.6556
5607200000		0.62858	-174.6879
5707150000		0.63403	-177.5734
5807100000		0.63951	179.5806
5907050000		0.64237	176.5315
6007000000		0.64886	173.8587
6106950000		0.65482	171.2088
6206900000		0.66002	168.5256
6306850000		0.66382	165.7388
6406800000		0.66793	163.0479
6506750000		0.67317	160.4763
6606700000		0.67797	157.9162
6706650000		0.68254	155.3459
6806600000		0.68823	152.9518
6906550000		0.69246	150.4068
7006500000		0.69888	148.1213
7106450000		0.7047	145.7882
7206400000		0.71001	143.46
7306350000		0.71444	141.0541
!
!				Infineon Technologies AG
