! Infineon Technologies  Discrete & RF Semiconductors
! BAT17-04W
! IAC = 10 mA
! One-Port S-Parameters
# Hz  S  MA  R  50
!f									S11
!Hz							Mag  Ang
309850000		0.81205	174.8456
409800000		0.81094	173.2982
509750000		0.80998	171.8028
609700000		0.80922	170.2862
709650000		0.80873	168.7749
809600000		0.80838	167.2752
909550000		0.80811	165.7866
1009500000		0.80789	164.3069
1109450000		0.80768	162.8385
1209400000		0.80755	161.3787
1309350000		0.80739	159.9362
1409300000		0.80727	158.5107
1509250000		0.80725	157.0979
1609200000		0.80715	155.703
1709150000		0.80712	154.3188
1809100000		0.80711	152.9626
1909050000		0.80709	151.62
2009000000		0.80734	150.2698
2108950000		0.8072	148.9835
2208900000		0.80743	147.6893
2308850000		0.80757	146.4125
2408800000		0.80785	145.1467
2508750000		0.80825	143.8932
2608700000		0.80869	142.6528
2708650000		0.80904	141.3937
2808600000		0.80958	140.203
2908550000		0.81001	138.9882
3008500000		0.81057	137.779
3108450000		0.81112	136.5784
3208400000		0.81161	135.3941
3308350000		0.81209	134.1985
3408300000		0.81263	133.0198
3508250000		0.81312	131.8332
3608200000		0.81365	130.6772
3708150000		0.81426	129.5105
3808100000		0.81471	128.3521
3908050000		0.81511	127.232
4008000000		0.81599	126.0442
4107950000		0.81663	124.8943
4207900000		0.81728	123.7486
4307850000		0.81795	122.6019
4407800000		0.81879	121.4586
4507750000		0.81976	120.3168
4607700000		0.82077	119.1616
4707650000		0.82165	117.9906
4807600000		0.82221	116.8338
4907550000		0.82294	115.6905
5007500000		0.82349	114.5482
5107450000		0.82426	113.4228
5207400000		0.82484	112.2763
5307350000		0.82535	111.1652
5407300000		0.82575	110.0343
5507250000		0.826	108.9535
5607200000		0.8264	107.8751
5707150000		0.82694	106.8363
5807100000		0.82782	105.7763
5907050000		0.82852	104.7478
6007000000		0.82932	103.7104
6106950000		0.83007	102.7051
6206900000		0.83096	101.7007
6306850000		0.83178	100.7107
6406800000		0.83278	99.7407
6506750000		0.83401	98.7821
6606700000		0.83524	97.8257
6706650000		0.83677	96.8699
6806600000		0.83828	95.9072
6906550000		0.83999	94.9431
7006500000		0.84176	93.9662
7106450000		0.84338	92.9767
7206400000		0.84506	91.9758
7306350000		0.84621	90.9436
!
!				Infineon Technologies AG
