! Infineon Technologies  Discrete & RF Semiconductors
! BAT17-04W
! IAC = 0.08 mA
! One-Port S-Parameters
# Hz  S  MA  R  50
!f									S11
!Hz							Mag  Ang
309850000		0.81632	-7.6691
409800000		0.81629	-10.1407
509750000		0.81512	-12.651
609700000		0.81488	-15.1815
709650000		0.81652	-17.7572
809600000		0.81033	-20.3949
909550000		0.81035	-23.0377
1009500000		0.81187	-25.5727
1109450000		0.81386	-28.1204
1209400000		0.80817	-30.7533
1309350000		0.80581	-33.4936
1409300000		0.80312	-36.2279
1509250000		0.80021	-39.0066
1609200000		0.79878	-41.7667
1709150000		0.80547	-44.231
1809100000		0.80297	-47.1429
1909050000		0.79781	-50.0691
2009000000		0.79149	-53.1066
2108950000		0.79556	-55.9042
2208900000		0.79173	-58.858
2308850000		0.78901	-61.909
2408800000		0.78496	-64.9852
2508750000		0.78574	-67.872
2608700000		0.78502	-70.9247
2708650000		0.78132	-74.0875
2808600000		0.78467	-77.0002
2908550000		0.78017	-80.2313
3008500000		0.77644	-83.2399
3108450000		0.77464	-86.4749
3208400000		0.77813	-89.3709
3308350000		0.77685	-92.5776
3408300000		0.77311	-95.8731
3508250000		0.77173	-99.1141
3608200000		0.77252	-102.1176
3708150000		0.77014	-105.4365
3808100000		0.76699	-108.7175
3908050000		0.76399	-112.1018
4008000000		0.76107	-115.4596
4107950000		0.76073	-118.6508
4207900000		0.7642	-121.5836
4307850000		0.76634	-124.554
4407800000		0.76307	-127.9832
4507750000		0.76084	-131.3174
4607700000		0.76062	-134.52
4707650000		0.76553	-137.3094
4807600000		0.76422	-140.6104
4907550000		0.76574	-143.7074
5007500000		0.76493	-147.0315
5107450000		0.76524	-150.224
5207400000		0.76679	-153.3355
5307350000		0.76893	-156.3808
5407300000		0.77024	-159.489
5507250000		0.76996	-162.7271
5607200000		0.7709	-165.8436
5707150000		0.77291	-168.8238
5807100000		0.77453	-171.8172
5907050000		0.77417	-174.9763
6007000000		0.77663	-177.8229
6106950000		0.77878	179.3625
6206900000		0.78049	176.5312
6306850000		0.78071	173.5676
6406800000		0.78158	170.7161
6506750000		0.78344	167.9863
6606700000		0.78491	165.2667
6706650000		0.78633	162.5267
6806600000		0.7887	159.949
6906550000		0.79019	157.2582
7006500000		0.79335	154.798
7106450000		0.7961	152.2777
7206400000		0.7985	149.793
7306350000		0.80011	147.2274
!
!				Infineon Technologies AG
