! Infineon Technologies  Discrete & RF Semiconductors
! BAT17-04W
! VCA = 0.6 V
! One-Port S-Parameters
# Hz  S  MA  R  50
!f									S11
!Hz							Mag  Ang
309850000		0.99903	-5.0328
409800000		0.99861	-6.6569
509750000		0.99812	-8.2852
609700000		0.99741	-9.9176
709650000		0.99676	-11.5528
809600000		0.99604	-13.1899
909550000		0.99533	-14.8407
1009500000		0.99459	-16.5027
1109450000		0.99386	-18.1712
1209400000		0.99322	-19.8551
1309350000		0.9925	-21.5609
1409300000		0.99179	-23.289
1509250000		0.99108	-25.0271
1609200000		0.99049	-26.8016
1709150000		0.98986	-28.5985
1809100000		0.98907	-30.4196
1909050000		0.98818	-32.2631
2009000000		0.98715	-34.125
2108950000		0.9864	-36.0499
2208900000		0.9852	-37.928
2308850000		0.98402	-39.8611
2408800000		0.98298	-41.8162
2508750000		0.98166	-43.7611
2608700000		0.98071	-45.8056
2708650000		0.97998	-47.8436
2808600000		0.97827	-49.9071
2908550000		0.97692	-51.9776
3008500000		0.97558	-54.0865
3108450000		0.9742	-56.2084
3208400000		0.97261	-58.3322
3308350000		0.97138	-60.5228
3408300000		0.97002	-62.7165
3508250000		0.96896	-64.9463
3608200000		0.9671	-67.1656
3708150000		0.96563	-69.4187
3808100000		0.9641	-71.6993
3908050000		0.96258	-73.9978
4008000000		0.96111	-76.3229
4107950000		0.9594	-78.6698
4207900000		0.95764	-81.0332
4307850000		0.95592	-83.415
4407800000		0.95411	-85.8186
4507750000		0.95248	-88.238
4607700000		0.95098	-90.6939
4707650000		0.94939	-93.1697
4807600000		0.94799	-95.6804
4907550000		0.94651	-98.2233
5007500000		0.94514	-100.7948
5107450000		0.94374	-103.404
5207400000		0.94256	-106.0344
5307350000		0.94117	-108.7171
5407300000		0.93988	-111.4316
5507250000		0.93845	-114.1923
5607200000		0.937	-116.978
5707150000		0.9355	-119.8101
5807100000		0.93375	-122.6783
5907050000		0.93183	-125.5811
6007000000		0.92973	-128.5083
6106950000		0.92741	-131.4545
6206900000		0.92489	-134.4166
6306850000		0.92235	-137.3962
6406800000		0.91974	-140.379
6506750000		0.91707	-143.3667
6606700000		0.91427	-146.3537
6706650000		0.9118	-149.3536
6806600000		0.90907	-152.3525
6906550000		0.90668	-155.359
7006500000		0.90402	-158.3679
7106450000		0.90186	-161.3978
7206400000		0.89883	-164.4398
7306350000		0.89583	-167.5259
!
!				Infineon Technologies AG
