! Infineon Technologies  Discrete & RF Semiconductors
! BAT17-04W
! IAC = 9 mA
! One-Port S-Parameters
# Hz  S  MA  R  50
!f									S11
!Hz							Mag  Ang
309850000		0.80247	174.8486
409800000		0.8012	173.3362
509750000		0.80045	171.8092
609700000		0.79975	170.2888
709650000		0.79927	168.7823
809600000		0.79893	167.2846
909550000		0.79864	165.7961
1009500000		0.79846	164.3165
1109450000		0.79837	162.8504
1209400000		0.79825	161.3929
1309350000		0.79809	159.9511
1409300000		0.79806	158.5265
1509250000		0.79806	157.1154
1609200000		0.79807	155.7222
1709150000		0.79812	154.3389
1809100000		0.79807	152.9856
1909050000		0.79805	151.6451
2009000000		0.79843	150.2894
2108950000		0.79833	149.0066
2208900000		0.79865	147.7162
2308850000		0.79885	146.4437
2408800000		0.79921	145.1737
2508750000		0.79955	143.9223
2608700000		0.80005	142.6846
2708650000		0.80048	141.426
2808600000		0.80102	140.2399
2908550000		0.80138	139.0551
3008500000		0.80203	137.8527
3108450000		0.80282	136.6152
3208400000		0.80335	135.4305
3308350000		0.80391	134.2381
3408300000		0.80446	133.0639
3508250000		0.80502	131.8764
3608200000		0.80544	130.7557
3708150000		0.80625	129.5562
3808100000		0.80682	128.398
3908050000		0.80744	127.2493
4008000000		0.80819	126.097
4107950000		0.80882	124.9461
4207900000		0.80956	123.7997
4307850000		0.8103	122.656
4407800000		0.8112	121.5156
4507750000		0.8122	120.3743
4607700000		0.81332	119.2207
4707650000		0.81426	118.049
4807600000		0.81484	116.8964
4907550000		0.81564	115.7542
5007500000		0.81625	114.6115
5107450000		0.8171	113.487
5207400000		0.81774	112.3438
5307350000		0.81831	111.2319
5407300000		0.81878	110.101
5507250000		0.8191	109.0232
5607200000		0.81954	107.9457
5707150000		0.82026	106.9062
5807100000		0.82125	105.8462
5907050000		0.82193	104.8191
6007000000		0.82283	103.7821
6106950000		0.82365	102.7766
6206900000		0.82461	101.7721
6306850000		0.82553	100.7853
6406800000		0.82653	99.8149
6506750000		0.82779	98.8572
6606700000		0.82911	97.9014
6706650000		0.83077	96.9453
6806600000		0.83231	95.9844
6906550000		0.83404	95.019
7006500000		0.8359	94.043
7106450000		0.83757	93.056
7206400000		0.83931	92.0545
7306350000		0.84046	91.0211
!
!				Infineon Technologies AG
