! Infineon Technologies  Discrete & RF Semiconductors
! BAT17-04W
! IAC = 4 mA
! One-Port S-Parameters
# Hz  S  MA  R  50
!f									S11
!Hz							Mag  Ang
309850000		0.68593	174.9022
409800000		0.68532	173.3787
509750000		0.68473	171.9159
609700000		0.68438	170.4116
709650000		0.68415	168.9354
809600000		0.68393	167.4685
909550000		0.68422	166.0134
1009500000		0.68458	164.5584
1109450000		0.68496	163.122
1209400000		0.68532	161.6892
1309350000		0.68558	160.2751
1409300000		0.68605	158.8767
1509250000		0.68666	157.4921
1609200000		0.68732	156.1239
1709150000		0.68813	154.7626
1809100000		0.68879	153.4332
1909050000		0.68945	152.1175
2009000000		0.69033	150.7969
2108950000		0.69106	149.538
2208900000		0.69184	148.2751
2308850000		0.69271	147.0308
2408800000		0.69338	145.824
2508750000		0.69443	144.6017
2608700000		0.69575	143.3594
2708650000		0.69665	142.1611
2808600000		0.69825	140.9654
2908550000		0.69931	139.7802
3008500000		0.70072	138.5774
3108450000		0.70192	137.4077
3208400000		0.70337	136.2499
3308350000		0.70445	135.09
3408300000		0.7057	133.9463
3508250000		0.70701	132.7847
3608200000		0.70854	131.6505
3708150000		0.70978	130.5144
3808100000		0.71093	129.3845
3908050000		0.71209	128.2628
4008000000		0.71366	127.132
4107950000		0.7151	126.0066
4207900000		0.71653	124.8835
4307850000		0.71797	123.7628
4407800000		0.71966	122.6413
4507750000		0.7213	121.5264
4607700000		0.72316	120.3937
4707650000		0.72481	119.2463
4807600000		0.72615	118.1169
4907550000		0.72768	117.0002
5007500000		0.72914	115.8818
5107450000		0.73102	114.7712
5207400000		0.7324	113.6512
5307350000		0.73382	112.5603
5407300000		0.73518	111.449
5507250000		0.73659	110.3823
5607200000		0.738	109.3187
5707150000		0.73969	108.2894
5807100000		0.7415	107.2424
5907050000		0.74318	106.2209
6007000000		0.74487	105.1969
6106950000		0.74659	104.2002
6206900000		0.74847	103.2028
6306850000		0.75017	102.2254
6406800000		0.75204	101.2641
6506750000		0.75418	100.3109
6606700000		0.75628	99.3608
6706650000		0.75867	98.4153
6806600000		0.76096	97.4622
6906550000		0.76361	96.5011
7006500000		0.76613	95.5331
7106450000		0.7685	94.5568
7206400000		0.77103	93.5601
7306350000		0.77305	92.5312
!
!				Infineon Technologies AG
