! Infineon Technologies  Discrete & RF Semiconductors
! BAT17-04W
! VCA = 0.8 V
! One-Port S-Parameters
# Hz  S  MA  R  50
!f									S11
!Hz							Mag  Ang
309850000		0.99933	-4.8861
409800000		0.99864	-6.4181
509750000		0.99818	-7.989
609700000		0.99752	-9.5623
709650000		0.99686	-11.1379
809600000		0.99614	-12.7176
909550000		0.99544	-14.3094
1009500000		0.99473	-15.908
1109450000		0.99402	-17.5176
1209400000		0.99335	-19.1382
1309350000		0.99273	-20.7827
1409300000		0.99208	-22.4474
1509250000		0.99142	-24.1235
1609200000		0.99085	-25.8317
1709150000		0.99019	-27.562
1809100000		0.98948	-29.3179
1909050000		0.98863	-31.0953
2009000000		0.98762	-32.8893
2108950000		0.98693	-34.7447
2208900000		0.98577	-36.5549
2308850000		0.98444	-38.3857
2408800000		0.98354	-40.3034
2508750000		0.98234	-42.1764
2608700000		0.98142	-44.1512
2708650000		0.98073	-46.1168
2808600000		0.97895	-48.0737
2908550000		0.97792	-50.1057
3008500000		0.97634	-52.1082
3108450000		0.97522	-54.1892
3208400000		0.97396	-56.2663
3308350000		0.97255	-58.3537
3408300000		0.97124	-60.474
3508250000		0.97023	-62.6264
3608200000		0.96842	-64.768
3708150000		0.96702	-66.9464
3808100000		0.96551	-69.1516
3908050000		0.96405	-71.3722
4008000000		0.96255	-73.6234
4107950000		0.96091	-75.8938
4207900000		0.95927	-78.1825
4307850000		0.95753	-80.4896
4407800000		0.95575	-82.8172
4507750000		0.9542	-85.1607
4607700000		0.95278	-87.5427
4707650000		0.95114	-89.9437
4807600000		0.94976	-92.3791
4907550000		0.94826	-94.8495
5007500000		0.94695	-97.3467
5107450000		0.94554	-99.8796
5207400000		0.94431	-102.4391
5307350000		0.94293	-105.054
5407300000		0.94163	-107.6995
5507250000		0.94028	-110.3894
5607200000		0.93879	-113.1104
5707150000		0.93734	-115.8821
5807100000		0.93563	-118.6883
5907050000		0.93374	-121.5403
6007000000		0.93162	-124.4167
6106950000		0.92928	-127.3207
6206900000		0.92684	-130.2396
6306850000		0.92424	-133.1851
6406800000		0.92154	-136.1372
6506750000		0.91882	-139.1003
6606700000		0.91593	-142.0671
6706650000		0.91332	-145.0496
6806600000		0.91042	-148.038
6906550000		0.9079	-151.0368
7006500000		0.90509	-154.0459
7106450000		0.90268	-157.0812
7206400000		0.89941	-160.1262
7306350000		0.89623	-163.2242
!
!				Infineon Technologies AG
