! Infineon Technologies  Discrete & RF Semiconductors
! BAT17-04W
! VCA = 0.9 V
! One-Port S-Parameters
# Hz  S  MA  R  50
!f									S11
!Hz							Mag  Ang
309850000		0.99908	-4.7805
409800000		0.99868	-6.3227
509750000		0.99814	-7.8708
609700000		0.99756	-9.4192
709650000		0.99685	-10.9709
809600000		0.99611	-12.5272
909550000		0.9954	-14.094
1009500000		0.99474	-15.6693
1109450000		0.99405	-17.2531
1209400000		0.9934	-18.8489
1309350000		0.99273	-20.4674
1409300000		0.99212	-22.1068
1509250000		0.99152	-23.7575
1609200000		0.99094	-25.4397
1709150000		0.9903	-27.1441
1809100000		0.98959	-28.8733
1909050000		0.98871	-30.6228
2009000000		0.98778	-32.3893
2108950000		0.98689	-34.1865
2208900000		0.98594	-36.0003
2308850000		0.98463	-37.8032
2408800000		0.9838	-39.6921
2508750000		0.98281	-41.5718
2608700000		0.98173	-43.4818
2708650000		0.98095	-45.4152
2808600000		0.97947	-47.3776
2908550000		0.97822	-49.3466
3008500000		0.97694	-51.3525
3108450000		0.97564	-53.37
3208400000		0.97414	-55.3877
3308350000		0.97292	-57.4716
3408300000		0.97149	-59.5289
3508250000		0.97066	-61.6843
3608200000		0.96889	-63.7969
3708150000		0.96748	-65.9432
3808100000		0.96602	-68.1165
3908050000		0.96457	-70.3068
4008000000		0.96306	-72.5262
4107950000		0.96153	-74.7659
4207900000		0.95991	-77.0242
4307850000		0.95816	-79.2989
4407800000		0.95635	-81.5941
4507750000		0.95484	-83.9088
4607700000		0.95336	-86.2594
4707650000		0.95174	-88.6275
4807600000		0.9504	-91.0327
4907550000		0.94887	-93.4723
5007500000		0.94751	-95.938
5107450000		0.94614	-98.4404
5207400000		0.94491	-100.9696
5307350000		0.94354	-103.5537
5407300000		0.94224	-106.1683
5507250000		0.94085	-108.8292
5607200000		0.93942	-111.5237
5707150000		0.93795	-114.2659
5807100000		0.93624	-117.0478
5907050000		0.93434	-119.8754
6007000000		0.93224	-122.728
6106950000		0.92994	-125.6105
6206900000		0.92743	-128.5113
6306850000		0.92484	-131.4379
6406800000		0.92214	-134.3758
6506750000		0.91933	-137.3268
6606700000		0.91647	-140.2816
6706650000		0.91378	-143.2564
6806600000		0.91083	-146.2377
6906550000		0.90821	-149.233
7006500000		0.90535	-152.2372
7106450000		0.90282	-155.271
7206400000		0.89948	-158.3167
7306350000		0.89621	-161.4177
!
!				Infineon Technologies AG
