! Infineon Technologies  Discrete & RF Semiconductors
! BAT17-04W
! IAC = 0.01 mA
! One-Port S-Parameters
# Hz  S  MA  R  50
!f									S11
!Hz							Mag  Ang
309850000		0.97423	-7.1235
409800000		0.97415	-9.4759
509750000		0.97329	-11.8058
609700000		0.97258	-14.1313
709650000		0.97212	-16.4618
809600000		0.97024	-18.8678
909550000		0.96939	-21.235
1009500000		0.96882	-23.5788
1109450000		0.96827	-25.9225
1209400000		0.96655	-28.4015
1309350000		0.96513	-30.8702
1409300000		0.96368	-33.3759
1509250000		0.96232	-35.8961
1609200000		0.96104	-38.4408
1709150000		0.96112	-40.8122
1809100000		0.95948	-43.4323
1909050000		0.95734	-46.1369
2009000000		0.9549	-48.9149
2108950000		0.95421	-51.4897
2208900000		0.95191	-54.2342
2308850000		0.9496	-56.9791
2408800000		0.94718	-59.8952
2508750000		0.9457	-62.5863
2608700000		0.94365	-65.3489
2708650000		0.94168	-68.3274
2808600000		0.94002	-70.9672
2908550000		0.9373	-74.0007
3008500000		0.93438	-76.9166
3108450000		0.93192	-79.8909
3208400000		0.93088	-82.596
3308350000		0.9286	-85.5801
3408300000		0.92571	-88.647
3508250000		0.92375	-91.724
3608200000		0.92172	-94.5446
3708150000		0.91923	-97.6452
3808100000		0.91644	-100.8085
3908050000		0.91362	-103.9997
4008000000		0.91092	-107.1636
4107950000		0.90875	-110.2021
4207900000		0.90745	-113.0169
4307850000		0.90574	-115.9004
4407800000		0.90306	-119.151
4507750000		0.90051	-122.3772
4607700000		0.89873	-125.4774
4707650000		0.89818	-128.2211
4807600000		0.89615	-131.4691
4907550000		0.8949	-134.5245
5007500000		0.89322	-137.7769
5107450000		0.89195	-140.876
5207400000		0.89077	-143.9833
5307350000		0.8897	-147.0344
5407300000		0.88847	-150.1473
5507250000		0.887	-153.362
5607200000		0.88563	-156.4859
5707150000		0.88447	-159.4945
5807100000		0.8831	-162.5577
5907050000		0.8812	-165.7707
6007000000		0.87999	-168.7118
6106950000		0.8786	-171.6202
6206900000		0.87726	-174.5417
6306850000		0.87551	-177.6191
6406800000		0.87403	179.4133
6506750000		0.87298	176.5745
6606700000		0.8718	173.7334
6706650000		0.87109	170.8596
6806600000		0.87046	168.1404
6906550000		0.87002	165.3227
7006500000		0.86994	162.7281
7106450000		0.86999	160.0488
7206400000		0.86964	157.4296
7306350000		0.86897	154.7141
!
!				Infineon Technologies AG
