! Infineon Technologies  Discrete & RF Semiconductors
! BAT17-04W
! VCA = 1 V
! One-Port S-Parameters
# Hz  S  MA  R  50
!f									S11
!Hz							Mag  Ang
309850000		0.99932	-4.7493
409800000		0.99873	-6.2375
509750000		0.99798	-7.7339
609700000		0.9976	-9.2917
709650000		0.9969	-10.8244
809600000		0.99592	-12.3264
909550000		0.9955	-13.9053
1009500000		0.99482	-15.458
1109450000		0.99412	-17.0207
1209400000		0.99349	-18.5947
1309350000		0.99276	-20.1913
1409300000		0.99223	-21.8096
1509250000		0.99156	-23.4353
1609200000		0.99103	-25.0958
1709150000		0.99039	-26.7763
1809100000		0.98965	-28.4812
1909050000		0.98889	-30.2082
2009000000		0.98791	-31.9539
2108950000		0.98731	-33.7554
2208900000		0.98613	-35.5122
2308850000		0.98503	-37.3263
2408800000		0.98405	-39.1564
2508750000		0.98303	-41.009
2608700000		0.98199	-42.891
2708650000		0.98124	-44.8019
2808600000		0.97972	-46.7367
2908550000		0.97853	-48.6798
3008500000		0.97727	-50.6591
3108450000		0.97598	-52.6514
3208400000		0.97465	-54.6714
3308350000		0.97336	-56.6984
3408300000		0.97204	-58.7629
3508250000		0.97108	-60.8556
3608200000		0.96932	-62.9422
3708150000		0.96789	-65.0597
3808100000		0.96641	-67.2069
3908050000		0.96506	-69.3707
4008000000		0.96355	-71.5605
4107950000		0.96197	-73.7742
4207900000		0.96036	-76.0031
4307850000		0.95861	-78.2526
4407800000		0.95687	-80.5204
4507750000		0.95534	-82.8053
4607700000		0.95392	-85.126
4707650000		0.95229	-87.4686
4807600000		0.95084	-89.8445
4907550000		0.94934	-92.2571
5007500000		0.94804	-94.6931
5107450000		0.94662	-97.1686
5207400000		0.9454	-99.6696
5307350000		0.94406	-102.2287
5407300000		0.94271	-104.8155
5507250000		0.94132	-107.4489
5607200000		0.93986	-110.1159
5707150000		0.93841	-112.8336
5807100000		0.9367	-115.5916
5907050000		0.93487	-118.397
6007000000		0.93277	-121.2302
6106950000		0.93044	-124.0939
6206900000		0.92796	-126.9764
6306850000		0.92532	-129.8869
6406800000		0.9226	-132.8104
6506750000		0.91978	-135.7467
6606700000		0.91685	-138.6905
6706650000		0.91411	-141.6583
6806600000		0.9111	-144.631
6906550000		0.90842	-147.6188
7006500000		0.90549	-150.6182
7106450000		0.90293	-153.6503
7206400000		0.89952	-156.6969
7306350000		0.89615	-159.7966
!
!				Infineon Technologies AG
