! Infineon Technologies  Discrete & RF Semiconductors
! BAT17-04W
! IAC = 0.7 mA
! One-Port S-Parameters
# Hz  S  MA  R  50
!f									S11
!Hz							Mag  Ang
309850000		0.02018	-145.7922
409800000		0.02471	-144.7565
509750000		0.02916	-139.7713
609700000		0.03471	-138.3784
709650000		0.03937	-131.5254
809600000		0.04565	-131.3045
909550000		0.05328	-130.03
1009500000		0.05961	-133.2751
1109450000		0.0653	-133.0206
1209400000		0.07013	-137.1774
1309350000		0.0783	-137.484
1409300000		0.08514	-139.0354
1509250000		0.0941	-142.4194
1609200000		0.10128	-144.1166
1709150000		0.10561	-144.9106
1809100000		0.1153	-147.2022
1909050000		0.12312	-150.5468
2009000000		0.13198	-153.1189
2108950000		0.14032	-153.6112
2208900000		0.14873	-155.1438
2308850000		0.15749	-157.2608
2408800000		0.16438	-158.2161
2508750000		0.17227	-159.5461
2608700000		0.18186	-161.2763
2708650000		0.18991	-163.2287
2808600000		0.20045	-164.8687
2908550000		0.20895	-166.6594
3008500000		0.2154	-169.5211
3108450000		0.22454	-171.0813
3208400000		0.23392	-173.0052
3308350000		0.24368	-174.298
3408300000		0.2528	-176.3488
3508250000		0.26236	-178.1025
3608200000		0.27083	179.5883
3708150000		0.28068	177.8172
3808100000		0.2891	176.2621
3908050000		0.29794	174.4968
4008000000		0.30701	172.3061
4107950000		0.31628	170.5002
4207900000		0.3255	169.1333
4307850000		0.33402	167.6222
4407800000		0.34366	165.5015
4507750000		0.3524	163.7768
4607700000		0.36127	161.8884
4707650000		0.36993	160.4726
4807600000		0.37832	158.7722
4907550000		0.38733	157.2042
5007500000		0.39651	155.4072
5107450000		0.40534	153.2421
5207400000		0.41449	151.8258
5307350000		0.42361	150.3288
5407300000		0.43238	148.6427
5507250000		0.44093	146.6627
5607200000		0.4497	144.8503
5707150000		0.4584	143.1787
5807100000		0.46709	141.6342
5907050000		0.47553	139.8467
6007000000		0.48413	138.4036
6106950000		0.49247	136.9025
6206900000		0.50067	135.3097
6306850000		0.50895	133.755
6406800000		0.51704	132.1771
6506750000		0.5254	130.645
6606700000		0.53357	129.1165
6706650000		0.54183	127.5851
6806600000		0.55005	126.1757
6906550000		0.55806	124.5376
7006500000		0.56643	123.1371
7106450000		0.57465	121.7363
7206400000		0.58253	120.212
7306350000		0.59008	118.6479
!
!				Infineon Technologies AG
