! Infineon Technologies  Discrete & RF Semiconductors
! BAT17-04W
! IAC = 0.9 mA
! One-Port S-Parameters
# Hz  S  MA  R  50
!f									S11
!Hz							Mag  Ang
309850000		0.15128	178.3677
409800000		0.15387	177.7864
509750000		0.15513	177.7032
609700000		0.15745	177.4806
709650000		0.15675	177.9137
809600000		0.15813	178.0469
909550000		0.16085	178.4895
1009500000		0.16566	177.8993
1109450000		0.1681	177.7539
1209400000		0.17221	176.7506
1309350000		0.17532	176.9827
1409300000		0.17917	176.6541
1509250000		0.18574	176.0982
1609200000		0.19041	175.5791
1709150000		0.19381	174.7361
1809100000		0.20031	174.3276
1909050000		0.20682	173.3386
2009000000		0.21318	172.6596
2108950000		0.21814	172.4003
2208900000		0.22354	171.9483
2308850000		0.23003	171.1993
2408800000		0.23388	170.8086
2508750000		0.23941	170.1735
2608700000		0.24653	169.4547
2708650000		0.25269	168.5421
2808600000		0.26075	167.7723
2908550000		0.26703	166.9285
3008500000		0.27369	165.193
3108450000		0.28041	164.3944
3208400000		0.28839	163.2434
3308350000		0.29532	162.5889
3408300000		0.3028	161.487
3508250000		0.31027	160.4748
3608200000		0.31827	158.9251
3708150000		0.32598	157.9103
3808100000		0.33247	156.9435
3908050000		0.33961	155.8526
4008000000		0.34768	154.4095
4107950000		0.3554	153.1876
4207900000		0.36264	152.1676
4307850000		0.36955	151.0454
4407800000		0.37805	149.6255
4507750000		0.38534	148.4209
4607700000		0.39304	147.0671
4707650000		0.40016	145.8825
4807600000		0.4072	144.6514
4907550000		0.41457	143.4845
5007500000		0.42251	142.1419
5107450000		0.43088	140.4675
5207400000		0.43818	139.3787
5307350000		0.44566	138.2151
5407300000		0.45314	136.8883
5507250000		0.46101	135.3393
5607200000		0.46874	133.923
5707150000		0.4765	132.5574
5807100000		0.4839	131.3124
5907050000		0.49155	129.8938
6007000000		0.49879	128.7087
6106950000		0.50598	127.4732
6206900000		0.51326	126.1568
6306850000		0.52056	124.9007
6406800000		0.5278	123.6125
6506750000		0.53524	122.3452
6606700000		0.54255	121.0787
6706650000		0.55006	119.8133
6806600000		0.55734	118.6289
6906550000		0.56481	117.254
7006500000		0.57223	116.0547
7106450000		0.57957	114.8645
7206400000		0.58679	113.5469
7306350000		0.59364	112.1977
!
!				Infineon Technologies AG
