! Infineon Technologies  Discrete & RF Semiconductors
! BAT17-04W
! VCA = 0.4 V
! One-Port S-Parameters
# Hz  S  MA  R  50
!f									S11
!Hz							Mag  Ang
309850000		0.99901	-5.2781
409800000		0.99862	-6.9813
509750000		0.99807	-8.6913
609700000		0.9974	-10.4033
709650000		0.99672	-12.118
809600000		0.99594	-13.8374
909550000		0.99519	-15.5705
1009500000		0.99443	-17.3135
1109450000		0.99363	-19.0669
1209400000		0.99297	-20.8337
1309350000		0.99224	-22.6228
1409300000		0.9915	-24.4378
1509250000		0.99076	-26.2649
1609200000		0.99013	-28.1265
1709150000		0.98944	-30.0114
1809100000		0.98861	-31.9228
1909050000		0.98761	-33.8582
2009000000		0.98635	-35.7778
2108950000		0.98578	-37.8296
2208900000		0.98452	-39.8024
2308850000		0.98325	-41.8279
2408800000		0.98208	-43.8778
2508750000		0.9809	-45.9555
2608700000		0.97964	-48.0624
2708650000		0.97874	-50.1983
2808600000		0.97703	-52.3574
2908550000		0.97568	-54.5288
3008500000		0.97413	-56.7358
3108450000		0.97263	-58.9579
3208400000		0.97127	-61.2094
3308350000		0.96981	-63.4708
3408300000		0.96835	-65.765
3508250000		0.96716	-68.0982
3608200000		0.96528	-70.4147
3708150000		0.9637	-72.7671
3808100000		0.9619	-75.1166
3908050000		0.96053	-77.5475
4008000000		0.95889	-79.9694
4107950000		0.95715	-82.4156
4207900000		0.9554	-84.8801
4307850000		0.95351	-87.3589
4407800000		0.95171	-89.8591
4507750000		0.95004	-92.3752
4607700000		0.94851	-94.9281
4707650000		0.94689	-97.4935
4807600000		0.94552	-100.1021
4907550000		0.94401	-102.7368
5007500000		0.94264	-105.402
5107450000		0.94126	-108.0995
5207400000		0.94004	-110.8204
5307350000		0.93862	-113.5887
5407300000		0.93728	-116.3872
5507250000		0.9359	-119.2258
5607200000		0.93438	-122.0924
5707150000		0.93286	-124.9933
5807100000		0.93105	-127.9276
5907050000		0.92913	-130.8898
6007000000		0.92696	-133.8698
6106950000		0.92465	-136.8663
6206900000		0.9222	-139.8689
6306850000		0.91972	-142.8802
6406800000		0.91716	-145.8916
6506750000		0.91462	-148.9013
6606700000		0.91195	-151.9013
6706650000		0.90963	-154.908
6806600000		0.90707	-157.9058
6906550000		0.90498	-160.9087
7006500000		0.90261	-163.9107
7106450000		0.90066	-166.9236
7206400000		0.89789	-169.9408
7306350000		0.89525	-173.0038
!
!				Infineon Technologies AG
