! Infineon Technologies  Discrete & RF Semiconductors
! BAT17-04W
! VCA = 0.3 V
! One-Port S-Parameters
# Hz  S  MA  R  50
!f									S11
!Hz							Mag  Ang
309850000		0.99905	-5.4358
409800000		0.99855	-7.1925
509750000		0.99777	-8.9234
609700000		0.99736	-10.7183
709650000		0.99661	-12.4864
809600000		0.99587	-14.2573
909550000		0.99505	-16.0434
1009500000		0.99432	-17.8383
1109450000		0.99356	-19.6468
1209400000		0.99282	-21.4695
1309350000		0.99202	-23.3147
1409300000		0.99135	-25.1839
1509250000		0.99057	-27.0691
1609200000		0.98991	-28.9871
1709150000		0.9891	-30.9314
1809100000		0.9882	-32.8993
1909050000		0.98725	-34.8912
2009000000		0.98617	-36.905
2108950000		0.9852	-38.9826
2208900000		0.98391	-41.0134
2308850000		0.98268	-43.1057
2408800000		0.9813	-45.1779
2508750000		0.98022	-47.3541
2608700000		0.97891	-49.5231
2708650000		0.97777	-51.6876
2808600000		0.97625	-53.9447
2908550000		0.97454	-56.1392
3008500000		0.97318	-58.4515
3108450000		0.97169	-60.7341
3208400000		0.97018	-63.0495
3308350000		0.96863	-65.3723
3408300000		0.96718	-67.7343
3508250000		0.96596	-70.1295
3608200000		0.96392	-72.5065
3708150000		0.96236	-74.9241
3808100000		0.96075	-77.3649
3908050000		0.95915	-79.8268
4008000000		0.95742	-82.3145
4107950000		0.95558	-84.8177
4207900000		0.95377	-87.3427
4307850000		0.9519	-89.8826
4407800000		0.95007	-92.4432
4507750000		0.94841	-95.0142
4607700000		0.94687	-97.6234
4707650000		0.9452	-100.2519
4807600000		0.94379	-102.9119
4907550000		0.94238	-105.6049
5007500000		0.94104	-108.3238
5107450000		0.93957	-111.0748
5207400000		0.93828	-113.8465
5307350000		0.93696	-116.665
5407300000		0.93561	-119.5116
5507250000		0.93417	-122.3916
5607200000		0.93268	-125.304
5707150000		0.93115	-128.2435
5807100000		0.92934	-131.2133
5907050000		0.92734	-134.2067
6007000000		0.92527	-137.215
6106950000		0.92291	-140.2335
6206900000		0.92052	-143.2537
6306850000		0.91807	-146.28
6406800000		0.91554	-149.2996
6506750000		0.9131	-152.3146
6606700000		0.91055	-155.3131
6706650000		0.90834	-158.3192
6806600000		0.90595	-161.3142
6906550000		0.90397	-164.3053
7006500000		0.90175	-167.292
7106450000		0.89998	-170.2901
7206400000		0.89746	-173.2874
7306350000		0.89489	-176.3242
!
!				Infineon Technologies AG
