! Infineon Technologies  Discrete & RF Semiconductors
! BAT17-04W
! IAC = 0.6 mA
! One-Port S-Parameters
# Hz  S  MA  R  50
!f									S11
!Hz							Mag  Ang
309850000		0.07084	-17.5253
409800000		0.06925	-23.1101
509750000		0.07032	-29.7035
609700000		0.07063	-36.755
709650000		0.07633	-42.8956
809600000		0.07768	-50.0528
909550000		0.08274	-57.1077
1009500000		0.08383	-63.4819
1109450000		0.08888	-68.1995
1209400000		0.08783	-74.041
1309350000		0.09396	-80.343
1409300000		0.09846	-85.7332
1509250000		0.10232	-93.0012
1609200000		0.10776	-97.8584
1709150000		0.11298	-99.9942
1809100000		0.12004	-105.872
1909050000		0.12381	-111.724
2009000000		0.1299	-117.2553
2108950000		0.13961	-119.7892
2208900000		0.14743	-123.5724
2308850000		0.15482	-127.567
2408800000		0.16231	-130.0992
2508750000		0.17041	-132.7747
2608700000		0.17981	-136.0661
2708650000		0.18723	-139.3204
2808600000		0.19805	-142.1968
2908550000		0.20624	-145.1803
3008500000		0.21094	-148.8355
3108450000		0.2204	-151.4371
3208400000		0.22966	-154.1434
3308350000		0.24019	-156.4155
3408300000		0.24875	-159.289
3508250000		0.25856	-161.8912
3608200000		0.26632	-164.7388
3708150000		0.27639	-167.3296
3808100000		0.28513	-169.5116
3908050000		0.29405	-171.9349
4008000000		0.3027	-174.7263
4107950000		0.31212	-177.0528
4207900000		0.32228	-178.8109
4307850000		0.33136	179.3465
4407800000		0.34074	176.6223
4507750000		0.34968	174.4499
4607700000		0.35855	172.1968
4707650000		0.36814	170.4817
4807600000		0.3767	168.394
4907550000		0.38629	166.4942
5007500000		0.39559	164.3144
5107450000		0.40414	161.8224
5207400000		0.41406	160.1038
5307350000		0.42383	158.3214
5407300000		0.43297	156.354
5507250000		0.44142	154.0769
5607200000		0.45026	152.0299
5707150000		0.45934	150.0797
5807100000		0.46847	148.3013
5907050000		0.47703	146.2524
6007000000		0.48615	144.6047
6106950000		0.49493	142.905
6206900000		0.5034	141.1139
6306850000		0.51192	139.3367
6406800000		0.52021	137.5561
6506750000		0.52881	135.8367
6606700000		0.53717	134.1184
6706650000		0.54562	132.4042
6806600000		0.55419	130.8308
6906550000		0.56219	129.0233
7006500000		0.57089	127.4793
7106450000		0.57946	125.9261
7206400000		0.58757	124.26
7306350000		0.59517	122.5484
!
!				Infineon Technologies AG
