! Infineon Technologies  Discrete & RF Semiconductors
! BAT17-04W
! IAC = 0.07 mA
! One-Port S-Parameters
# Hz  S  MA  R  50
!f									S11
!Hz							Mag  Ang
309850000		0.83778	-7.6315
409800000		0.83773	-10.09
509750000		0.83661	-12.5842
609700000		0.83633	-15.0964
709650000		0.83768	-17.6466
809600000		0.83184	-20.2628
909550000		0.83179	-22.8758
1009500000		0.8332	-25.3944
1109450000		0.83487	-27.9245
1209400000		0.8296	-30.5494
1309350000		0.8273	-33.2619
1409300000		0.82468	-35.974
1509250000		0.82199	-38.7265
1609200000		0.82051	-41.4639
1709150000		0.82651	-43.9239
1809100000		0.82414	-46.8013
1909050000		0.81925	-49.713
2009000000		0.81339	-52.7258
2108950000		0.81697	-55.4958
2208900000		0.81336	-58.4604
2308850000		0.81049	-61.4585
2408800000		0.80653	-64.5164
2508750000		0.80705	-67.3857
2608700000		0.8062	-70.4121
2708650000		0.80244	-73.5578
2808600000		0.80543	-76.4423
2908550000		0.80102	-79.6526
3008500000		0.79729	-82.655
3108450000		0.79534	-85.8686
3208400000		0.79839	-88.743
3308350000		0.79696	-91.9259
3408300000		0.79303	-95.1747
3508250000		0.79165	-98.4313
3608200000		0.79204	-101.3859
3708150000		0.78971	-104.7148
3808100000		0.78664	-108.0191
3908050000		0.78336	-111.3552
4008000000		0.78033	-114.6976
4107950000		0.77979	-117.8759
4207900000		0.78276	-120.7961
4307850000		0.78442	-123.7591
4407800000		0.78105	-127.1754
4507750000		0.77878	-130.5025
4607700000		0.77829	-133.6987
4707650000		0.78258	-136.4798
4807600000		0.78109	-139.7796
4907550000		0.78224	-142.8747
5007500000		0.78124	-146.1943
5107450000		0.78144	-149.3781
5207400000		0.78258	-152.4949
5307350000		0.78428	-155.5436
5407300000		0.7853	-158.6528
5507250000		0.78478	-161.8937
5607200000		0.78542	-165.0128
5707150000		0.78703	-167.9972
5807100000		0.78827	-170.9991
5907050000		0.78765	-174.1668
6007000000		0.78964	-177.0239
6106950000		0.79143	-179.8486
6206900000		0.79277	177.3077
6306850000		0.7927	174.3336
6406800000		0.79323	171.4704
6506750000		0.79475	168.728
6606700000		0.79587	165.9961
6706650000		0.797	163.2431
6806600000		0.79897	160.6517
6906550000		0.80024	157.9467
7006500000		0.80304	155.4743
7106450000		0.8054	152.9391
7206400000		0.80748	150.4405
7306350000		0.80882	147.8597
!
!				Infineon Technologies AG
