! Infineon Technologies  Discrete & RF Semiconductors
! BAT17-04W
! IAC = 0.5 mA
! One-Port S-Parameters
# Hz  S  MA  R  50
!f									S11
!Hz							Mag  Ang
309850000		0.16955	-11.2792
409800000		0.16766	-14.7094
509750000		0.16782	-18.7401
609700000		0.16682	-22.973
709650000		0.17134	-27.3381
809600000		0.16923	-31.9188
909550000		0.17221	-36.8835
1009500000		0.17151	-41.0066
1109450000		0.17531	-44.9142
1209400000		0.17082	-48.6258
1309350000		0.17299	-53.887
1409300000		0.17426	-58.4165
1509250000		0.17293	-63.9717
1609200000		0.1753	-68.5052
1709150000		0.18135	-71.0765
1809100000		0.18369	-76.6403
1909050000		0.18202	-81.7324
2009000000		0.18244	-87.2332
2108950000		0.19152	-91
2208900000		0.19584	-95.5658
2308850000		0.19967	-100.1661
2408800000		0.20537	-103.7228
2508750000		0.21202	-107.2052
2608700000		0.21912	-111.43
2708650000		0.22384	-115.3932
2808600000		0.23357	-119.2
2908550000		0.23944	-123.0494
3008500000		0.24126	-126.973
3108450000		0.24928	-130.494
3208400000		0.25754	-133.8022
3308350000		0.26716	-137.0359
3408300000		0.27357	-140.6484
3508250000		0.28212	-144.0196
3608200000		0.2886	-147.33
3708150000		0.29726	-150.6681
3808100000		0.30516	-153.5393
3908050000		0.31288	-156.6297
4008000000		0.31999	-159.9825
4107950000		0.32868	-162.8703
4207900000		0.33934	-165.1152
4307850000		0.3486	-167.4458
4407800000		0.35647	-170.6836
4507750000		0.36476	-173.3692
4607700000		0.37307	-176.091
4707650000		0.38326	-178.1025
4807600000		0.39129	179.3737
4907550000		0.40086	177.1047
5007500000		0.40971	174.4614
5107450000		0.41747	171.6156
5207400000		0.42764	169.5399
5307350000		0.43763	167.4075
5407300000		0.4468	165.084
5507250000		0.45454	162.5181
5607200000		0.46314	160.1676
5707150000		0.47214	157.9411
5807100000		0.48148	155.8477
5907050000		0.48949	153.5305
6007000000		0.49897	151.6253
6106950000		0.5079	149.6878
6206900000		0.51641	147.6608
6306850000		0.52476	145.6209
6406800000		0.53292	143.6028
6506750000		0.54147	141.6666
6606700000		0.54975	139.7328
6706650000		0.55806	137.8001
6806600000		0.56675	136.0317
6906550000		0.57445	134.0302
7006500000		0.58335	132.3129
7106450000		0.59198	130.5776
7206400000		0.60002	128.7502
7306350000		0.60752	126.8724
!
!				Infineon Technologies AG
