! Infineon Technologies  Discrete & RF Semiconductors
! BAT17-04W
! VCA = 3 V
! One-Port S-Parameters
# Hz  S  MA  R  50
!f									S11
!Hz							Mag  Ang
309850000		0.99927	-4.218
409800000		0.99875	-5.5395
509750000		0.99821	-6.8952
609700000		0.99765	-8.2509
709650000		0.99707	-9.6077
809600000		0.99634	-10.9671
909550000		0.99568	-12.3366
1009500000		0.99498	-13.7155
1109450000		0.99436	-15.0958
1209400000		0.99381	-16.4885
1309350000		0.99317	-17.9018
1409300000		0.99269	-19.3322
1509250000		0.99208	-20.7732
1609200000		0.99161	-22.2417
1709150000		0.99114	-23.7285
1809100000		0.99052	-25.2392
1909050000		0.9898	-26.7662
2009000000		0.98889	-28.3099
2108950000		0.98846	-29.909
2208900000		0.98739	-31.4637
2308850000		0.98645	-33.0662
2408800000		0.98556	-34.6859
2508750000		0.98448	-36.2921
2608700000		0.98386	-37.9953
2708650000		0.98326	-39.6873
2808600000		0.98192	-41.4036
2908550000		0.98087	-43.1241
3008500000		0.9798	-44.8783
3108450000		0.97868	-46.6447
3208400000		0.97759	-48.438
3308350000		0.97638	-50.2372
3408300000		0.97532	-52.0639
3508250000		0.97455	-53.9226
3608200000		0.97296	-55.7761
3708150000		0.97173	-57.6558
3808100000		0.97039	-59.563
3908050000		0.96918	-61.4836
4008000000		0.96792	-63.4305
4107950000		0.96644	-65.3992
4207900000		0.96499	-67.3841
4307850000		0.96347	-69.387
4407800000		0.96194	-71.405
4507750000		0.96053	-73.444
4607700000		0.95918	-75.5152
4707650000		0.95774	-77.6091
4807600000		0.95635	-79.7313
4907550000		0.95493	-81.8864
5007500000		0.95363	-84.0636
5107450000		0.95239	-86.2818
5207400000		0.95129	-88.5235
5307350000		0.94999	-90.8221
5407300000		0.94882	-93.1508
5507250000		0.94757	-95.533
5607200000		0.94622	-97.9406
5707150000		0.9451	-100.4115
5807100000		0.94361	-102.9273
5907050000		0.94198	-105.5033
6007000000		0.94005	-108.1124
6106950000		0.93791	-110.7642
6206900000		0.9355	-113.4488
6306850000		0.93298	-116.1719
6406800000		0.93028	-118.9216
6506750000		0.92745	-121.6977
6606700000		0.92427	-124.4972
6706650000		0.92133	-127.3305
6806600000		0.91807	-130.1838
6906550000		0.91496	-133.0667
7006500000		0.91153	-135.9749
7106450000		0.90848	-138.927
7206400000		0.90443	-141.9129
7306350000		0.90044	-144.9665
!
!				Infineon Technologies AG
