! Infineon Technologies  Discrete & RF Semiconductors
! BAT17-04W
! IAC = 0.03 mA
! One-Port S-Parameters
# Hz  S  MA  R  50
!f									S11
!Hz							Mag  Ang
309850000		0.92711	-7.3882
409800000		0.92708	-9.8036
509750000		0.92606	-12.2186
609700000		0.92554	-14.6332
709650000		0.92573	-17.0666
809600000		0.92219	-19.577
909550000		0.92159	-22.0512
1009500000		0.92189	-24.485
1109450000		0.92218	-26.9201
1209400000		0.91902	-29.4897
1309350000		0.91722	-32.0679
1409300000		0.91523	-34.6738
1509250000		0.91341	-37.3006
1609200000		0.91198	-39.9393
1709150000		0.91441	-42.3618
1809100000		0.91248	-45.0977
1909050000		0.90928	-47.9099
2009000000		0.90519	-50.7704
2108950000		0.90636	-53.463
2208900000		0.90343	-56.3172
2308850000		0.90091	-59.2039
2408800000		0.89738	-62.143
2508750000		0.89688	-64.9617
2608700000		0.89533	-67.8643
2708650000		0.89236	-70.9127
2808600000		0.89269	-73.6699
2908550000		0.88904	-76.7803
3008500000		0.8858	-79.7676
3108450000		0.88336	-82.8415
3208400000		0.88402	-85.6215
3308350000		0.88191	-88.701
3408300000		0.87857	-91.8927
3508250000		0.8766	-95.022
3608200000		0.87563	-97.9214
3708150000		0.87296	-101.1189
3808100000		0.86981	-104.3622
3908050000		0.86664	-107.6276
4008000000		0.86373	-110.8816
4107950000		0.86211	-113.9922
4207900000		0.86244	-116.8555
4307850000		0.86202	-119.7755
4407800000		0.85891	-123.1099
4507750000		0.85627	-126.3967
4607700000		0.8549	-129.5458
4707650000		0.85627	-132.3042
4807600000		0.85433	-135.5884
4907550000		0.8539	-138.6653
5007500000		0.85233	-141.9545
5107450000		0.85156	-145.0985
5207400000		0.85119	-148.2152
5307350000		0.85115	-151.2703
5407300000		0.85072	-154.3839
5507250000		0.84951	-157.6152
5607200000		0.84883	-160.7457
5707150000		0.84872	-163.7455
5807100000		0.84826	-166.7807
5907050000		0.84678	-169.9753
6007000000		0.84671	-172.88
6106950000		0.84659	-175.7521
6206900000		0.84627	-178.6371
6306850000		0.84505	178.3289
6406800000		0.84427	175.4112
6506750000		0.84418	172.6163
6606700000		0.84395	169.8263
6706650000		0.84384	167.0103
6806600000		0.8442	164.3537
6906550000		0.84433	161.5883
7006500000		0.84549	159.0526
7106450000		0.84635	156.444
7206400000		0.847	153.8837
7306350000		0.84709	151.2311
!
!				Infineon Technologies AG
