! Infineon Technologies  Discrete & RF Semiconductors
! BAT17-04W
! IAC = 0.04 mA
! One-Port S-Parameters
# Hz  S  MA  R  50
!f									S11
!Hz							Mag  Ang
309850000		0.90407	-7.4549
409800000		0.90409	-9.8973
509750000		0.90303	-12.339
609700000		0.90261	-14.7795
709650000		0.90317	-17.2487
809600000		0.89895	-19.7897
909550000		0.89849	-22.3027
1009500000		0.89909	-24.7627
1109450000		0.89975	-27.2251
1209400000		0.89604	-29.8197
1309350000		0.89404	-32.4337
1409300000		0.89183	-35.0716
1509250000		0.88982	-37.7333
1609200000		0.88834	-40.4012
1709150000		0.89179	-42.8383
1809100000		0.88974	-45.6121
1909050000		0.88606	-48.4569
2009000000		0.88159	-51.389
2108950000		0.88331	-54.0778
2208900000		0.88015	-56.9624
2308850000		0.87752	-59.8812
2408800000		0.87394	-62.8879
2508750000		0.87355	-65.6954
2608700000		0.87219	-68.6346
2708650000		0.86904	-71.7113
2808600000		0.87008	-74.5048
2908550000		0.86619	-77.6455
3008500000		0.86285	-80.6495
3108450000		0.86027	-83.7194
3208400000		0.86177	-86.5637
3308350000		0.85989	-89.6723
3408300000		0.85635	-92.8918
3508250000		0.85446	-96.0494
3608200000		0.85394	-98.975
3708150000		0.85128	-102.2041
3808100000		0.84806	-105.4668
3908050000		0.84486	-108.7538
4008000000		0.84181	-112.0367
4107950000		0.84043	-115.1654
4207900000		0.84151	-118.0462
4307850000		0.84169	-120.9803
4407800000		0.83845	-124.3416
4507750000		0.83581	-127.6385
4607700000		0.83471	-130.8041
4707650000		0.83693	-133.5715
4807600000		0.83503	-136.8615
4907550000		0.83503	-139.9448
5007500000		0.83354	-143.2439
5107450000		0.83302	-146.4014
5207400000		0.83305	-149.5185
5307350000		0.83343	-152.5721
5407300000		0.8334	-155.6873
5507250000		0.83236	-158.9229
5607200000		0.83199	-162.0491
5707150000		0.83237	-165.0456
5807100000		0.83238	-168.0714
5907050000		0.83105	-171.2616
6007000000		0.8316	-174.1535
6106950000		0.83193	-177.0103
6206900000		0.83205	-179.8848
6306850000		0.8311	177.0999
6406800000		0.83073	174.193
6506750000		0.83105	171.4145
6606700000		0.83111	168.642
6706650000		0.83139	165.8451
6806600000		0.8322	163.2075
6906550000		0.83264	160.4601
7006500000		0.83417	157.9435
7106450000		0.83552	155.3577
7206400000		0.83651	152.8144
7306350000		0.83691	150.1846
!
!				Infineon Technologies AG
