! Infineon Technologies  Discrete & RF Semiconductors
! BAT17-04W
! IAC = 6 mA
! One-Port S-Parameters
# Hz  S  MA  R  50
!f									S11
!Hz							Mag  Ang
309850000		0.75471	174.8667
409800000		0.75381	173.3271
509750000		0.75302	171.8416
609700000		0.7526	170.2971
709650000		0.75211	168.8295
809600000		0.75181	167.3407
909550000		0.75179	165.8613
1009500000		0.7518	164.3913
1109450000		0.75192	162.9334
1209400000		0.75201	161.4824
1309350000		0.75202	160.0517
1409300000		0.75221	158.6335
1509250000		0.75242	157.2303
1609200000		0.75266	155.8433
1709150000		0.75302	154.4682
1809100000		0.75329	153.1201
1909050000		0.75359	151.789
2009000000		0.75413	150.4463
2108950000		0.75441	149.168
2208900000		0.75491	147.8852
2308850000		0.7554	146.6239
2408800000		0.75594	145.3607
2508750000		0.75662	144.1203
2608700000		0.75741	142.8899
2708650000		0.75808	141.644
2808600000		0.75897	140.462
2908550000		0.75971	139.2558
3008500000		0.76066	138.0523
3108450000		0.76149	136.859
3208400000		0.76237	135.6825
3308350000		0.76317	134.499
3408300000		0.76406	133.3378
3508250000		0.76489	132.1572
3608200000		0.76584	131.0094
3708150000		0.76672	129.8561
3808100000		0.76748	128.7064
3908050000		0.76841	127.5631
4008000000		0.76944	126.4205
4107950000		0.77033	125.2785
4207900000		0.7714	124.1381
4307850000		0.77241	123.002
4407800000		0.77359	121.8689
4507750000		0.77484	120.7335
4607700000		0.77625	119.5883
4707650000		0.77749	118.4247
4807600000		0.77836	117.2793
4907550000		0.77945	116.146
5007500000		0.78043	115.0116
5107450000		0.78165	113.8942
5207400000		0.78257	112.7577
5307350000		0.78349	111.6541
5407300000		0.78432	110.5271
5507250000		0.78506	109.4559
5607200000		0.78594	108.3851
5707150000		0.78704	107.3486
5807100000		0.78829	106.2912
5907050000		0.78941	105.2669
6007000000		0.79062	104.2344
6106950000		0.79176	103.2324
6206900000		0.7931	102.2283
6306850000		0.79431	101.245
6406800000		0.79568	100.2784
6506750000		0.79725	99.3229
6606700000		0.79887	98.3679
6706650000		0.80085	97.4142
6806600000		0.80268	96.4567
6906550000		0.80476	95.493
7006500000		0.80684	94.5211
7106450000		0.80883	93.5373
7206400000		0.81083	92.5372
7306350000		0.81237	91.5072
!
!				Infineon Technologies AG
