! Infineon Technologies  Discrete & RF Semiconductors
! BAT17-04W
! IAC = 5 mA
! One-Port S-Parameters
# Hz  S  MA  R  50
!f									S11
!Hz							Mag  Ang
309850000		0.72675	174.8784
409800000		0.72584	173.3794
509750000		0.72537	171.8321
609700000		0.72474	170.3563
709650000		0.72445	168.8656
809600000		0.72419	167.385
909550000		0.72433	165.9147
1009500000		0.72447	164.4482
1109450000		0.72461	162.9998
1209400000		0.72489	161.5545
1309350000		0.72499	160.1289
1409300000		0.72529	158.7196
1509250000		0.7257	157.3199
1609200000		0.72612	155.9394
1709150000		0.72663	154.5707
1809100000		0.72706	153.2308
1909050000		0.72753	151.9029
2009000000		0.72801	150.5996
2108950000		0.72862	149.2987
2208900000		0.72927	148.0205
2308850000		0.72989	146.7631
2408800000		0.73043	145.542
2508750000		0.73138	144.2773
2608700000		0.73232	143.0539
2708650000		0.73312	141.8106
2808600000		0.73427	140.6382
2908550000		0.73516	139.4399
3008500000		0.73624	138.2348
3108450000		0.73725	137.0516
3208400000		0.73833	135.8847
3308350000		0.73927	134.7069
3408300000		0.74028	133.5504
3508250000		0.74129	132.379
3608200000		0.74245	131.2331
3708150000		0.74351	130.0858
3808100000		0.74446	128.9436
3908050000		0.74544	127.8093
4008000000		0.7467	126.6733
4107950000		0.74783	125.5331
4207900000		0.74904	124.4021
4307850000		0.7502	123.2699
4407800000		0.75161	122.1416
4507750000		0.75301	121.0137
4607700000		0.75457	119.874
4707650000		0.75599	118.7168
4807600000		0.75707	117.5747
4907550000		0.75829	116.4495
5007500000		0.75948	115.3211
5107450000		0.76096	114.2066
5207400000		0.76206	113.0742
5307350000		0.76318	111.9758
5407300000		0.76423	110.8559
5507250000		0.76523	109.7865
5607200000		0.76631	108.7167
5707150000		0.76763	107.6842
5807100000		0.76914	106.6326
5907050000		0.77048	105.6102
6007000000		0.77188	104.5785
6106950000		0.77324	103.5793
6206900000		0.7748	102.5774
6306850000		0.77616	101.5985
6406800000		0.77773	100.6333
6506750000		0.77954	99.679
6606700000		0.78137	98.7262
6706650000		0.78348	97.7772
6806600000		0.78552	96.8194
6906550000		0.78779	95.8565
7006500000		0.79006	94.8864
7106450000		0.79219	93.904
7206400000		0.79441	92.9067
7306350000		0.79615	91.8768
!
!				Infineon Technologies AG
