! Infineon Technologies  Discrete & RF Semiconductors
! BAT17-04W
! IAC = 8 mA
! One-Port S-Parameters
# Hz  S  MA  R  50
!f									S11
!Hz							Mag  Ang
309850000		0.79041	174.8512
409800000		0.78932	173.3071
509750000		0.78845	171.815
609700000		0.78782	170.2985
709650000		0.78739	168.7931
809600000		0.78706	167.2977
909550000		0.78679	165.8108
1009500000		0.78668	164.3323
1109450000		0.78662	162.8689
1209400000		0.78657	161.4118
1309350000		0.78645	159.9749
1409300000		0.78647	158.55
1509250000		0.78655	157.1411
1609200000		0.7866	155.7488
1709150000		0.78673	154.3677
1809100000		0.78677	153.0131
1909050000		0.78671	151.7081
2009000000		0.78729	150.3261
2108950000		0.7873	149.0427
2208900000		0.78761	147.7539
2308850000		0.78792	146.4804
2408800000		0.78811	145.2464
2508750000		0.78874	143.9656
2608700000		0.78938	142.7278
2708650000		0.78983	141.4734
2808600000		0.79048	140.286
2908550000		0.79107	139.0732
3008500000		0.79183	137.8669
3108450000		0.79225	136.7016
3208400000		0.79304	135.4853
3308350000		0.79367	134.2952
3408300000		0.79427	133.1243
3508250000		0.79489	131.9355
3608200000		0.79561	130.7841
3708150000		0.79613	129.6556
3808100000		0.79692	128.4667
3908050000		0.7976	127.3178
4008000000		0.7984	126.1682
4107950000		0.79913	125.0195
4207900000		0.79981	123.9077
4307850000		0.8008	122.7321
4407800000		0.80172	121.5914
4507750000		0.80277	120.4531
4607700000		0.80398	119.3019
4707650000		0.80499	118.1325
4807600000		0.80563	116.9804
4907550000		0.80653	115.8404
5007500000		0.80723	114.6988
5107450000		0.80817	113.5753
5207400000		0.80888	112.4349
5307350000		0.80954	111.3244
5407300000		0.81009	110.1958
5507250000		0.81055	109.1165
5607200000		0.8111	108.0433
5707150000		0.8119	107.0041
5807100000		0.81289	105.9441
5907050000		0.81376	104.917
6007000000		0.81472	103.8824
6106950000		0.81559	102.8786
6206900000		0.81667	101.8742
6306850000		0.81761	100.8872
6406800000		0.81871	99.917
6506750000		0.82005	98.9609
6606700000		0.82147	98.0042
6706650000		0.82321	97.0482
6806600000		0.82482	96.0875
6906550000		0.82661	95.1236
7006500000		0.82851	94.1489
7106450000		0.83029	93.1612
7206400000		0.83206	92.1601
7306350000		0.83332	91.1289
!
!				Infineon Technologies AG
