! Infineon Technologies  Discrete & RF Semiconductors
! BAT17-04W
! IAC = 0.09 mA
! One-Port S-Parameters
# Hz  S  MA  R  50
!f									S11
!Hz							Mag  Ang
309850000		0.79528	-7.707
409800000		0.7952	-10.1887
509750000		0.79407	-12.7121
609700000		0.79385	-15.2639
709650000		0.7957	-17.8632
809600000		0.7891	-20.5191
909550000		0.78935	-23.1921
1009500000		0.791	-25.7439
1109450000		0.79318	-28.3082
1209400000		0.78698	-30.913
1309350000		0.78472	-33.7164
1409300000		0.78196	-36.471
1509250000		0.77885	-39.2786
1609200000		0.77744	-42.0607
1709150000		0.78478	-44.5249
1809100000		0.78221	-47.4696
1909050000		0.7767	-50.4137
2009000000		0.77005	-53.4727
2108950000		0.77472	-56.2973
2208900000		0.77093	-59.3061
2308850000		0.76795	-62.3466
2408800000		0.76393	-65.433
2508750000		0.76497	-68.3373
2608700000		0.76434	-71.4161
2708650000		0.7605	-74.5971
2808600000		0.76423	-77.5072
2908550000		0.75993	-80.7898
3008500000		0.75623	-83.839
3108450000		0.75437	-87.0606
3208400000		0.75831	-89.9745
3308350000		0.75727	-93.2036
3408300000		0.75344	-96.5163
3508250000		0.75225	-99.776
3608200000		0.75333	-102.7968
3708150000		0.75107	-106.1347
3808100000		0.74821	-109.4577
3908050000		0.74512	-112.8194
4008000000		0.74224	-116.1921
4107950000		0.74215	-119.3985
4207900000		0.74621	-122.3407
4307850000		0.74873	-125.3185
4407800000		0.74545	-128.7643
4507750000		0.74345	-132.1045
4607700000		0.74348	-135.3152
4707650000		0.7489	-138.1028
4807600000		0.74782	-141.4071
4907550000		0.74969	-144.5037
5007500000		0.74903	-147.8312
5107450000		0.74958	-151.0276
5207400000		0.75157	-154.1394
5307350000		0.75406	-157.1838
5407300000		0.75572	-160.2856
5507250000		0.75564	-163.5256
5607200000		0.75688	-166.6396
5707150000		0.75925	-169.6137
5807100000		0.76121	-172.5958
5907050000		0.76113	-175.7482
6007000000		0.76398	-178.5874
6106950000		0.76658	178.6113
6206900000		0.76868	175.7887
6306850000		0.76921	172.8392
6406800000		0.77035	169.9987
6506750000		0.77253	167.2817
6606700000		0.77433	164.572
6706650000		0.77605	161.8475
6806600000		0.77874	159.2838
6906550000		0.78046	156.6024
7006500000		0.78402	154.1572
7106450000		0.78702	151.6506
7206400000		0.78974	149.1776
7306350000		0.7916	146.6247
!
!				Infineon Technologies AG
