! Infineon Technologies  Discrete & RF Semiconductors
! BAT17-04W
! IAC = 3 mA
! One-Port S-Parameters
# Hz  S  MA  R  50
!f									S11
!Hz							Mag  Ang
309850000		0.62087	175.0028
409800000		0.6206	173.4555
509750000		0.62036	171.984
609700000		0.62029	170.5058
709650000		0.61987	169.094
809600000		0.61971	167.6581
909550000		0.62024	166.2431
1009500000		0.62103	164.8093
1109450000		0.62167	163.3983
1209400000		0.62236	161.9918
1309350000		0.62275	160.6107
1409300000		0.62352	159.2371
1509250000		0.62453	157.8795
1609200000		0.62554	156.5329
1709150000		0.62683	155.1895
1809100000		0.62788	153.8906
1909050000		0.62891	152.6021
2009000000		0.63	151.3113
2108950000		0.6312	150.076
2208900000		0.63225	148.8459
2308850000		0.63353	147.6298
2408800000		0.63449	146.4223
2508750000		0.63592	145.2265
2608700000		0.63751	144.0443
2708650000		0.63879	142.8741
2808600000		0.64084	141.705
2908550000		0.64228	140.5457
3008500000		0.64423	139.3439
3108450000		0.64577	138.2025
3208400000		0.64773	137.0671
3308350000		0.64924	135.9414
3408300000		0.65087	134.8235
3508250000		0.65253	133.6884
3608200000		0.65467	132.5641
3708150000		0.65638	131.4565
3808100000		0.65782	130.357
3908050000		0.65938	129.2576
4008000000		0.66147	128.1445
4107950000		0.66336	127.0384
4207900000		0.66533	125.937
4307850000		0.66726	124.8304
4407800000		0.66941	123.7322
4507750000		0.67144	122.6384
4607700000		0.67377	121.522
4707650000		0.6759	120.3883
4807600000		0.6777	119.2838
4907550000		0.67969	118.1857
5007500000		0.68164	117.0879
5107450000		0.68423	115.9789
5207400000		0.68608	114.8815
5307350000		0.68798	113.8086
5407300000		0.68988	112.7093
5507250000		0.69199	111.6476
5607200000		0.69412	110.5907
5707150000		0.69636	109.5709
5807100000		0.69866	108.5306
5907050000		0.70097	107.515
6007000000		0.70318	106.4993
6106950000		0.70538	105.5083
6206900000		0.7078	104.5142
6306850000		0.71003	103.5451
6406800000		0.71245	102.5874
6506750000		0.71515	101.6372
6606700000		0.7178	100.6905
6706650000		0.72066	99.7477
6806600000		0.72344	98.8
6906550000		0.7266	97.8375
7006500000		0.72962	96.8732
7106450000		0.7325	95.9013
7206400000		0.73551	94.9062
7306350000		0.73806	93.8759
!
!				Infineon Technologies AG
