! Infineon Technologies  Discrete & RF Semiconductors
! BAT17-04W
! IAC = 0.02 mA
! One-Port S-Parameters
# Hz  S  MA  R  50
!f									S11
!Hz							Mag  Ang
309850000		0.95087	-7.3344
409800000		0.95039	-9.6769
509750000		0.94941	-12.0606
609700000		0.94879	-14.4413
709650000		0.94866	-16.8285
809600000		0.9459	-19.2985
909550000		0.9452	-21.7276
1009500000		0.94512	-24.1264
1109450000		0.94496	-26.5241
1209400000		0.94248	-29.0624
1309350000		0.94084	-31.5942
1409300000		0.93916	-34.1621
1509250000		0.93754	-36.744
1609200000		0.93616	-39.3421
1709150000		0.93738	-41.7497
1809100000		0.93563	-44.437
1909050000		0.93295	-47.2081
2009000000		0.92973	-50.0557
2108950000		0.92984	-52.6797
2208900000		0.92722	-55.4881
2308850000		0.92491	-58.3345
2408800000		0.92191	-61.2751
2508750000		0.92077	-64.0169
2608700000		0.91914	-66.878
2708650000		0.91651	-69.8852
2808600000		0.91595	-72.6077
2908550000		0.91265	-75.6732
3008500000		0.90955	-78.6392
3108450000		0.90712	-81.6719
3208400000		0.90688	-84.4197
3308350000		0.90465	-87.4591
3408300000		0.90165	-90.6168
3508250000		0.89954	-93.7131
3608200000		0.89801	-96.5788
3708150000		0.89547	-99.7384
3808100000		0.89244	-102.9508
3908050000		0.88942	-106.1889
4008000000		0.88654	-109.4066
4107950000		0.88467	-112.4868
4207900000		0.88421	-115.331
4307850000		0.88318	-118.2373
4407800000		0.88023	-121.5423
4507750000		0.87764	-124.8016
4607700000		0.87603	-127.9347
4707650000		0.87649	-130.6867
4807600000		0.87449	-133.9563
4907550000		0.87368	-137.0265
5007500000		0.87203	-140.3024
5107450000		0.87102	-143.4271
5207400000		0.87024	-146.5405
5307350000		0.86971	-149.5951
5407300000		0.86888	-152.711
5507250000		0.86752	-155.9377
5607200000		0.86658	-159.0655
5707150000		0.86596	-162.0682
5807100000		0.86505	-165.1164
5907050000		0.86328	-168.3197
6007000000		0.86273	-171.2387
6106950000		0.86197	-174.1265
6206900000		0.86119	-177.0256
6306850000		0.85969	179.9206
6406800000		0.8586	176.9817
6506750000		0.85804	174.1698
6606700000		0.85737	171.3616
6706650000		0.85698	168.5205
6806600000		0.85686	165.8374
6906550000		0.85677	163.0538
7006500000		0.85728	160.4938
7106450000		0.85779	157.8559
7206400000		0.85796	155.2722
7306350000		0.85767	152.5972
!
!				Infineon Technologies AG
