! Infineon Technologies  Discrete & RF Semiconductors
! BAT17-04W
! IAC = 0.05 mA
! One-Port S-Parameters
# Hz  S  MA  R  50
!f									S11
!Hz							Mag  Ang
309850000		0.88127	-7.4735
409800000		0.8816	-9.9732
509750000		0.8805	-12.4325
609700000		0.8802	-14.9008
709650000		0.88102	-17.3994
809600000		0.87618	-19.9668
909550000		0.87587	-22.5144
1009500000		0.87678	-24.9966
1109450000		0.8778	-27.4851
1209400000		0.87352	-30.0947
1309350000		0.87139	-32.7418
1409300000		0.86903	-35.4063
1509250000		0.86675	-38.102
1609200000		0.86529	-40.7944
1709150000		0.86973	-43.2423
1809100000		0.86753	-46.0532
1909050000		0.8634	-48.9213
2009000000		0.85819	-51.8476
2108950000		0.86081	-54.6007
2208900000		0.85748	-57.5169
2308850000		0.85478	-60.4603
2408800000		0.85095	-63.49
2508750000		0.85089	-66.3218
2608700000		0.84974	-69.2896
2708650000		0.84636	-72.3914
2808600000		0.84786	-75.1848
2908550000		0.8439	-78.3842
3008500000		0.84056	-81.4004
3108450000		0.83801	-84.4986
3208400000		0.84018	-87.3657
3308350000		0.83838	-90.5024
3408300000		0.8346	-93.712
3508250000		0.83298	-96.9282
3608200000		0.83283	-99.8751
3708150000		0.83022	-103.1271
3808100000		0.82699	-106.4076
3908050000		0.82374	-109.7159
4008000000		0.82073	-113.0179
4107950000		0.81961	-116.1659
4207900000		0.82136	-119.062
4307850000		0.82201	-122.0043
4407800000		0.81877	-125.3879
4507750000		0.81615	-128.697
4607700000		0.81527	-131.873
4707650000		0.81828	-134.6482
4807600000		0.81647	-137.9416
4907550000		0.81684	-141.0294
5007500000		0.8155	-144.3397
5107450000		0.81525	-147.5069
5207400000		0.81563	-150.6238
5307350000		0.81646	-153.6765
5407300000		0.81675	-156.7906
5507250000		0.81589	-160.0286
5607200000		0.81588	-163.1542
5707150000		0.81667	-166.1446
5807100000		0.81711	-169.1629
5907050000		0.81603	-172.3447
6007000000		0.81709	-175.2235
6106950000		0.81792	-178.0712
6206900000		0.81847	179.066
6306850000		0.81784	176.0629
6406800000		0.81776	173.1742
6506750000		0.81844	170.4094
6606700000		0.81892	167.6505
6706650000		0.8195	164.8699
6806600000		0.82069	162.2464
6906550000		0.82137	159.5159
7006500000		0.82337	157.0158
7106450000		0.82506	154.447
7206400000		0.82644	151.9187
7306350000		0.82719	149.3086
!
!				Infineon Technologies AG
