! Infineon Technologies  Discrete & RF Semiconductors
! BAT17-04W
! VCA = 0.7 V
! One-Port S-Parameters
# Hz  S  MA  R  50
!f									S11
!Hz							Mag  Ang
309850000		0.99903	-4.937
409800000		0.99863	-6.5306
509750000		0.99815	-8.1289
609700000		0.9975	-9.7283
709650000		0.99682	-11.3315
809600000		0.99614	-12.9389
909550000		0.99537	-14.5564
1009500000		0.99468	-16.1862
1109450000		0.99392	-17.8205
1209400000		0.99329	-19.469
1309350000		0.99258	-21.1438
1409300000		0.99194	-22.8379
1509250000		0.99127	-24.5438
1609200000		0.99066	-26.2833
1709150000		0.99003	-28.0436
1809100000		0.98928	-29.8302
1909050000		0.9884	-31.6381
2009000000		0.98739	-33.4643
2108950000		0.98666	-35.3485
2208900000		0.98551	-37.1928
2308850000		0.98435	-39.0899
2408800000		0.98306	-40.9697
2508750000		0.98219	-42.9477
2608700000		0.98111	-44.9186
2708650000		0.98034	-46.9182
2808600000		0.97874	-48.942
2908550000		0.97748	-50.9747
3008500000		0.97585	-53.0114
3108450000		0.97474	-55.1269
3208400000		0.97346	-57.2401
3308350000		0.97206	-59.3598
3408300000		0.97068	-61.5164
3508250000		0.96966	-63.7045
3608200000		0.96788	-65.8804
3708150000		0.96638	-68.0934
3808100000		0.96492	-70.3342
3908050000		0.96341	-72.5924
4008000000		0.96187	-74.8786
4107950000		0.96019	-77.1831
4207900000		0.95856	-79.5082
4307850000		0.95682	-81.8496
4407800000		0.95502	-84.2145
4507750000		0.95341	-86.5927
4607700000		0.95198	-89.0096
4707650000		0.9504	-91.4456
4807600000		0.94897	-93.9149
4907550000		0.94746	-96.4208
5007500000		0.9461	-98.9534
5107450000		0.94479	-101.5217
5207400000		0.94352	-104.1164
5307350000		0.94217	-106.7625
5407300000		0.94086	-109.4409
5507250000		0.93945	-112.1632
5607200000		0.93799	-114.9162
5707150000		0.93652	-117.7163
5807100000		0.9348	-120.5531
5907050000		0.93289	-123.4286
6007000000		0.93077	-126.3302
6106950000		0.92844	-129.2544
6206900000		0.92597	-132.1957
6306850000		0.92342	-135.1574
6406800000		0.92072	-138.1248
6506750000		0.91803	-141.1007
6606700000		0.91519	-144.0777
6706650000		0.91261	-147.0713
6806600000		0.90976	-150.0643
6906550000		0.90734	-153.0675
7006500000		0.90461	-156.0787
7106450000		0.90233	-159.1104
7206400000		0.89917	-162.157
7306350000		0.8961	-165.2514
!
!				Infineon Technologies AG
