! Infineon Technologies  Discrete & RF Semiconductors
! BAT15-02ELS
! IAC = 50 mA
! One-Port S-Parameters
# Hz  S  MA  R  50
!f									S11
!Hz							Mag  Ang
309850000		0.70143	178.8655
334837500		0.70117	178.8191
359825000		0.70079	178.757
384812500		0.70069	178.6373
409800000		0.70054	178.5586
434787500		0.70046	178.5168
459775000		0.70071	178.4491
484762500		0.70037	178.3645
509750000		0.7	178.3291
534737500		0.70012	178.2237
559725000		0.6999	178.1775
584712500		0.69982	178.0863
609700000		0.69966	178.0507
634687500		0.69913	177.9322
659675000		0.69886	177.9144
684662500		0.69898	177.8001
709650000		0.69897	177.7153
734637500		0.69886	177.6875
759625000		0.69877	177.6088
784612500		0.69873	177.5442
809600000		0.69869	177.5104
834587500		0.69895	177.405
859575000		0.69873	177.3647
884562500		0.69869	177.2563
909550000		0.69856	177.184
934537500		0.69837	177.1072
959525000		0.69819	177.0318
984512500		0.698	176.9644
1009500000		0.6978	176.8899
1034487500		0.69763	176.8262
1059475000		0.69752	176.7564
1084462500		0.69738	176.6937
1109450000		0.69744	176.6429
1134437500		0.69767	176.5817
1159425000		0.69783	176.5111
1184412500		0.69777	176.4362
1209400000		0.69778	176.3522
1234387500		0.69769	176.2576
1259375000		0.69756	176.184
1284362500		0.69741	176.1386
1309350000		0.69728	176.0807
1334337500		0.69706	175.9979
1359325000		0.69689	175.9159
1384312500		0.69696	175.8391
1409300000		0.6967	175.7731
1434287500		0.69646	175.7399
1459275000		0.69644	175.6762
1484262500		0.69623	175.6096
1509250000		0.69654	175.5469
1534237500		0.69698	175.4707
1559225000		0.69711	175.4066
1584212500		0.69712	175.3416
1609200000		0.69713	175.2375
1634187500		0.6968	175.1328
1659175000		0.69662	175.0759
1684162500		0.69666	175.0324
1709150000		0.69644	174.9664
1734137500		0.69597	174.896
1759125000		0.69589	174.8151
1784112500		0.69575	174.727
1809100000		0.69543	174.677
1834087500		0.69537	174.643
1859075000		0.69533	174.5507
1884062500		0.6952	174.5214
1909050000		0.6955	174.4619
1934037500		0.69594	174.3932
1959025000		0.69606	174.3513
1984012500		0.69624	174.2581
2009000000		0.69634	174.1762
2033987500		0.6962	174.0446
2058975000		0.69587	174.0022
2083962500		0.69593	173.9449
2108950000		0.69571	173.8677
2133937500		0.69525	173.8082
2158925000		0.6951	173.7457
2183912500		0.69524	173.6126
2208900000		0.69489	173.5402
2233887500		0.6949	173.528
2258875000		0.6949	173.4653
2283862500		0.69468	173.415
2308850000		0.69484	173.3529
2333837500		0.69511	173.2636
2358825000		0.69515	173.2105
2383812500		0.69528	173.156
2408800000		0.69514	173.0858
2433787500		0.69509	172.9409
2458775000		0.69474	172.9223
2483762500		0.69484	172.8447
2508750000		0.69472	172.7843
2533737500		0.6945	172.729
2558725000		0.69431	172.6539
2583712500		0.69425	172.5496
2608700000		0.69433	172.431
2633687500		0.69407	172.4451
2658675000		0.69403	172.3731
2683662500		0.69376	172.3246
2708650000		0.69358	172.2723
2733637500		0.69379	172.131
2758625000		0.69385	172.1065
2783612500		0.69394	172.0651
2808600000		0.69386	171.9884
2833587500		0.69378	171.9386
2858575000		0.69361	171.887
2883562500		0.69386	171.7866
2908550000		0.69387	171.734
2933537500		0.69369	171.6741
2958525000		0.69341	171.6294
2983512500		0.69363	171.4918
3008500000		0.69362	171.4243
3033487500		0.69365	171.377
3058475000		0.69356	171.3172
3083462500		0.69338	171.2391
3108450000		0.6933	171.1462
3133437500		0.69313	171.1124
3158425000		0.69337	171.0362
3183412500		0.69335	170.9732
3208400000		0.69306	170.9006
3233387500		0.69296	170.8285
3258375000		0.6931	170.7531
3283362500		0.69305	170.6994
3308350000		0.69297	170.6451
3333337500		0.69271	170.574
3358325000		0.69253	170.535
3383312500		0.69275	170.4396
3408300000		0.69282	170.3762
3433287500		0.69271	170.3203
3458275000		0.69266	170.2639
3483262500		0.69275	170.1834
3508250000		0.69278	170.1056
3533237500		0.69271	170.0481
3558225000		0.69277	169.9894
3583212500		0.6926	169.9447
3608200000		0.69253	169.832
3633187500		0.69251	169.7734
3658175000		0.69265	169.7093
3683162500		0.69242	169.6403
3708150000		0.69235	169.5495
3733137500		0.6923	169.5104
3758125000		0.69216	169.4608
3783112500		0.69214	169.3775
3808100000		0.69215	169.3305
3833087500		0.69218	169.2615
3858075000		0.6921	169.199
3883062500		0.69212	169.1388
3908050000		0.69219	169.0761
3933037500		0.69208	169.0174
3958025000		0.69215	168.9589
3983012500		0.69223	168.8808
4008000000		0.69217	168.8069
4032987500		0.69204	168.7595
4057975000		0.69215	168.6829
4082962500		0.69208	168.5939
4107950000		0.69192	168.5315
4132937500		0.69196	168.4785
4157925000		0.69192	168.404
4182912500		0.69167	168.3328
4207900000		0.69163	168.2755
4232887500		0.69179	168.2164
4257875000		0.69169	168.1552
4282862500		0.69147	168.1039
4307850000		0.69149	168.0405
4332837500		0.69147	167.9592
4357825000		0.69143	167.902
4382812500		0.69157	167.8569
4407800000		0.69149	167.7859
4432787500		0.69127	167.7182
4457775000		0.69139	167.6472
4482762500		0.69132	167.6069
4507750000		0.69148	167.5304
4532737500		0.6915	167.4752
4557725000		0.69136	167.3898
4582712500		0.6912	167.3245
4607700000		0.69133	167.2875
4632687500		0.69152	167.2348
4657675000		0.69126	167.1675
4682662500		0.69092	167.0984
4707650000		0.69094	167.0165
4732637500		0.6911	166.9465
4757625000		0.69114	166.8945
4782612500		0.6909	166.8425
4807600000		0.69072	166.7738
4832587500		0.69081	166.6833
4857575000		0.69087	166.6163
4882562500		0.69101	166.5834
4907550000		0.6911	166.539
4932537500		0.69089	166.4645
4957525000		0.6907	166.3954
4982512500		0.6909	166.3435
5007500000		0.69111	166.2947
5032487500		0.691	166.2396
5057475000		0.69071	166.1741
5082462500		0.69067	166.0993
5107450000		0.69084	166.0187
5132437500		0.69084	165.9551
5157425000		0.69072	165.9105
5182412500		0.69068	165.849
5207400000		0.69058	165.7573
5232387500		0.69052	165.6856
5257375000		0.69058	165.6391
5282362500		0.69063	165.5899
5307350000		0.69055	165.5254
5332337500		0.69046	165.4549
5357325000		0.69053	165.3956
5382312500		0.69063	165.3426
5407300000		0.69062	165.2928
5432287500		0.6905	165.2344
5457275000		0.69039	165.1731
5482262500		0.69048	165.1107
5507250000		0.69059	165.0397
5532237500		0.69041	164.9692
5557225000		0.69024	164.9163
5582212500		0.69038	164.8612
5607200000		0.69047	164.78
5632187500		0.6901	164.7105
5657175000		0.69002	164.6649
5682162500		0.69038	164.5832
5707150000		0.69043	164.5082
5732137500		0.6903	164.4747
5757125000		0.69039	164.444
5782112500		0.69039	164.367
5807100000		0.69028	164.2858
5832087500		0.69038	164.2319
5857075000		0.69059	164.1863
5882062500		0.69054	164.134
5907050000		0.69014	164.0621
5932037500		0.69004	163.9889
5957025000		0.69021	163.9055
5982012500		0.69024	163.8375
6007000000		0.69007	163.7921
6031987500		0.69004	163.7214
6056975000		0.69003	163.6188
6081962500		0.6902	163.5529
6106950000		0.69052	163.5203
6131937500		0.69051	163.4946
6156925000		0.69034	163.457
6181912500		0.69037	163.3762
6206900000		0.69027	163.2884
6231887500		0.6902	163.2624
6256875000		0.69044	163.2382
6281862500		0.69021	163.1481
6306850000		0.68963	163.0547
6331837500		0.68963	162.9852
6356825000		0.6901	162.9025
6381812500		0.68993	162.8332
6406800000		0.68966	162.7944
6431787500		0.68981	162.7147
6456775000		0.68995	162.6176
6481762500		0.69004	162.5731
6506750000		0.69031	162.5485
6531737500		0.69031	162.5014
6556725000		0.69008	162.4526
6581712500		0.69012	162.3927
6606700000		0.69018	162.3345
6631687500		0.69006	162.2947
6656675000		0.68992	162.2415
6681662500		0.68981	162.164
6706650000		0.68988	162.0855
6731637500		0.69001	162.0151
6756625000		0.68993	161.9413
6781612500		0.68966	161.8736
6806600000		0.68976	161.8056
6831587500		0.69007	161.7298
6856575000		0.69023	161.6665
6881562500		0.69007	161.6234
6906550000		0.68994	161.5817
6931537500		0.68995	161.5307
6956525000		0.69018	161.4715
6981512500		0.69026	161.4296
7006500000		0.69021	161.4
7031487500		0.69012	161.3445
7056475000		0.68995	161.2653
7081462500		0.68994	161.1952
7106450000		0.68996	161.134
7131437500		0.68982	161.0726
7156425000		0.6897	160.9966
7181412500		0.68953	160.9021
7206400000		0.68956	160.8332
7231387500		0.69006	160.7705
7256375000		0.69014	160.6925
7281362500		0.68996	160.6431
7306350000		0.69019	160.5973
7331337500		0.69041	160.5365
7356325000		0.69039	160.5085
7381312500		0.69058	160.489
7406300000		0.69053	160.4236
7431287500		0.69026	160.3626
7456275000		0.6902	160.3174
7481262500		0.69018	160.2417
7506250000		0.68993	160.1542
7531237500		0.68988	160.0735
7556225000		0.69007	159.9834
7581212500		0.69005	159.9104
7606200000		0.69014	159.8575
7631187500		0.69026	159.7809
7656175000		0.69031	159.7044
7681162500		0.69061	159.6678
7706150000		0.69093	159.6588
7731137500		0.69098	159.6367
7756125000		0.69065	159.5853
7781112500		0.69039	159.5253
7806100000		0.69055	159.4686
7831087500		0.69059	159.4027
7856075000		0.69008	159.3632
7881062500		0.6899	159.3
7906050000		0.68993	159.1693
7931037500		0.68999	159.0642
7956025000		0.6903	159.009
7981012500		0.69046	158.953
8006000000		0.69011	158.8825
8030987500		0.69006	158.8105
8055975000		0.69063	158.7345
8080962500		0.69108	158.6989
8105950000		0.69101	158.7026
8130937500		0.69063	158.6975
8155925000		0.69038	158.6299
8180912500		0.69042	158.5345
8205900000		0.69052	158.4825
8230887500		0.69059	158.4554
8255875000		0.6902	158.3913
8280862500		0.68969	158.2937
8305850000		0.68981	158.1828
8330837500		0.6902	158.0869
8355825000		0.69018	158.0372
8380812500		0.69014	158.0008
8405800000		0.69013	157.9112
8430787500		0.69016	157.8246
8455775000		0.69067	157.805
8480762500		0.69121	157.7925
8505750000		0.69094	157.7698
8530737500		0.69051	157.7425
8555725000		0.69061	157.6747
8580712500		0.69075	157.5947
8605700000		0.69074	157.5534
8630687500		0.69057	157.5133
8655675000		0.69029	157.4352
8680662500		0.69018	157.3253
8705650000		0.69017	157.2203
8730637500		0.69037	157.1334
8755625000		0.69049	157.059
8780612500		0.69045	156.9957
8805600000		0.69067	156.9494
8830587500		0.69101	156.9012
8855575000		0.69111	156.8685
8880562500		0.6912	156.8455
8905550000		0.69124	156.8202
8930537500		0.69118	156.7801
8955525000		0.6911	156.7294
8980512500		0.69093	156.6633
9005500000		0.69083	156.5771
9030487500		0.6907	156.4839
9055475000		0.69056	156.4152
9080462500		0.69059	156.3303
9105450000		0.69051	156.2146
9130437500		0.69044	156.1124
9155425000		0.69083	156.0436
9180412500		0.69138	156
9205400000		0.69141	155.9815
9230387500		0.69123	155.9523
9255375000		0.69127	155.8912
9280362500		0.69135	155.8371
9305350000		0.69159	155.8267
9330337500		0.69175	155.8236
9355325000		0.69141	155.767
9380312500		0.69085	155.6781
9405300000		0.69086	155.591
9430287500		0.69124	155.5181
9455275000		0.69133	155.4539
9480262500		0.69087	155.381
9505250000		0.69065	155.2744
9530237500		0.69075	155.1514
9555225000		0.69105	155.0823
9580212500		0.69151	155.0588
9605200000		0.6916	154.9999
9630187500		0.6911	154.9305
9655175000		0.69144	154.9006
9680162500		0.69229	154.8505
9705150000		0.69226	154.8139
9730137500		0.69175	154.826
9755125000		0.6918	154.7636
9780112500		0.69175	154.6503
9805100000		0.69159	154.5932
9830087500		0.69172	154.5542
9855075000		0.69146	154.4721
9880062500		0.69106	154.3502
9905050000		0.69113	154.2395
9930037500		0.6916	154.1674
9955025000		0.69177	154.1243
9980012500		0.69157	154.0738
10005000000		0.69152	154.0115
10029987500		0.69193	153.9472
10054975000		0.69214	153.9219
10079962500		0.69212	153.928
10104950000		0.69196	153.8928
10129937500		0.69169	153.8058
10154925000		0.69175	153.7489
10179912500		0.69207	153.7092
10204900000		0.6918	153.6733
10229887500		0.69133	153.6148
10254875000		0.69147	153.4824
10279862500		0.69178	153.3366
10304850000		0.69207	153.3061
10329837500		0.6925	153.3119
10354825000		0.69231	153.2292
10379812500		0.69195	153.1205
10404800000		0.69252	153.0634
10429787500		0.69332	153.0511
10454775000		0.69331	153.071
10479762500		0.69279	153.0496
10504750000		0.69252	152.9563
10529737500		0.69289	152.8597
10554725000		0.69324	152.8249
10579712500		0.69322	152.8357
10604700000		0.69278	152.7719
10629687500		0.69213	152.6316
10654675000		0.69237	152.5078
10679662500		0.69327	152.4481
10704650000		0.69357	152.4082
10729637500		0.6931	152.3904
10754625000		0.69287	152.2606
10779612500		0.69317	152.1529
10804600000		0.6942	152.1499
10829587500		0.6949	152.1738
10854575000		0.69429	152.1682
10879562500		0.69367	152.1226
10904550000		0.69411	152.0273
10929537500		0.69446	151.939
10954525000		0.69441	151.9352
10979512500		0.69403	151.9223
11004500000		0.69349	151.7969
11029487500		0.69328	151.6396
11054475000		0.69395	151.5478
11079462500		0.69432	151.5278
11104450000		0.6943	151.4681
11129437500		0.69417	151.4091
11154425000		0.69455	151.3167
11179412500		0.69513	151.2648
11204400000		0.69541	151.2868
11229387500		0.6954	151.3027
11254375000		0.69503	151.2514
11279362500		0.69476	151.1845
11304350000		0.69505	151.1143
11329337500		0.69527	151.0301
11354325000		0.69475	150.9809
11379312500		0.6948	150.9283
11404300000		0.69514	150.793
11429287500		0.69489	150.6829
11454275000		0.695	150.6589
11479262500		0.69562	150.6077
11504250000		0.69553	150.5231
11529237500		0.69538	150.5019
11554225000		0.69597	150.4923
11579212500		0.69616	150.4204
11604200000		0.69561	150.3972
11629187500		0.69586	150.3458
11654175000		0.69621	150.2919
11679162500		0.69587	150.2136
11704150000		0.69536	150.1666
11729137500		0.6957	150.0811
11754125000		0.69601	149.9321
11779112500		0.6959	149.9258
11804100000		0.69622	149.8995
11829087500		0.69598	149.7993
11854075000		0.69542	149.7108
11879062500		0.69609	149.6621
11904050000		0.69674	149.5962
11929037500		0.69616	149.6312
11954025000		0.69616	149.6079
11979012500		0.69638	149.514
!
!				Infineon Technologies AG
