! Infineon Technologies  Discrete & RF Semiconductors
! BAT15-02ELS
! IAC = 7 mA
! One-Port S-Parameters
# Hz  S  MA  R  50
!f									S11
!Hz							Mag  Ang
309850000		0.67951	178.8795
334837500		0.67924	178.834
359825000		0.67895	178.7789
384812500		0.67892	178.6579
409800000		0.67874	178.578
434787500		0.67868	178.5376
459775000		0.67896	178.4717
484762500		0.67868	178.392
509750000		0.67848	178.3218
534737500		0.67864	178.2196
559725000		0.67845	178.171
584712500		0.67806	178.1488
609700000		0.67804	178.0772
634687500		0.67757	177.964
659675000		0.67744	177.9157
684662500		0.67735	177.8333
709650000		0.67728	177.7834
734637500		0.67733	177.7257
759625000		0.67726	177.6469
784612500		0.67728	177.5819
809600000		0.67733	177.5198
834587500		0.67751	177.4501
859575000		0.6775	177.3777
884562500		0.67724	177.304
909550000		0.67723	177.231
934537500		0.67699	177.1523
959525000		0.67678	177.0809
984512500		0.6767	177.012
1009500000		0.67649	176.9377
1034487500		0.67626	176.8765
1059475000		0.67626	176.8081
1084462500		0.67609	176.7464
1109450000		0.67613	176.6956
1134437500		0.67643	176.6359
1159425000		0.67659	176.5667
1184412500		0.67656	176.4896
1209400000		0.6766	176.4117
1234387500		0.67655	176.3154
1259375000		0.6764	176.2393
1284362500		0.67626	176.1948
1309350000		0.6762	176.138
1334337500		0.67595	176.0559
1359325000		0.67572	175.9753
1384312500		0.67578	175.8956
1409300000		0.67558	175.8291
1434287500		0.67541	175.7988
1459275000		0.67532	175.7361
1484262500		0.67518	175.6685
1509250000		0.67556	175.6056
1534237500		0.67595	175.5307
1559225000		0.67611	175.4674
1584212500		0.67618	175.4002
1609200000		0.67619	175.2956
1634187500		0.67588	175.1887
1659175000		0.67563	175.134
1684162500		0.67573	175.0914
1709150000		0.67556	175.0243
1734137500		0.67502	174.954
1759125000		0.67493	174.8765
1784112500		0.67489	174.7859
1809100000		0.67453	174.7345
1834087500		0.67448	174.6992
1859075000		0.67447	174.6124
1884062500		0.67431	174.5815
1909050000		0.67462	174.5229
1934037500		0.67513	174.4564
1959025000		0.67536	174.3776
1984012500		0.67543	174.3178
2009000000		0.67546	174.2378
2033987500		0.67523	174.1343
2058975000		0.67497	174.0657
2083962500		0.67509	174.0059
2108950000		0.67492	173.9277
2133937500		0.67434	173.8718
2158925000		0.67424	173.8088
2183912500		0.67415	173.738
2208900000		0.67406	173.6
2233887500		0.67408	173.5885
2258875000		0.67409	173.5274
2283862500		0.6739	173.4804
2308850000		0.67406	173.4186
2333837500		0.67431	173.3267
2358825000		0.67445	173.2723
2383812500		0.67457	173.218
2408800000		0.6743	173.1541
2433787500		0.67419	173.0365
2458775000		0.67385	173.0258
2483762500		0.67393	172.9429
2508750000		0.6738	172.8767
2533737500		0.67388	172.7636
2558725000		0.67355	172.7197
2583712500		0.67337	172.6526
2608700000		0.67365	172.4976
2633687500		0.67357	172.4755
2658675000		0.67332	172.4385
2683662500		0.67308	172.3921
2708650000		0.67304	172.3016
2733637500		0.67309	172.1992
2758625000		0.67318	172.1764
2783612500		0.67329	172.1324
2808600000		0.67316	172.0539
2833587500		0.6731	172.0047
2858575000		0.67312	171.9166
2883562500		0.67306	171.8874
2908550000		0.67323	171.8013
2933537500		0.67321	171.7092
2958525000		0.67299	171.6608
2983512500		0.67288	171.5976
3008500000		0.67303	171.4804
3033487500		0.67315	171.4323
3058475000		0.67303	171.376
3083462500		0.67265	171.3285
3108450000		0.67278	171.2011
3133437500		0.67277	171.1342
3158425000		0.67284	171.096
3183412500		0.6728	171.0328
3208400000		0.67256	170.9614
3233387500		0.67231	170.9215
3258375000		0.67257	170.809
3283362500		0.67257	170.7571
3308350000		0.67244	170.708
3333337500		0.67226	170.6346
3358325000		0.67221	170.5606
3383312500		0.6723	170.5032
3408300000		0.67239	170.4381
3433287500		0.67225	170.3841
3458275000		0.67215	170.3277
3483262500		0.67234	170.2453
3508250000		0.67237	170.1664
3533237500		0.67242	170.0823
3558225000		0.67225	170.0787
3583212500		0.67228	169.9706
3608200000		0.67214	169.8931
3633187500		0.67214	169.8345
3658175000		0.67226	169.7707
3683162500		0.67206	169.7021
3708150000		0.67197	169.6122
3733137500		0.67193	169.5742
3758125000		0.67193	169.488
3783112500		0.67178	169.4383
3808100000		0.67173	169.396
3833087500		0.67181	169.3249
3858075000		0.67169	169.2599
3883062500		0.67175	169.2019
3908050000		0.67183	169.1389
3933037500		0.67172	169.0805
3958025000		0.6717	169.0488
3983012500		0.67191	168.9389
4008000000		0.67182	168.8654
4032987500		0.67157	168.8534
4057975000		0.67185	168.7425
4082962500		0.67181	168.6566
4107950000		0.67163	168.5939
4132937500		0.67167	168.5418
4157925000		0.67181	168.4395
4182912500		0.6714	168.3991
4207900000		0.67135	168.3415
4232887500		0.67149	168.2809
4257875000		0.67142	168.2173
4282862500		0.67122	168.1694
4307850000		0.6712	168.1051
4332837500		0.6712	168.0215
4357825000		0.67118	167.9663
4382812500		0.67128	167.9195
4407800000		0.67127	167.8501
4432787500		0.67103	167.7803
4457775000		0.67104	167.7103
4482762500		0.67122	167.6405
4507750000		0.67123	167.5964
4532737500		0.67116	167.5423
4557725000		0.67115	167.4574
4582712500		0.671	167.3916
4607700000		0.67106	167.3526
4632687500		0.67126	167.3013
4657675000		0.67106	167.2352
4682662500		0.67074	167.1645
4707650000		0.67071	167.0853
4732637500		0.6709	167.0118
4757625000		0.67097	166.9588
4782612500		0.67074	166.9086
4807600000		0.67058	166.84
4832587500		0.67064	166.751
4857575000		0.67072	166.6806
4882562500		0.67088	166.6512
4907550000		0.67097	166.6072
4932537500		0.6708	166.5302
4957525000		0.67055	166.4657
4982512500		0.67069	166.4139
5007500000		0.67098	166.3647
5032487500		0.67088	166.307
5057475000		0.67063	166.2418
5082462500		0.67057	166.1681
5107450000		0.6707	166.0874
5132437500		0.67073	166.023
5157425000		0.67062	165.981
5182412500		0.67054	165.9203
5207400000		0.67053	165.8267
5232387500		0.67044	165.7592
5257375000		0.67046	165.7119
5282362500		0.67058	165.6618
5307350000		0.67048	165.5978
5332337500		0.67042	165.5273
5357325000		0.67054	165.4691
5382312500		0.6706	165.4167
5407300000		0.67059	165.3642
5432287500		0.67048	165.3048
5457275000		0.67041	165.2452
5482262500		0.67047	165.1841
5507250000		0.67057	165.1149
5532237500		0.67044	165.0433
5557225000		0.67028	164.9902
5582212500		0.67043	164.9361
5607200000		0.6705	164.8521
5632187500		0.67019	164.7884
5657175000		0.67009	164.7412
5682162500		0.67038	164.6595
5707150000		0.67054	164.5811
5732137500		0.67041	164.5534
5757125000		0.67045	164.5222
5782112500		0.67054	164.443
5807100000		0.67043	164.3623
5832087500		0.67052	164.3099
5857075000		0.67074	164.2672
5882062500		0.67071	164.2146
5907050000		0.67025	164.1432
5932037500		0.67013	164.0687
5957025000		0.67039	163.9857
5982012500		0.6704	163.9202
6007000000		0.67023	163.8731
6031987500		0.6702	163.8017
6056975000		0.67018	163.6958
6081962500		0.67037	163.6327
6106950000		0.67066	163.5993
6131937500		0.67077	163.5759
6156925000		0.67056	163.5422
6181912500		0.67057	163.4573
6206900000		0.6705	163.3683
6231887500		0.67049	163.343
6256875000		0.67067	163.3228
6281862500		0.67045	163.2322
6306850000		0.66986	163.1386
6331837500		0.66989	163.0693
6356825000		0.67034	162.988
6381812500		0.67021	162.9186
6406800000		0.66996	162.8799
6431787500		0.67009	162.8011
6456775000		0.67026	162.7006
6481762500		0.67038	162.6589
6506750000		0.67063	162.6359
6531737500		0.67064	162.5915
6556725000		0.67042	162.5407
6581712500		0.67051	162.479
6606700000		0.67056	162.421
6631687500		0.67043	162.3831
6656675000		0.67029	162.3323
6681662500		0.67016	162.2553
6706650000		0.67023	162.1742
6731637500		0.67041	162.1099
6756625000		0.67031	162.033
6781612500		0.67008	161.9662
6806600000		0.67015	161.8969
6831587500		0.67045	161.8223
6856575000		0.67062	161.7586
6881562500		0.67053	161.7159
6906550000		0.67036	161.6727
6931537500		0.67045	161.6227
6956525000		0.6706	161.5654
6981512500		0.67069	161.5242
7006500000		0.67065	161.4987
7031487500		0.67056	161.4441
7056475000		0.67045	161.3642
7081462500		0.67038	161.2947
7106450000		0.67041	161.2346
7131437500		0.67025	161.1763
7156425000		0.67012	161.0987
7181412500		0.67001	161.0024
7206400000		0.67015	160.9352
7231387500		0.67054	160.8718
7256375000		0.67068	160.7959
7281362500		0.67056	160.7468
7306350000		0.67083	160.7061
7331337500		0.67107	160.6433
7356325000		0.671	160.6172
7381312500		0.67111	160.6006
7406300000		0.67116	160.5315
7431287500		0.6708	160.471
7456275000		0.67071	160.4306
7481262500		0.67078	160.3583
7506250000		0.67048	160.2685
7531237500		0.67041	160.1843
7556225000		0.67064	160.0922
7581212500		0.67067	160.0198
7606200000		0.67076	159.9716
7631187500		0.67089	159.8973
7656175000		0.67093	159.8186
7681162500		0.67122	159.7807
7706150000		0.6716	159.7742
7731137500		0.67167	159.7569
7756125000		0.67127	159.7092
7781112500		0.67105	159.6475
7806100000		0.67125	159.5866
7831087500		0.67126	159.5226
7856075000		0.67076	159.4884
7881062500		0.67052	159.4289
7906050000		0.67058	159.2939
7931037500		0.67066	159.1826
7956025000		0.67102	159.1336
7981012500		0.67125	159.078
8006000000		0.67088	159.0093
8030987500		0.67076	158.9341
8055975000		0.67141	158.8574
8080962500		0.67194	158.8239
8105950000		0.6718	158.8346
8130937500		0.67141	158.8324
8155925000		0.67111	158.7653
8180912500		0.67116	158.6673
8205900000		0.67134	158.6155
8230887500		0.67135	158.5925
8255875000		0.67094	158.53
8280862500		0.67049	158.432
8305850000		0.67058	158.3168
8330837500		0.67096	158.2197
8355825000		0.67099	158.1774
8380812500		0.67096	158.1455
8405800000		0.67093	158.0517
8430787500		0.67097	157.9646
8455775000		0.67153	157.9454
8480762500		0.67209	157.9371
8505750000		0.6718	157.9168
8530737500		0.6713	157.8903
8555725000		0.67142	157.8188
8580712500		0.67172	157.739
8605700000		0.67167	157.6991
8630687500		0.67145	157.6636
8655675000		0.67116	157.5867
8680662500		0.67101	157.4746
8705650000		0.67109	157.3693
8730637500		0.67135	157.2852
8755625000		0.67144	157.2133
8780612500		0.67139	157.151
8805600000		0.67158	157.1035
8830587500		0.67196	157.0561
8855575000		0.67213	157.0266
8880562500		0.67215	157.0043
8905550000		0.67223	156.9804
8930537500		0.67215	156.9414
8955525000		0.6721	156.891
8980512500		0.67194	156.8267
9005500000		0.67177	156.742
9030487500		0.67165	156.653
9055475000		0.67155	156.5843
9080462500		0.67155	156.4975
9105450000		0.67148	156.3825
9130437500		0.6714	156.2813
9155425000		0.67182	156.2122
9180412500		0.67238	156.1704
9205400000		0.67245	156.1502
9230387500		0.67225	156.1231
9255375000		0.67229	156.0613
9280362500		0.67244	156.0074
9305350000		0.67267	156.0022
9330337500		0.67282	155.9984
9355325000		0.6725	155.9441
9380312500		0.67193	155.8545
9405300000		0.6719	155.7685
9430287500		0.67232	155.6975
9455275000		0.67242	155.6367
9480262500		0.67196	155.5637
9505250000		0.67174	155.4562
9530237500		0.6719	155.3327
9555225000		0.67218	155.2655
9580212500		0.67262	155.2469
9605200000		0.6727	155.1863
9630187500		0.6723	155.1176
9655175000		0.67263	155.0851
9680162500		0.6735	155.0375
9705150000		0.67347	155.004
9730137500		0.6729	155.0179
9755125000		0.67289	154.9561
9780112500		0.67293	154.8397
9805100000		0.67277	154.7896
9830087500		0.67281	154.7591
9855075000		0.67259	154.674
9880062500		0.67214	154.5473
9905050000		0.67221	154.4356
9930037500		0.67277	154.3702
9955025000		0.67296	154.328
9980012500		0.67269	154.2791
10005000000		0.67271	154.2096
10029987500		0.67318	154.141
10054975000		0.67338	154.1219
10079962500		0.67331	154.1332
10104950000		0.67323	154.0986
10129937500		0.67295	154.0127
10154925000		0.673	153.9511
10179912500		0.67334	153.9154
10204900000		0.67309	153.8897
10229887500		0.67253	153.8316
10254875000		0.67262	153.6963
10279862500		0.67301	153.5494
10304850000		0.67337	153.5193
10329837500		0.67369	153.5309
10354825000		0.67352	153.4494
10379812500		0.67318	153.3352
10404800000		0.67372	153.2735
10429787500		0.67462	153.2622
10454775000		0.67465	153.2914
10479762500		0.67407	153.2697
10504750000		0.67379	153.1737
10529737500		0.67422	153.0723
10554725000		0.67449	153.0439
10579712500		0.6745	153.0641
10604700000		0.674	153.0062
10629687500		0.67342	152.8598
10654675000		0.67362	152.7321
10679662500		0.67451	152.6725
10704650000		0.67487	152.6381
10729637500		0.67435	152.6243
10754625000		0.67406	152.491
10779612500		0.67449	152.3746
10804600000		0.67556	152.3749
10829587500		0.67624	152.4004
10854575000		0.67563	152.4017
10879562500		0.67492	152.3572
10904550000		0.67545	152.2598
10929537500		0.67588	152.1725
10954525000		0.67576	152.1735
10979512500		0.67531	152.1648
11004500000		0.67476	152.0395
11029487500		0.67457	151.8778
11054475000		0.6752	151.7864
11079462500		0.67585	151.7395
11104450000		0.67561	151.7105
11129437500		0.6754	151.6485
11154425000		0.67594	151.5545
11179412500		0.67657	151.5035
11204400000		0.67679	151.5263
11229387500		0.67678	151.5508
11254375000		0.67639	151.4992
11279362500		0.67612	151.4288
11304350000		0.67641	151.362
11329337500		0.67663	151.2795
11354325000		0.67616	151.2349
11379312500		0.67613	151.1807
11404300000		0.67653	151.0399
11429287500		0.67633	150.9284
11454275000		0.67637	150.9096
11479262500		0.677	150.859
11504250000		0.67695	150.7751
11529237500		0.67683	150.7531
11554225000		0.67743	150.7456
11579212500		0.67772	150.6738
11604200000		0.67708	150.6501
11629187500		0.67723	150.5999
11654175000		0.67767	150.5481
11679162500		0.67735	150.472
11704150000		0.67677	150.4267
11729137500		0.67721	150.3417
11754125000		0.6775	150.1886
11779112500		0.67736	150.1847
11804100000		0.67761	150.1607
11829087500		0.67744	150.0638
11854075000		0.67689	149.9736
11879062500		0.67748	149.9216
11904050000		0.67832	149.8571
11929037500		0.67784	149.8561
11954025000		0.67764	149.8719
11979012500		0.67785	149.7719
!
!				Infineon Technologies AG
