! Infineon Technologies  Discrete & RF Semiconductors
! BAT15-02ELS
! VCA = 1 V
! One-Port S-Parameters
# Hz  S  MA  R  50
!f									S11
!Hz							Mag  Ang
309850000		1.0003	-1.8484
334837500		1.0004	-2.0051
359825000		1.0005	-2.1713
384812500		1.0003	-2.274
409800000		1.0003	-2.4201
434787500		0.99993	-2.5676
459775000		1.0003	-2.7193
484762500		1.0005	-2.8712
509750000		1.0006	-3.0297
534737500		1.0003	-3.1862
559725000		1.0002	-3.3275
584712500		1.0005	-3.4871
609700000		1.0003	-3.6527
634687500		1.0004	-3.7807
659675000		0.99963	-3.9284
684662500		0.99974	-4.0419
709650000		0.99977	-4.1653
734637500		0.99987	-4.3481
759625000		0.99977	-4.4684
784612500		1.0001	-4.6033
809600000		1.0003	-4.7663
834587500		1.0004	-4.9276
859575000		1.0005	-5.0873
884562500		1.0006	-5.2546
909550000		1.0003	-5.4155
934537500		1.0001	-5.5577
959525000		1.0002	-5.7053
984512500		0.99998	-5.8563
1009500000		0.99978	-6.0012
1034487500		0.9996	-6.1439
1059475000		0.99935	-6.2588
1084462500		0.99979	-6.3897
1109450000		0.99968	-6.5379
1134437500		0.99962	-6.6598
1159425000		1.0003	-6.7927
1184412500		1.0009	-6.9692
1209400000		1.0007	-7.1486
1234387500		1.0004	-7.2937
1259375000		1.0005	-7.4477
1284362500		1.0003	-7.6232
1309350000		1.0001	-7.7817
1334337500		1.0002	-7.9183
1359325000		1.0002	-8.0723
1384312500		0.99959	-8.2137
1409300000		0.99961	-8.3436
1434287500		0.99936	-8.5093
1459275000		0.99904	-8.6062
1484262500		0.99974	-8.7082
1509250000		1.0001	-8.8477
1534237500		1.0004	-8.9803
1559225000		1.0013	-9.1562
1584212500		1.0015	-9.3704
1609200000		1.0011	-9.5406
1634187500		1.0011	-9.6854
1659175000		1.0012	-9.8801
1684162500		1.0004	-10.0741
1709150000		0.99995	-10.2177
1734137500		1	-10.3717
1759125000		0.9993	-10.5169
1784112500		0.99876	-10.6152
1809100000		0.99881	-10.7563
1834087500		0.99826	-10.8889
1859075000		0.99845	-10.981
1884062500		0.99888	-11.1318
1909050000		0.99891	-11.2256
1934037500		0.99922	-11.3566
1959025000		1.0001	-11.5516
1984012500		1.0004	-11.7532
2009000000		0.99994	-11.8861
2033987500		1.0001	-12.023
2058975000		1.0003	-12.2057
2083962500		0.99966	-12.3782
2108950000		0.99938	-12.5022
2133937500		1.0001	-12.6664
2158925000		0.99947	-12.8341
2183912500		0.99916	-12.926
2208900000		0.99968	-13.0623
2233887500		0.99869	-13.2009
2258875000		0.9985	-13.3134
2283862500		0.99928	-13.4901
2308850000		0.99955	-13.6721
2333837500		0.99959	-13.7958
2358825000		0.99967	-13.8983
2383812500		0.99997	-14.1575
2408800000		0.99946	-14.2435
2433787500		1.0001	-14.4354
2458775000		0.99971	-14.5608
2483762500		0.99942	-14.7398
2508750000		0.99922	-14.8953
2533737500		0.99935	-15.0637
2558725000		0.99917	-15.2093
2583712500		0.99896	-15.3286
2608700000		0.99884	-15.4575
2633687500		0.99846	-15.6108
2658675000		0.99847	-15.7792
2683662500		0.99833	-15.9273
2708650000		0.99839	-16.0618
2733637500		0.99842	-16.1477
2758625000		0.9981	-16.2746
2783612500		0.99812	-16.4428
2808600000		0.99862	-16.6424
2833587500		0.99861	-16.7746
2858575000		0.99858	-16.9085
2883562500		0.99853	-17.0686
2908550000		0.99847	-17.2409
2933537500		0.99883	-17.4326
2958525000		0.9986	-17.5321
2983512500		0.99867	-17.6817
3008500000		0.99856	-17.7981
3033487500		0.99849	-17.9747
3058475000		0.99846	-18.1316
3083462500		0.99852	-18.2618
3108450000		0.99864	-18.4206
3133437500		0.99864	-18.5782
3158425000		0.99795	-18.6842
3183412500		0.99804	-18.8727
3208400000		0.99832	-19.0097
3233387500		0.99821	-19.1572
3258375000		0.99801	-19.3345
3283362500		0.99779	-19.4572
3308350000		0.9977	-19.615
3333337500		0.99759	-19.7133
3358325000		0.99803	-19.9143
3383312500		0.99751	-20.0241
3408300000		0.99731	-20.1259
3433287500		0.99796	-20.3202
3458275000		0.99805	-20.4756
3483262500		0.99777	-20.6023
3508250000		0.99787	-20.7353
3533237500		0.9982	-20.9105
3558225000		0.99795	-21.0847
3583212500		0.99786	-21.2206
3608200000		0.99796	-21.3626
3633187500		0.99775	-21.529
3658175000		0.99728	-21.6832
3683162500		0.99741	-21.8261
3708150000		0.9976	-21.9917
3733137500		0.997	-22.1306
3758125000		0.99696	-22.2806
3783112500		0.99712	-22.401
3808100000		0.99695	-22.5691
3833087500		0.99686	-22.6918
3858075000		0.9972	-22.825
3883062500		0.99711	-22.9807
3908050000		0.99707	-23.13
3933037500		0.99734	-23.2924
3958025000		0.997	-23.4539
3983012500		0.99686	-23.5799
4008000000		0.99737	-23.7594
4032987500		0.9972	-23.9171
4057975000		0.9967	-24.062
4082962500		0.99678	-24.1841
4107950000		0.99702	-24.3449
4132937500		0.99671	-24.5079
4157925000		0.99654	-24.6438
4182912500		0.99688	-24.786
4207900000		0.9967	-24.961
4232887500		0.99602	-25.1057
4257875000		0.99606	-25.2396
4282862500		0.99631	-25.408
4307850000		0.99596	-25.5638
4332837500		0.99577	-25.6796
4357825000		0.99586	-25.8371
4382812500		0.99549	-26.0033
4407800000		0.99554	-26.1361
4432787500		0.99589	-26.2722
4457775000		0.99579	-26.4211
4482762500		0.9956	-26.5622
4507750000		0.99568	-26.7344
4532737500		0.99542	-26.8926
4557725000		0.99547	-27.0035
4582712500		0.99584	-27.1554
4607700000		0.99556	-27.345
4632687500		0.99499	-27.5086
4657675000		0.99514	-27.6472
4682662500		0.9954	-27.7931
4707650000		0.99526	-27.9362
4732637500		0.99478	-28.086
4757625000		0.99453	-28.2386
4782612500		0.99472	-28.3944
4807600000		0.99471	-28.5339
4832587500		0.99446	-28.6501
4857575000		0.9945	-28.7864
4882562500		0.99434	-28.9685
4907550000		0.99397	-29.1234
4932537500		0.9942	-29.2387
4957525000		0.99464	-29.38
4982512500		0.99444	-29.5523
5007500000		0.99383	-29.7112
5032487500		0.99395	-29.8584
5057475000		0.99432	-30.0086
5082462500		0.99431	-30.157
5107450000		0.99384	-30.2985
5132437500		0.99385	-30.451
5157425000		0.99394	-30.6344
5182412500		0.99367	-30.7786
5207400000		0.99357	-30.8911
5232387500		0.99367	-31.0319
5257375000		0.99346	-31.1961
5282362500		0.99328	-31.3445
5307350000		0.99332	-31.4749
5332337500		0.99346	-31.6085
5357325000		0.9933	-31.7588
5382312500		0.99311	-31.9231
5407300000		0.99303	-32.0844
5432287500		0.99303	-32.2301
5457275000		0.99315	-32.3847
5482262500		0.99286	-32.5439
5507250000		0.99255	-32.6858
5532237500		0.99292	-32.8254
5557225000		0.99318	-32.9947
5582212500		0.99259	-33.1523
5607200000		0.9923	-33.2577
5632187500		0.99305	-33.3962
5657175000		0.99312	-33.5721
5682162500		0.99247	-33.6942
5707150000		0.99256	-33.7998
5732137500		0.99286	-33.9744
5757125000		0.99266	-34.1556
5782112500		0.9925	-34.2923
5807100000		0.99269	-34.4252
5832087500		0.99255	-34.5923
5857075000		0.99215	-34.7645
5882062500		0.99203	-34.9214
5907050000		0.99246	-35.0657
5932037500		0.99262	-35.2126
5957025000		0.99219	-35.3419
5982012500		0.99221	-35.4761
6007000000		0.99254	-35.6471
6031987500		0.9924	-35.7953
6056975000		0.99234	-35.9032
6081962500		0.99239	-36.0406
6106950000		0.99203	-36.2203
6131937500		0.99192	-36.4047
6156925000		0.99188	-36.5822
6181912500		0.99159	-36.7086
6206900000		0.99179	-36.8357
6231887500		0.99189	-37.0344
6256875000		0.99122	-37.2177
6281862500		0.99135	-37.329
6306850000		0.99224	-37.4608
6331837500		0.99191	-37.627
6356825000		0.9911	-37.7496
6381812500		0.99139	-37.8812
6406800000		0.99173	-38.052
6431787500		0.99132	-38.1913
6456775000		0.99106	-38.2993
6481762500		0.9912	-38.4615
6506750000		0.99085	-38.6473
6531737500		0.99079	-38.8034
6556725000		0.99099	-38.956
6581712500		0.99079	-39.1124
6606700000		0.99063	-39.2733
6631687500		0.99072	-39.435
6656675000		0.99072	-39.5891
6681662500		0.9907	-39.725
6706650000		0.9905	-39.8687
6731637500		0.99022	-40.0137
6756625000		0.99032	-40.1503
6781612500		0.99069	-40.2883
6806600000		0.99053	-40.4398
6831587500		0.99003	-40.576
6856575000		0.98984	-40.7197
6881562500		0.98998	-40.8799
6906550000		0.99012	-41.0455
6931537500		0.98989	-41.1968
6956525000		0.98956	-41.344
6981512500		0.9895	-41.5154
7006500000		0.98949	-41.695
7031487500		0.98952	-41.8443
7056475000		0.9896	-41.9845
7081462500		0.98948	-42.1319
7106450000		0.98924	-42.2811
7131437500		0.98918	-42.438
7156425000		0.98923	-42.5609
7181412500		0.98951	-42.6665
7206400000		0.98951	-42.818
7231387500		0.98881	-42.971
7256375000		0.98883	-43.0991
7281362500		0.98921	-43.2688
7306350000		0.98886	-43.4355
7331337500		0.98867	-43.5823
7356325000		0.98881	-43.7817
7381312500		0.9882	-43.9704
7406300000		0.98818	-44.0933
7431287500		0.98887	-44.2404
7456275000		0.98859	-44.4127
7481262500		0.98818	-44.5426
7506250000		0.98859	-44.6702
7531237500		0.9887	-44.8081
7556225000		0.9884	-44.924
7581212500		0.98855	-45.0637
7606200000		0.98833	-45.2279
7631187500		0.98795	-45.3718
7656175000		0.98808	-45.5155
7681162500		0.98804	-45.6951
7706150000		0.98757	-45.8948
7731137500		0.98738	-46.0732
7756125000		0.98786	-46.2309
7781112500		0.988	-46.3939
7806100000		0.9873	-46.5376
7831087500		0.98719	-46.656
7856075000		0.98779	-46.8257
7881062500		0.98762	-46.9879
7906050000		0.9874	-47.0634
7931037500		0.98769	-47.1717
7956025000		0.98731	-47.3467
7981012500		0.98701	-47.498
8006000000		0.98751	-47.6453
8030987500		0.98758	-47.8148
8055975000		0.98673	-47.9599
8080962500		0.98636	-48.1265
8105950000		0.9866	-48.3285
8130937500		0.98688	-48.5275
8155925000		0.98675	-48.6651
8180912500		0.98659	-48.7807
8205900000		0.98638	-48.9412
8230887500		0.98612	-49.1087
8255875000		0.98633	-49.247
8280862500		0.98668	-49.3682
8305850000		0.98635	-49.4834
8330837500		0.98599	-49.6043
8355825000		0.98613	-49.7706
8380812500		0.98601	-49.9509
8405800000		0.98587	-50.0734
8430787500		0.98617	-50.2096
8455775000		0.98563	-50.4102
8480762500		0.98498	-50.5916
8505750000		0.98544	-50.7584
8530737500		0.98588	-50.9386
8555725000		0.98526	-51.0817
8580712500		0.98488	-51.2041
8605700000		0.98499	-51.363
8630687500		0.98512	-51.5306
8655675000		0.98514	-51.6619
8680662500		0.98522	-51.7693
8705650000		0.9851	-51.8958
8730637500		0.98474	-52.044
8755625000		0.98464	-52.1861
8780612500		0.9848	-52.3415
8805600000		0.98452	-52.5149
8830587500		0.98411	-52.6666
8855575000		0.98405	-52.834
8880562500		0.98407	-53.0194
8905550000		0.98397	-53.1836
8930537500		0.98388	-53.3352
8955525000		0.98391	-53.4843
8980512500		0.98381	-53.6198
9005500000		0.98377	-53.7538
9030487500		0.98382	-53.8867
9055475000		0.98373	-54.0333
9080462500		0.98353	-54.1677
9105450000		0.98354	-54.276
9130437500		0.98381	-54.4148
9155425000		0.98335	-54.5846
9180412500		0.98293	-54.7531
9205400000		0.98307	-54.9314
9230387500		0.98307	-55.1109
9255375000		0.9829	-55.2457
9280362500		0.98284	-55.392
9305350000		0.98264	-55.5866
9330337500		0.98228	-55.7517
9355325000		0.98259	-55.8766
9380312500		0.98299	-56.004
9405300000		0.98276	-56.1466
9430287500		0.98224	-56.2985
9455275000		0.98216	-56.4531
9480262500		0.98263	-56.5959
9505250000		0.98267	-56.7176
9530237500		0.98244	-56.8345
9555225000		0.98219	-57.0108
9580212500		0.98159	-57.2074
9605200000		0.98149	-57.3349
9630187500		0.98218	-57.4679
9655175000		0.98171	-57.6517
9680162500		0.98074	-57.8015
9705150000		0.98113	-57.9625
9730137500		0.9815	-58.1653
9755125000		0.98107	-58.2904
9780112500		0.98124	-58.39
9805100000		0.9813	-58.5704
9830087500		0.98086	-58.754
9855075000		0.98095	-58.8708
9880062500		0.9814	-58.986
9905050000		0.98116	-59.13
9930037500		0.98041	-59.2882
9955025000		0.98015	-59.4572
9980012500		0.98036	-59.6243
10005000000		0.9803	-59.7642
10029987500		0.9799	-59.9011
10054975000		0.97967	-60.0716
10079962500		0.97963	-60.256
10104950000		0.97966	-60.4073
10129937500		0.97969	-60.5321
10154925000		0.97941	-60.6751
10179912500		0.97916	-60.8337
10204900000		0.97947	-61.0023
10229887500		0.97966	-61.1611
10254875000		0.97909	-61.244
10279862500		0.97903	-61.344
10304850000		0.97898	-61.5568
10329837500		0.9784	-61.762
10354825000		0.97845	-61.8835
10379812500		0.97904	-62.003
10404800000		0.97847	-62.1533
10429787500		0.97779	-62.3357
10454775000		0.97779	-62.5262
10479762500		0.97826	-62.6812
10504750000		0.97822	-62.7969
10529737500		0.97783	-62.912
10554725000		0.97766	-63.0983
10579712500		0.97758	-63.3076
10604700000		0.97776	-63.4411
10629687500		0.97835	-63.5243
10654675000		0.97793	-63.6463
10679662500		0.97704	-63.8076
10704650000		0.97732	-64.0022
10729637500		0.97731	-64.1702
10754625000		0.97742	-64.2694
10779612500		0.97706	-64.3832
10804600000		0.97613	-64.5838
10829587500		0.97576	-64.7728
10854575000		0.97665	-64.9596
10879562500		0.97686	-65.1166
10904550000		0.97598	-65.2244
10929537500		0.97596	-65.3443
10954525000		0.97639	-65.5678
10979512500		0.97619	-65.7618
11004500000		0.97632	-65.844
11029487500		0.97631	-65.9225
11054475000		0.97568	-66.0746
11079462500		0.97533	-66.2455
11104450000		0.97578	-66.4296
11129437500		0.97574	-66.593
11154425000		0.97515	-66.7096
11179412500		0.97472	-66.8768
11204400000		0.97482	-67.0504
11229387500		0.9747	-67.2381
11254375000		0.97501	-67.3671
11279362500		0.97522	-67.5012
11304350000		0.97457	-67.6335
11329337500		0.97459	-67.7594
11354325000		0.97524	-67.9446
11379312500		0.97467	-68.1371
11404300000		0.97397	-68.2253
11429287500		0.97442	-68.3297
11454275000		0.97431	-68.5752
11479262500		0.97337	-68.7244
11504250000		0.97385	-68.8383
11529237500		0.97426	-69.0474
11554225000		0.97339	-69.2177
11579212500		0.97305	-69.3182
11604200000		0.97386	-69.4727
11629187500		0.97355	-69.7041
11654175000		0.97275	-69.8048
11679162500		0.9731	-69.9173
11704150000		0.9733	-70.0851
11729137500		0.9725	-70.2246
11754125000		0.97278	-70.3529
11779112500		0.97263	-70.543
11804100000		0.97209	-70.7087
11829087500		0.97241	-70.8102
11854075000		0.97286	-70.982
11879062500		0.97179	-71.1547
11904050000		0.97141	-71.2841
11929037500		0.97211	-71.4738
11954025000		0.9718	-71.6583
11979012500		0.97129	-71.7431
!
!				Infineon Technologies AG
