! Infineon Technologies  Discrete & RF Semiconductors
! BAT15-02ELS
! VCA = 2 V
! One-Port S-Parameters
# Hz  S  MA  R  50
!f									S11
!Hz							Mag  Ang
309850000		1.0005	-1.7904
334837500		1.0003	-1.9031
359825000		1.0004	-2.0352
384812500		1.0003	-2.161
409800000		1.0003	-2.2979
434787500		0.99995	-2.4377
459775000		1.0003	-2.5836
484762500		1.0006	-2.7277
509750000		1.0006	-2.8808
534737500		1.0003	-3.0301
559725000		1.0002	-3.165
584712500		1.0005	-3.32
609700000		1.0003	-3.4723
634687500		1.0004	-3.5949
659675000		0.99965	-3.7357
684662500		0.99974	-3.8399
709650000		0.99995	-3.9886
734637500		0.99986	-4.1305
759625000		0.99983	-4.2443
784612500		1.0002	-4.3707
809600000		1.0004	-4.5254
834587500		1.0005	-4.6824
859575000		1.0006	-4.8331
884562500		1.0007	-4.992
909550000		1.0004	-5.1488
934537500		1.0002	-5.2843
959525000		1.0002	-5.4264
984512500		1.0001	-5.5691
1009500000		0.99983	-5.7027
1034487500		0.99962	-5.8399
1059475000		0.99938	-5.9479
1084462500		0.9998	-6.0722
1109450000		0.99966	-6.2101
1134437500		0.99964	-6.3245
1159425000		1.0002	-6.4497
1184412500		1.0009	-6.6215
1209400000		1.0007	-6.7939
1234387500		1.0005	-6.9316
1259375000		1.0005	-7.0788
1284362500		1.0003	-7.2466
1309350000		1.0001	-7.3984
1334337500		1.0002	-7.5286
1359325000		1.0002	-7.6724
1384312500		0.99968	-7.8048
1409300000		0.99965	-7.9273
1434287500		0.99941	-8.089
1459275000		0.99906	-8.1778
1484262500		0.99981	-8.273
1509250000		1.0002	-8.4039
1534237500		1.0004	-8.5287
1559225000		1.0013	-8.698
1584212500		1.0015	-8.9054
1609200000		1.0012	-9.0668
1634187500		1.0012	-9.2051
1659175000		1.0013	-9.3941
1684162500		1.0005	-9.5806
1709150000		1	-9.7157
1734137500		1.0001	-9.8619
1759125000		0.99935	-10.0012
1784112500		0.99883	-10.0927
1809100000		0.99882	-10.2245
1834087500		0.99828	-10.3498
1859075000		0.99851	-10.434
1884062500		0.99898	-10.5764
1909050000		0.999	-10.6634
1934037500		0.99929	-10.7882
1959025000		0.99992	-10.9466
1984012500		1.0004	-11.1695
2009000000		1	-11.2928
2033987500		1.0002	-11.4222
2058975000		1.0005	-11.6004
2083962500		0.99977	-11.7693
2108950000		0.99943	-11.882
2133937500		1.0002	-12.0381
2158925000		0.99932	-12.1666
2183912500		0.99901	-12.2535
2208900000		0.99981	-12.4157
2233887500		0.99904	-12.5795
2258875000		0.99883	-12.6819
2283862500		0.99939	-12.8193
2308850000		0.99935	-12.9597
2333837500		0.9997	-13.112
2358825000		1	-13.239
2383812500		1.0001	-13.4557
2408800000		0.99966	-13.5356
2433787500		1.0004	-13.7596
2458775000		1.0001	-13.8697
2483762500		0.99926	-13.9782
2508750000		0.99911	-14.1226
2533737500		0.99949	-14.3226
2558725000		0.99934	-14.4611
2583712500		0.99911	-14.5716
2608700000		0.99896	-14.6928
2633687500		0.99858	-14.8387
2658675000		0.99858	-14.9989
2683662500		0.9985	-15.142
2708650000		0.99854	-15.2675
2733637500		0.99835	-15.3134
2758625000		0.99853	-15.5028
2783612500		0.99858	-15.6608
2808600000		0.99877	-15.8172
2833587500		0.99876	-15.9469
2858575000		0.99874	-16.0688
2883562500		0.99872	-16.2228
2908550000		0.99866	-16.3845
2933537500		0.99898	-16.5739
2958525000		0.99875	-16.6652
2983512500		0.99886	-16.8088
3008500000		0.99876	-16.9154
3033487500		0.99869	-17.0854
3058475000		0.99864	-17.2369
3083462500		0.9987	-17.3585
3108450000		0.99885	-17.5064
3133437500		0.99881	-17.6583
3158425000		0.99842	-17.7966
3183412500		0.99791	-17.8993
3208400000		0.99846	-18.0717
3233387500		0.99837	-18.2076
3258375000		0.99817	-18.3794
3283362500		0.99773	-18.4598
3308350000		0.99791	-18.6459
3333337500		0.99806	-18.7686
3358325000		0.99828	-18.9327
3383312500		0.99775	-19.0336
3408300000		0.9977	-19.1597
3433287500		0.99816	-19.3112
3458275000		0.99831	-19.4613
3483262500		0.998	-19.5817
3508250000		0.99788	-19.6739
3533237500		0.99844	-19.8748
3558225000		0.99818	-20.0443
3583212500		0.99804	-20.1727
3608200000		0.99821	-20.3045
3633187500		0.99803	-20.4626
3658175000		0.99761	-20.6121
3683162500		0.99751	-20.7156
3708150000		0.99794	-20.9062
3733137500		0.99729	-21.0375
3758125000		0.99717	-21.1787
3783112500		0.9974	-21.2925
3808100000		0.99724	-21.4541
3833087500		0.99711	-21.5712
3858075000		0.99746	-21.6956
3883062500		0.99742	-21.841
3908050000		0.99742	-21.9848
3933037500		0.99764	-22.1413
3958025000		0.99738	-22.2935
3983012500		0.99722	-22.414
4008000000		0.99774	-22.5845
4032987500		0.99765	-22.7344
4057975000		0.99705	-22.8747
4082962500		0.99714	-22.9877
4107950000		0.99741	-23.1403
4132937500		0.99705	-23.2994
4157925000		0.99668	-23.3937
4182912500		0.99726	-23.5656
4207900000		0.99706	-23.7261
4232887500		0.99644	-23.8676
4257875000		0.9964	-23.9932
4282862500		0.99667	-24.1555
4307850000		0.99632	-24.3025
4332837500		0.99612	-24.4117
4357825000		0.99627	-24.5598
4382812500		0.99585	-24.7194
4407800000		0.99591	-24.847
4432787500		0.9963	-24.9754
4457775000		0.9962	-25.1168
4482762500		0.99599	-25.2504
4507750000		0.99611	-25.4127
4532737500		0.99583	-25.5664
4557725000		0.99591	-25.6734
4582712500		0.99631	-25.8157
4607700000		0.99603	-25.9968
4632687500		0.99539	-26.1527
4657675000		0.99557	-26.2846
4682662500		0.99585	-26.4216
4707650000		0.99575	-26.5591
4732637500		0.9952	-26.7028
4757625000		0.99493	-26.848
4782612500		0.99511	-26.9946
4807600000		0.99514	-27.1265
4832587500		0.99498	-27.235
4857575000		0.99498	-27.3662
4882562500		0.99483	-27.5406
4907550000		0.99439	-27.6887
4932537500		0.99468	-27.795
4957525000		0.99513	-27.9298
4982512500		0.99494	-28.0947
5007500000		0.99434	-28.2458
5032487500		0.99448	-28.386
5057475000		0.99487	-28.5302
5082462500		0.99483	-28.6744
5107450000		0.99433	-28.8033
5132437500		0.99441	-28.9507
5157425000		0.99455	-29.1254
5182412500		0.99425	-29.2649
5207400000		0.99416	-29.37
5232387500		0.99426	-29.5043
5257375000		0.99406	-29.6593
5282362500		0.99391	-29.7996
5307350000		0.99398	-29.9218
5332337500		0.99409	-30.0498
5357325000		0.99399	-30.1953
5382312500		0.99377	-30.3508
5407300000		0.99367	-30.5058
5432287500		0.9937	-30.6436
5457275000		0.9938	-30.7898
5482262500		0.9935	-30.9447
5507250000		0.99322	-31.0766
5532237500		0.99358	-31.2097
5557225000		0.9938	-31.3711
5582212500		0.99321	-31.5224
5607200000		0.99292	-31.6212
5632187500		0.99366	-31.7514
5657175000		0.99379	-31.9197
5682162500		0.99312	-32.0369
5707150000		0.99316	-32.1336
5732137500		0.99348	-32.3005
5757125000		0.99326	-32.475
5782112500		0.99315	-32.6041
5807100000		0.99337	-32.731
5832087500		0.99323	-32.8907
5857075000		0.99281	-33.0568
5882062500		0.99276	-33.2067
5907050000		0.99315	-33.3433
5932037500		0.99333	-33.4838
5957025000		0.99297	-33.6069
5982012500		0.99296	-33.7327
6007000000		0.99332	-33.8976
6031987500		0.99315	-34.0391
6056975000		0.99312	-34.1379
6081962500		0.99313	-34.2666
6106950000		0.99279	-34.4413
6131937500		0.99274	-34.6157
6156925000		0.99271	-34.7881
6181912500		0.99242	-34.9094
6206900000		0.99259	-35.0276
6231887500		0.99271	-35.2191
6256875000		0.992	-35.3961
6281862500		0.99216	-35.5017
6306850000		0.99309	-35.6247
6331837500		0.99275	-35.7845
6356825000		0.99188	-35.901
6381812500		0.99216	-36.0223
6406800000		0.9926	-36.1869
6431787500		0.99218	-36.3214
6456775000		0.9919	-36.4211
6481762500		0.99206	-36.5741
6506750000		0.99174	-36.7528
6531737500		0.99164	-36.9025
6556725000		0.99187	-37.0506
6581712500		0.99168	-37.2004
6606700000		0.99146	-37.3535
6631687500		0.99159	-37.5078
6656675000		0.99162	-37.6585
6681662500		0.99162	-37.7871
6706650000		0.99146	-37.9216
6731637500		0.99115	-38.0602
6756625000		0.99126	-38.1916
6781612500		0.99167	-38.3216
6806600000		0.99152	-38.4638
6831587500		0.99099	-38.5954
6856575000		0.99082	-38.7312
6881562500		0.99099	-38.8854
6906550000		0.99111	-39.0424
6931537500		0.99089	-39.1849
6956525000		0.99059	-39.328
6981512500		0.99054	-39.4907
7006500000		0.99058	-39.6643
7031487500		0.99061	-39.8069
7056475000		0.99069	-39.9397
7081462500		0.99053	-40.0819
7106450000		0.99028	-40.224
7131437500		0.99025	-40.3736
7156425000		0.9903	-40.4908
7181412500		0.99057	-40.5877
7206400000		0.99059	-40.732
7231387500		0.98993	-40.8784
7256375000		0.98987	-41.0008
7281362500		0.99028	-41.1583
7306350000		0.98994	-41.3201
7331337500		0.98976	-41.4597
7356325000		0.98988	-41.6539
7381312500		0.98935	-41.837
7406300000		0.98926	-41.9521
7431287500		0.98994	-42.0921
7456275000		0.9897	-42.2612
7481262500		0.98935	-42.383
7506250000		0.98977	-42.503
7531237500		0.9899	-42.6354
7556225000		0.98952	-42.7433
7581212500		0.98964	-42.8745
7606200000		0.98947	-43.0343
7631187500		0.98914	-43.1701
7656175000		0.9893	-43.3026
7681162500		0.98924	-43.4743
7706150000		0.9888	-43.6666
7731137500		0.98858	-43.8423
7756125000		0.98909	-43.9918
7781112500		0.98928	-44.1515
7806100000		0.98852	-44.2879
7831087500		0.98844	-44.4013
7856075000		0.9891	-44.5642
7881062500		0.98894	-44.7198
7906050000		0.98869	-44.7893
7931037500		0.98905	-44.887
7956025000		0.98858	-45.0546
7981012500		0.98826	-45.2012
8006000000		0.98875	-45.3419
8030987500		0.98889	-45.5013
8055975000		0.98805	-45.6389
8080962500		0.98766	-45.7968
8105950000		0.9879	-45.9958
8130937500		0.98817	-46.1897
8155925000		0.98806	-46.3211
8180912500		0.98795	-46.4307
8205900000		0.98775	-46.5829
8230887500		0.98747	-46.7471
8255875000		0.9877	-46.8798
8280862500		0.98811	-46.9926
8305850000		0.98773	-47.1005
8330837500		0.98733	-47.2128
8355825000		0.98754	-47.3708
8380812500		0.98749	-47.546
8405800000		0.98729	-47.6634
8430787500		0.98757	-47.7878
8455775000		0.98703	-47.9815
8480762500		0.98638	-48.1595
8505750000		0.98685	-48.3201
8530737500		0.98731	-48.494
8555725000		0.98671	-48.632
8580712500		0.98638	-48.746
8605700000		0.98647	-48.9001
8630687500		0.98658	-49.0618
8655675000		0.98668	-49.1867
8680662500		0.98678	-49.2878
8705650000		0.98663	-49.4068
8730637500		0.98622	-49.5472
8755625000		0.98614	-49.681
8780612500		0.98633	-49.8285
8805600000		0.98606	-49.9944
8830587500		0.98568	-50.138
8855575000		0.98563	-50.2988
8880562500		0.98564	-50.4787
8905550000		0.98553	-50.6385
8930537500		0.98544	-50.7865
8955525000		0.98544	-50.9292
8980512500		0.9854	-51.0602
9005500000		0.98538	-51.1863
9030487500		0.98544	-51.3127
9055475000		0.98535	-51.4526
9080462500		0.98514	-51.58
9105450000		0.98517	-51.6821
9130437500		0.98542	-51.8133
9155425000		0.98504	-51.9732
9180412500		0.98465	-52.1361
9205400000		0.98479	-52.3072
9230387500		0.98474	-52.4817
9255375000		0.98458	-52.6105
9280362500		0.98457	-52.7495
9305350000		0.98432	-52.937
9330337500		0.984	-53.0977
9355325000		0.98435	-53.2184
9380312500		0.98477	-53.3385
9405300000		0.98451	-53.4748
9430287500		0.98399	-53.6214
9455275000		0.98395	-53.7714
9480262500		0.9844	-53.9085
9505250000		0.98451	-54.0229
9530237500		0.98426	-54.1286
9555225000		0.984	-54.2984
9580212500		0.9834	-54.486
9605200000		0.98333	-54.6095
9630187500		0.98404	-54.7329
9655175000		0.98364	-54.9125
9680162500		0.98258	-55.057
9705150000		0.98295	-55.2114
9730137500		0.98336	-55.4064
9755125000		0.98296	-55.5304
9780112500		0.98308	-55.6222
9805100000		0.98319	-55.7949
9830087500		0.98274	-55.9757
9855075000		0.98282	-56.0888
9880062500		0.98329	-56.1925
9905050000		0.98313	-56.3289
9930037500		0.98238	-56.4808
9955025000		0.98213	-56.6455
9980012500		0.98233	-56.8055
10005000000		0.98232	-56.9378
10029987500		0.9819	-57.0665
10054975000		0.98165	-57.2287
10079962500		0.98162	-57.4085
10104950000		0.98165	-57.5569
10129937500		0.98166	-57.6746
10154925000		0.98137	-57.8116
10179912500		0.98112	-57.9658
10204900000		0.98147	-58.1292
10229887500		0.98169	-58.2805
10254875000		0.98113	-58.3586
10279862500		0.98109	-58.448
10304850000		0.98103	-58.6521
10329837500		0.98045	-58.857
10354825000		0.9805	-58.9727
10379812500		0.9811	-59.0816
10404800000		0.98058	-59.2216
10429787500		0.9799	-59.3991
10454775000		0.9799	-59.5849
10479762500		0.98036	-59.7376
10504750000		0.98034	-59.8474
10529737500		0.97978	-59.9291
10554725000		0.9798	-60.134
10579712500		0.9797	-60.3412
10604700000		0.97986	-60.4727
10629687500		0.9805	-60.5467
10654675000		0.98011	-60.6583
10679662500		0.97916	-60.8123
10704650000		0.97948	-61.0018
10729637500		0.97952	-61.1655
10754625000		0.97961	-61.2578
10779612500		0.97934	-61.3594
10804600000		0.97834	-61.552
10829587500		0.978	-61.7373
10854575000		0.97886	-61.9186
10879562500		0.97916	-62.0738
10904550000		0.9783	-62.1766
10929537500		0.97821	-62.289
10954525000		0.97865	-62.5095
10979512500		0.97841	-62.7042
11004500000		0.97857	-62.78
11029487500		0.97866	-62.8478
11054475000		0.97797	-62.9894
11079462500		0.97764	-63.1558
11104450000		0.97811	-63.3372
11129437500		0.97811	-63.4928
11154425000		0.97754	-63.6011
11179412500		0.97706	-63.7598
11204400000		0.97714	-63.9262
11229387500		0.97705	-64.1104
11254375000		0.97735	-64.2358
11279362500		0.97757	-64.3639
11304350000		0.97692	-64.4943
11329337500		0.97688	-64.611
11354325000		0.97767	-64.7933
11379312500		0.97715	-64.984
11404300000		0.97638	-65.0666
11429287500		0.97697	-65.1826
11454275000		0.97675	-65.3965
11479262500		0.97572	-65.5424
11504250000		0.97627	-65.6472
11529237500		0.97672	-65.8481
11554225000		0.97585	-66.0164
11579212500		0.97544	-66.1127
11604200000		0.97634	-66.2588
11629187500		0.97602	-66.4855
11654175000		0.97518	-66.5823
11679162500		0.97552	-66.6881
11704150000		0.97578	-66.8505
11729137500		0.97503	-66.986
11754125000		0.9752	-67.1053
11779112500		0.97506	-67.29
11804100000		0.97455	-67.4511
11829087500		0.97487	-67.5463
11854075000		0.97538	-67.7102
11879062500		0.97435	-67.88
11904050000		0.97391	-67.9999
11929037500		0.97463	-68.1846
11954025000		0.97436	-68.3683
11979012500		0.97386	-68.4463
!
!				Infineon Technologies AG
