! Infineon Technologies  Discrete & RF Semiconductors
! BAT15-02ELS
! VCA = 0 V
! One-Port S-Parameters
# Hz  S  MA  R  50
!f									S11
!Hz							Mag  Ang
309850000		0.9994	-2.1697
334837500		0.9997	-2.3792
359825000		0.99958	-2.511
384812500		0.99942	-2.6702
409800000		0.99947	-2.8422
434787500		0.99919	-3.0151
459775000		0.99922	-3.1593
484762500		0.99967	-3.371
509750000		0.99982	-3.5563
534737500		0.99951	-3.7393
559725000		0.99932	-3.9066
584712500		0.99958	-4.0929
609700000		0.99942	-4.2798
634687500		0.99954	-4.4359
659675000		0.99882	-4.6087
684662500		0.99894	-4.7472
709650000		0.99921	-4.9295
734637500		0.99868	-5.0755
759625000		0.99891	-5.2535
784612500		0.99925	-5.414
809600000		0.99951	-5.6027
834587500		0.99961	-5.7919
859575000		0.99968	-5.9744
884562500		0.99975	-6.1691
909550000		0.99947	-6.3544
934537500		0.99927	-6.5227
959525000		0.99941	-6.6972
984512500		0.99914	-6.8768
1009500000		0.99893	-7.0419
1034487500		0.99881	-7.2134
1059475000		0.99845	-7.3571
1084462500		0.99892	-7.5126
1109450000		0.9988	-7.6824
1134437500		0.99864	-7.8325
1159425000		0.99939	-7.9909
1184412500		0.99993	-8.1942
1209400000		0.99973	-8.4001
1234387500		0.9995	-8.5695
1259375000		0.99951	-8.7505
1284362500		0.99942	-8.9507
1309350000		0.99918	-9.1351
1334337500		0.99922	-9.2972
1359325000		0.99933	-9.477
1384312500		0.99866	-9.6437
1409300000		0.99869	-9.8004
1434287500		0.9984	-9.9928
1459275000		0.9981	-10.1154
1484262500		0.9988	-10.2427
1509250000		0.99907	-10.4105
1534237500		0.99941	-10.5664
1559225000		1.0003	-10.7686
1584212500		1.0004	-11.0078
1609200000		1.0001	-11.2005
1634187500		1.0002	-11.3741
1659175000		1.0002	-11.5978
1684162500		0.99942	-11.8141
1709150000		0.99888	-11.9845
1734137500		0.999	-12.1634
1759125000		0.99828	-12.332
1784112500		0.99767	-12.4602
1809100000		0.99782	-12.6252
1834087500		0.9972	-12.7853
1859075000		0.99712	-12.8725
1884062500		0.99784	-13.0799
1909050000		0.99789	-13.1971
1934037500		0.99812	-13.3558
1959025000		0.99897	-13.5765
1984012500		0.99918	-13.8012
2009000000		0.9988	-13.9556
2033987500		0.9987	-14.0846
2058975000		0.99925	-14.331
2083962500		0.99852	-14.5294
2108950000		0.99824	-14.6773
2133937500		0.99893	-14.8671
2158925000		0.99834	-15.0584
2183912500		0.99798	-15.1789
2208900000		0.9985	-15.3432
2233887500		0.99772	-15.5368
2258875000		0.99747	-15.6732
2283862500		0.99803	-15.8461
2308850000		0.99833	-16.0493
2333837500		0.99836	-16.2015
2358825000		0.99854	-16.3653
2383812500		0.99831	-16.5775
2408800000		0.99858	-16.761
2433787500		0.99895	-16.9786
2458775000		0.99832	-17.0943
2483762500		0.99811	-17.2953
2508750000		0.99785	-17.4789
2533737500		0.99804	-17.6721
2558725000		0.99785	-17.8435
2583712500		0.99763	-17.9868
2608700000		0.9975	-18.1462
2633687500		0.99707	-18.325
2658675000		0.99708	-18.5151
2683662500		0.99694	-18.6886
2708650000		0.99695	-18.8508
2733637500		0.9971	-18.963
2758625000		0.9969	-19.1515
2783612500		0.99689	-19.3434
2808600000		0.99691	-19.4935
2833587500		0.99707	-19.6942
2858575000		0.99708	-19.8508
2883562500		0.99702	-20.0363
2908550000		0.99701	-20.2331
2933537500		0.99703	-20.4155
2958525000		0.99696	-20.5766
2983512500		0.99711	-20.7515
3008500000		0.99696	-20.893
3033487500		0.99683	-21.0951
3058475000		0.9968	-21.2777
3083462500		0.99683	-21.4301
3108450000		0.99688	-21.6155
3133437500		0.99686	-21.802
3158425000		0.99621	-21.9306
3183412500		0.99632	-22.143
3208400000		0.99654	-22.3098
3233387500		0.99644	-22.4835
3258375000		0.99615	-22.6858
3283362500		0.99599	-22.8327
3308350000		0.99592	-23.0146
3333337500		0.99606	-23.1709
3358325000		0.99619	-23.3679
3383312500		0.99571	-23.5016
3408300000		0.99564	-23.663
3433287500		0.9961	-23.8471
3458275000		0.99621	-24.0246
3483262500		0.99593	-24.1785
3508250000		0.99601	-24.3392
3533237500		0.9964	-24.5399
3558225000		0.996	-24.7403
3583212500		0.99583	-24.9006
3608200000		0.99598	-25.0669
3633187500		0.99577	-25.2605
3658175000		0.99534	-25.4393
3683162500		0.9955	-25.6081
3708150000		0.99558	-25.7985
3733137500		0.99501	-25.9625
3758125000		0.99488	-26.1372
3783112500		0.99502	-26.2796
3808100000		0.99484	-26.4753
3833087500		0.99474	-26.6218
3858075000		0.99508	-26.7795
3883062500		0.995	-26.9602
3908050000		0.99491	-27.1405
3933037500		0.99517	-27.3249
3958025000		0.99489	-27.5053
3983012500		0.99469	-27.6615
4008000000		0.99508	-27.8697
4032987500		0.99503	-28.0464
4057975000		0.99448	-28.2164
4082962500		0.99456	-28.3674
4107950000		0.99478	-28.5513
4132937500		0.99442	-28.7387
4157925000		0.99427	-28.8997
4182912500		0.99454	-29.0705
4207900000		0.99435	-29.2668
4232887500		0.99368	-29.4382
4257875000		0.99371	-29.5984
4282862500		0.99385	-29.795
4307850000		0.99347	-29.97
4332837500		0.99329	-30.1149
4357825000		0.99339	-30.2968
4382812500		0.99302	-30.4856
4407800000		0.99301	-30.6462
4432787500		0.99335	-30.8095
4457775000		0.99325	-30.9798
4482762500		0.99299	-31.1505
4507750000		0.99309	-31.3433
4532737500		0.99288	-31.5219
4557725000		0.99293	-31.6606
4582712500		0.99329	-31.8432
4607700000		0.99294	-32.052
4632687500		0.99234	-32.2397
4657675000		0.99248	-32.4039
4682662500		0.99273	-32.5738
4707650000		0.99258	-32.7409
4732637500		0.99206	-32.9157
4757625000		0.99173	-33.0963
4782612500		0.99191	-33.276
4807600000		0.99185	-33.4367
4832587500		0.99168	-33.5781
4857575000		0.99167	-33.7436
4882562500		0.99144	-33.9498
4907550000		0.99114	-34.1265
4932537500		0.99133	-34.267
4957525000		0.99173	-34.439
4982512500		0.99155	-34.6293
5007500000		0.9909	-34.812
5032487500		0.99106	-34.9859
5057475000		0.99135	-35.1617
5082462500		0.99124	-35.3353
5107450000		0.99076	-35.4971
5132437500		0.99084	-35.6803
5157425000		0.99093	-35.8841
5182412500		0.9906	-36.0517
5207400000		0.99049	-36.19
5232387500		0.9906	-36.3554
5257375000		0.99033	-36.5425
5282362500		0.99016	-36.7175
5307350000		0.99017	-36.8706
5332337500		0.99036	-37.0314
5357325000		0.99017	-37.2088
5382312500		0.98992	-37.3946
5407300000		0.98978	-37.58
5432287500		0.98979	-37.7535
5457275000		0.98981	-37.9317
5482262500		0.98956	-38.1129
5507250000		0.98928	-38.275
5532237500		0.98958	-38.4455
5557225000		0.98973	-38.6405
5582212500		0.98919	-38.8157
5607200000		0.98892	-38.9477
5632187500		0.98959	-39.1134
5657175000		0.98965	-39.3067
5682162500		0.98897	-39.4537
5707150000		0.98899	-39.5939
5732137500		0.98923	-39.7946
5757125000		0.98899	-39.9919
5782112500		0.9888	-40.1519
5807100000		0.98903	-40.3166
5832087500		0.9889	-40.5057
5857075000		0.98846	-40.7039
5882062500		0.98836	-40.8778
5907050000		0.98882	-41.0448
5932037500		0.98882	-41.2168
5957025000		0.9884	-41.3712
5982012500		0.98843	-41.531
6007000000		0.98869	-41.7249
6031987500		0.98848	-41.8971
6056975000		0.98839	-42.0322
6081962500		0.98834	-42.1966
6106950000		0.98804	-42.3999
6131937500		0.9879	-42.6088
6156925000		0.98788	-42.8062
6181912500		0.98754	-42.9528
6206900000		0.98764	-43.1129
6231887500		0.98766	-43.3362
6256875000		0.98705	-43.531
6281862500		0.98725	-43.6665
6306850000		0.98811	-43.824
6331837500		0.98762	-44.0141
6356825000		0.98676	-44.1566
6381812500		0.98714	-44.3159
6406800000		0.98733	-44.5123
6431787500		0.98692	-44.6731
6456775000		0.98669	-44.8112
6481762500		0.98673	-45.0014
6506750000		0.98635	-45.2083
6531737500		0.98626	-45.3893
6556725000		0.98646	-45.5657
6581712500		0.98623	-45.7433
6606700000		0.986	-45.927
6631687500		0.98618	-46.1101
6656675000		0.98612	-46.2849
6681662500		0.98609	-46.4403
6706650000		0.98592	-46.6069
6731637500		0.9856	-46.776
6756625000		0.98574	-46.9367
6781612500		0.986	-47.0996
6806600000		0.98574	-47.277
6831587500		0.98521	-47.4361
6856575000		0.98508	-47.605
6881562500		0.98521	-47.7932
6906550000		0.98525	-47.9822
6931537500		0.98498	-48.1542
6956525000		0.98471	-48.3244
6981512500		0.98457	-48.5181
7006500000		0.98453	-48.7172
7031487500		0.98457	-48.8858
7056475000		0.98464	-49.0488
7081462500		0.98443	-49.2174
7106450000		0.98415	-49.3898
7131437500		0.98402	-49.5683
7156425000		0.98404	-49.7117
7181412500		0.98428	-49.8486
7206400000		0.98419	-50.0257
7231387500		0.98354	-50.1968
7256375000		0.9835	-50.3548
7281362500		0.98379	-50.5527
7306350000		0.98343	-50.7393
7331337500		0.98326	-50.9111
7356325000		0.98338	-51.1284
7381312500		0.98276	-51.3341
7406300000		0.98273	-51.4822
7431287500		0.98339	-51.6512
7456275000		0.98307	-51.8406
7481262500		0.9827	-51.9883
7506250000		0.98301	-52.1403
7531237500		0.983	-52.3036
7556225000		0.98272	-52.4453
7581212500		0.98282	-52.613
7606200000		0.98254	-52.8002
7631187500		0.98219	-52.9655
7656175000		0.9823	-53.1374
7681162500		0.98216	-53.3442
7706150000		0.98173	-53.5621
7731137500		0.9816	-53.753
7756125000		0.98201	-53.9292
7781112500		0.98207	-54.1192
7806100000		0.98132	-54.279
7831087500		0.98134	-54.4209
7856075000		0.98186	-54.6114
7881062500		0.9816	-54.7834
7906050000		0.98126	-54.8871
7931037500		0.98152	-55.0297
7956025000		0.98113	-55.2276
7981012500		0.98085	-55.4027
8006000000		0.98127	-55.5738
8030987500		0.98119	-55.7621
8055975000		0.98033	-55.9382
8080962500		0.98008	-56.1273
8105950000		0.98036	-56.349
8130937500		0.98051	-56.5604
8155925000		0.98032	-56.7149
8180912500		0.98007	-56.8554
8205900000		0.97988	-57.0399
8230887500		0.97971	-57.2181
8255875000		0.97989	-57.376
8280862500		0.98014	-57.5218
8305850000		0.97979	-57.6608
8330837500		0.97941	-57.8087
8355825000		0.97956	-58.002
8380812500		0.97936	-58.1984
8405800000		0.97926	-58.3422
8430787500		0.97947	-58.5104
8455775000		0.97884	-58.7369
8480762500		0.97826	-58.9348
8505750000		0.9787	-59.121
8530737500		0.97901	-59.3163
8555725000		0.97838	-59.4785
8580712500		0.97798	-59.624
8605700000		0.97811	-59.8031
8630687500		0.97812	-59.9894
8655675000		0.97815	-60.1362
8680662500		0.97818	-60.2634
8705650000		0.97794	-60.4189
8730637500		0.97758	-60.5905
8755625000		0.97749	-60.7562
8780612500		0.97753	-60.9382
8805600000		0.97725	-61.1308
8830587500		0.97684	-61.3063
8855575000		0.97674	-61.4996
8880562500		0.97679	-61.6972
8905550000		0.97663	-61.879
8930537500		0.9765	-62.0562
8955525000		0.97641	-62.2226
8980512500		0.97636	-62.3741
9005500000		0.97632	-62.5251
9030487500		0.97636	-62.6796
9055475000		0.97625	-62.8439
9080462500		0.97601	-62.9944
9105450000		0.97598	-63.1337
9130437500		0.97606	-63.3007
9155425000		0.97559	-63.488
9180412500		0.97526	-63.6814
9205400000		0.97537	-63.8828
9230387500		0.97532	-64.0825
9255375000		0.97508	-64.2382
9280362500		0.975	-64.4091
9305350000		0.97473	-64.6186
9330337500		0.97447	-64.7944
9355325000		0.97471	-64.9437
9380312500		0.97505	-65.0851
9405300000		0.97477	-65.2462
9430287500		0.9742	-65.4185
9455275000		0.97418	-65.5913
9480262500		0.97462	-65.7505
9505250000		0.97455	-65.8972
9530237500		0.97422	-66.0421
9555225000		0.97397	-66.2381
9580212500		0.97334	-66.4507
9605200000		0.9733	-66.6073
9630187500		0.97387	-66.7671
9655175000		0.97333	-66.9644
9680162500		0.97251	-67.1366
9705150000		0.9729	-67.328
9730137500		0.97313	-67.5334
9755125000		0.97269	-67.6753
9780112500		0.97286	-67.8004
9805100000		0.97297	-67.991
9830087500		0.97248	-68.1875
9855075000		0.9725	-68.326
9880062500		0.97288	-68.4636
9905050000		0.97251	-68.6333
9930037500		0.97176	-68.8158
9955025000		0.9716	-69.0019
9980012500		0.97173	-69.1913
10005000000		0.9715	-69.3586
10029987500		0.97109	-69.5209
10054975000		0.97099	-69.7065
10079962500		0.9709	-69.9041
10104950000		0.97082	-70.0744
10129937500		0.97088	-70.2152
10154925000		0.9706	-70.3783
10179912500		0.97035	-70.5606
10204900000		0.97064	-70.74
10229887500		0.97072	-70.9051
10254875000		0.97011	-71.0138
10279862500		0.96999	-71.1581
10304850000		0.9699	-71.3894
10329837500		0.9694	-71.6021
10354825000		0.96942	-71.7454
10379812500		0.96981	-71.8951
10404800000		0.96917	-72.0697
10429787500		0.96858	-72.2756
10454775000		0.96877	-72.4726
10479762500		0.96912	-72.6375
10504750000		0.96891	-72.7761
10529737500		0.96853	-72.9129
10554725000		0.96842	-73.1176
10579712500		0.96839	-73.3328
10604700000		0.96849	-73.4717
10629687500		0.96893	-73.5822
10654675000		0.96836	-73.7328
10679662500		0.96753	-73.9197
10704650000		0.96791	-74.1353
10729637500		0.96778	-74.3085
10754625000		0.96771	-74.4333
10779612500		0.96729	-74.5871
10804600000		0.96641	-74.8059
10829587500		0.96622	-75.0101
10854575000		0.96701	-75.2065
10879562500		0.96699	-75.371
10904550000		0.96624	-75.4943
10929537500		0.9663	-75.6429
10954525000		0.96667	-75.8814
10979512500		0.96636	-76.0747
11004500000		0.96637	-76.172
11029487500		0.9663	-76.2796
11054475000		0.96563	-76.4604
11079462500		0.96536	-76.6519
11104450000		0.9658	-76.8532
11129437500		0.96562	-77.0296
11154425000		0.96498	-77.1753
11179412500		0.96463	-77.3646
11204400000		0.9647	-77.5535
11229387500		0.96465	-77.7468
11254375000		0.96494	-77.8914
11279362500		0.96501	-78.0417
11304350000		0.96436	-78.1901
11329337500		0.9644	-78.337
11354325000		0.96497	-78.5398
11379312500		0.96427	-78.7347
11404300000		0.96366	-78.8473
11429287500		0.96424	-79.0117
11454275000		0.9638	-79.2412
11479262500		0.96291	-79.4058
11504250000		0.96339	-79.5452
11529237500		0.96367	-79.7687
11554225000		0.96285	-79.9478
11579212500		0.96267	-80.0703
11604200000		0.96344	-80.2434
11629187500		0.96287	-80.4821
11654175000		0.96219	-80.5973
11679162500		0.96244	-80.7101
11704150000		0.96266	-80.9146
11729137500		0.96189	-81.0696
11754125000		0.96218	-81.2329
11779112500		0.96193	-81.4329
11804100000		0.96146	-81.605
11829087500		0.96174	-81.7349
11854075000		0.96205	-81.9218
11879062500		0.96101	-82.1084
11904050000		0.96081	-82.2633
11929037500		0.96144	-82.4708
11954025000		0.96098	-82.653
11979012500		0.96053	-82.7552
!
!				Infineon Technologies AG
