! Infineon Technologies  Discrete & RF Semiconductors
! BAT15-02ELS
! IAC = 9 mA
! One-Port S-Parameters
# Hz  S  MA  R  50
!f									S11
!Hz							Mag  Ang
309850000		0.70145	178.8791
334837500		0.70121	178.8347
359825000		0.70075	178.8129
384812500		0.70083	178.6539
409800000		0.70067	178.5743
434787500		0.70062	178.5342
459775000		0.70088	178.4677
484762500		0.70059	178.385
509750000		0.7002	178.3492
534737500		0.70041	178.2437
559725000		0.70034	178.1637
584712500		0.70009	178.1089
609700000		0.69994	178.0696
634687500		0.69944	177.9532
659675000		0.69949	177.8756
684662500		0.69931	177.8233
709650000		0.69919	177.77
734637500		0.69926	177.713
759625000		0.69917	177.6339
784612500		0.69914	177.5676
809600000		0.69928	177.5058
834587500		0.69943	177.4342
859575000		0.69937	177.3608
884562500		0.69913	177.2871
909550000		0.69904	177.212
934537500		0.69884	177.1367
959525000		0.69865	177.0594
984512500		0.69853	176.9924
1009500000		0.69832	176.9169
1034487500		0.69812	176.8548
1059475000		0.69809	176.7864
1084462500		0.69791	176.7228
1109450000		0.69798	176.6733
1134437500		0.69825	176.6112
1159425000		0.69843	176.5411
1184412500		0.6984	176.4634
1209400000		0.69843	176.3836
1234387500		0.69838	176.2873
1259375000		0.69822	176.2116
1284362500		0.69809	176.1678
1309350000		0.69802	176.109
1334337500		0.69776	176.0273
1359325000		0.69756	175.9461
1384312500		0.6976	175.8667
1409300000		0.69742	175.7989
1434287500		0.69721	175.7675
1459275000		0.69712	175.7056
1484262500		0.69697	175.637
1509250000		0.69732	175.5745
1534237500		0.69776	175.4973
1559225000		0.69787	175.4332
1584212500		0.69794	175.3654
1609200000		0.69797	175.2622
1634187500		0.69766	175.1545
1659175000		0.6974	175.1002
1684162500		0.6975	175.0555
1709150000		0.6973	174.9872
1734137500		0.69682	174.9172
1759125000		0.69673	174.8389
1784112500		0.69661	174.7474
1809100000		0.69628	174.6975
1834087500		0.69624	174.6615
1859075000		0.69622	174.5712
1884062500		0.69609	174.5426
1909050000		0.6964	174.481
1934037500		0.69685	174.4131
1959025000		0.69711	174.337
1984012500		0.69701	174.3079
2009000000		0.69727	174.1916
2033987500		0.69698	174.091
2058975000		0.69663	174.0514
2083962500		0.69689	173.9592
2108950000		0.69675	173.8521
2133937500		0.69616	173.8248
2158925000		0.69601	173.7628
2183912500		0.69591	173.6899
2208900000		0.69581	173.5507
2233887500		0.6958	173.5386
2258875000		0.69584	173.4781
2283862500		0.69561	173.4313
2308850000		0.69583	173.3687
2333837500		0.69604	173.2753
2358825000		0.69611	173.2203
2383812500		0.69629	173.1652
2408800000		0.69593	173.1273
2433787500		0.69576	173.0139
2458775000		0.69572	172.9337
2483762500		0.69579	172.856
2508750000		0.6957	172.7922
2533737500		0.6955	172.7366
2558725000		0.69531	172.6636
2583712500		0.69526	172.5605
2608700000		0.69534	172.4404
2633687500		0.69524	172.4185
2658675000		0.69503	172.381
2683662500		0.69481	172.3313
2708650000		0.69481	172.2414
2733637500		0.69483	172.1376
2758625000		0.6949	172.1143
2783612500		0.69498	172.0702
2808600000		0.69486	171.9918
2833587500		0.69481	171.9422
2858575000		0.69477	171.8557
2883562500		0.69488	171.7909
2908550000		0.69493	171.735
2933537500		0.69491	171.6444
2958525000		0.69452	171.6345
2983512500		0.6947	171.4922
3008500000		0.69468	171.4187
3033487500		0.69476	171.3722
3058475000		0.69466	171.3118
3083462500		0.69445	171.2342
3108450000		0.6942	171.1714
3133437500		0.69439	171.0705
3158425000		0.69451	171.0297
3183412500		0.69446	170.9644
3208400000		0.69421	170.8932
3233387500		0.69407	170.8215
3258375000		0.69423	170.7434
3283362500		0.69418	170.6885
3308350000		0.69395	170.6682
3333337500		0.69388	170.5648
3358325000		0.69382	170.4902
3383312500		0.69374	170.4617
3408300000		0.69404	170.3654
3433287500		0.69386	170.309
3458275000		0.69379	170.249
3483262500		0.69391	170.1672
3508250000		0.69396	170.0922
3533237500		0.69402	170.0046
3558225000		0.69392	169.9726
3583212500		0.69388	169.8927
3608200000		0.69372	169.8177
3633187500		0.6937	169.7562
3658175000		0.69382	169.6921
3683162500		0.69365	169.6221
3708150000		0.6935	169.5351
3733137500		0.69348	169.4953
3758125000		0.69355	169.4086
3783112500		0.69317	169.3893
3808100000		0.69329	169.3134
3833087500		0.69336	169.2436
3858075000		0.69325	169.1767
3883062500		0.69329	169.1168
3908050000		0.69339	169.0535
3933037500		0.69326	168.9963
3958025000		0.69335	168.9334
3983012500		0.69343	168.8545
4008000000		0.69336	168.7813
4032987500		0.69322	168.7359
4057975000		0.69341	168.656
4082962500		0.69328	168.5676
4107950000		0.69307	168.5069
4132937500		0.69319	168.4508
4157925000		0.69314	168.3772
4182912500		0.69288	168.306
4207900000		0.69284	168.2495
4232887500		0.69297	168.1887
4257875000		0.69291	168.1224
4282862500		0.69267	168.0751
4307850000		0.69272	168.0108
4332837500		0.69268	167.9269
4357825000		0.69264	167.8675
4382812500		0.69275	167.8233
4407800000		0.69273	167.7525
4432787500		0.69247	167.6818
4457775000		0.69258	167.6129
4482762500		0.69268	167.5429
4507750000		0.69268	167.4952
4532737500		0.69266	167.4409
4557725000		0.69259	167.3567
4582712500		0.69238	167.2906
4607700000		0.69254	167.2511
4632687500		0.69274	167.1965
4657675000		0.69249	167.1319
4682662500		0.6922	167.0601
4707650000		0.69213	166.9806
4732637500		0.69231	166.9073
4757625000		0.69238	166.8556
4782612500		0.69212	166.802
4807600000		0.692	166.7347
4832587500		0.69206	166.6427
4857575000		0.69214	166.573
4882562500		0.69227	166.5419
4907550000		0.69237	166.4963
4932537500		0.69219	166.4213
4957525000		0.69195	166.3528
4982512500		0.69215	166.3027
5007500000		0.69237	166.2517
5032487500		0.69226	166.1942
5057475000		0.69196	166.1284
5082462500		0.69194	166.0551
5107450000		0.6921	165.9713
5132437500		0.69209	165.9092
5157425000		0.692	165.8655
5182412500		0.69197	165.8012
5207400000		0.6919	165.7106
5232387500		0.69177	165.6407
5257375000		0.69181	165.5915
5282362500		0.69191	165.5421
5307350000		0.69185	165.4767
5332337500		0.69175	165.4082
5357325000		0.6918	165.3481
5382312500		0.6919	165.2943
5407300000		0.69188	165.2421
5432287500		0.69177	165.1831
5457275000		0.69169	165.1218
5482262500		0.69178	165.0597
5507250000		0.69192	164.9872
5532237500		0.6917	164.9138
5557225000		0.69154	164.8658
5582212500		0.69176	164.8083
5607200000		0.69183	164.7255
5632187500		0.69148	164.6586
5657175000		0.69137	164.6122
5682162500		0.69172	164.5301
5707150000		0.69176	164.4539
5732137500		0.69165	164.4233
5757125000		0.69171	164.393
5782112500		0.69178	164.3131
5807100000		0.69164	164.2315
5832087500		0.69175	164.1773
5857075000		0.69199	164.134
5882062500		0.69193	164.0803
5907050000		0.6915	164.0079
5932037500		0.69139	163.9332
5957025000		0.69159	163.8512
5982012500		0.69162	163.7822
6007000000		0.69145	163.7362
6031987500		0.69141	163.6657
6056975000		0.6914	163.5615
6081962500		0.69152	163.495
6106950000		0.69186	163.4629
6131937500		0.69189	163.438
6156925000		0.69172	163.4002
6181912500		0.69173	163.3168
6206900000		0.69165	163.2264
6231887500		0.69161	163.203
6256875000		0.69182	163.1805
6281862500		0.69159	163.0884
6306850000		0.69096	162.9944
6331837500		0.69102	162.9262
6356825000		0.69149	162.8428
6381812500		0.69134	162.774
6406800000		0.69107	162.7355
6431787500		0.6912	162.6548
6456775000		0.69138	162.5571
6481762500		0.6915	162.5105
6506750000		0.69177	162.4885
6531737500		0.69175	162.442
6556725000		0.69153	162.3889
6581712500		0.69157	162.3308
6606700000		0.69164	162.2709
6631687500		0.69155	162.2344
6656675000		0.69138	162.179
6681662500		0.69128	162.1016
6706650000		0.69132	162.022
6731637500		0.69148	161.9548
6756625000		0.69139	161.8788
6781612500		0.69116	161.8129
6806600000		0.69119	161.7433
6831587500		0.69154	161.6709
6856575000		0.69168	161.6046
6881562500		0.69158	161.5593
6906550000		0.69141	161.5194
6931537500		0.6915	161.468
6956525000		0.69166	161.4072
6981512500		0.69174	161.3688
7006500000		0.6917	161.3398
7031487500		0.69164	161.2842
7056475000		0.69146	161.2026
7081462500		0.69146	161.1343
7106450000		0.69145	161.0744
7131437500		0.69134	161.0126
7156425000		0.6912	160.9334
7181412500		0.69106	160.8409
7206400000		0.69116	160.7729
7231387500		0.69157	160.7104
7256375000		0.69171	160.6318
7281362500		0.69153	160.5809
7306350000		0.6918	160.5417
7331337500		0.69204	160.4796
7356325000		0.69196	160.4512
7381312500		0.69215	160.4302
7406300000		0.69214	160.3638
7431287500		0.69181	160.3026
7456275000		0.69175	160.2583
7481262500		0.69175	160.1847
7506250000		0.69147	160.0957
7531237500		0.69144	160.0146
7556225000		0.6916	159.9214
7581212500		0.69161	159.8497
7606200000		0.69171	159.8004
7631187500		0.69181	159.7241
7656175000		0.69185	159.6469
7681162500		0.69212	159.61
7706150000		0.69247	159.6017
7731137500		0.69259	159.582
7756125000		0.6922	159.5306
7781112500		0.69196	159.471
7806100000		0.69215	159.411
7831087500		0.69218	159.3435
7856075000		0.69169	159.3068
7881062500		0.69146	159.2455
7906050000		0.69149	159.1147
7931037500		0.6916	159.0036
7956025000		0.69195	158.9549
7981012500		0.69212	158.8965
8006000000		0.69174	158.8262
8030987500		0.69162	158.752
8055975000		0.69227	158.6801
8080962500		0.69276	158.6441
8105950000		0.69269	158.6478
8130937500		0.69224	158.6451
8155925000		0.69199	158.5798
8180912500		0.69204	158.4832
8205900000		0.69221	158.4274
8230887500		0.69223	158.4057
8255875000		0.69187	158.3416
8280862500		0.69137	158.2417
8305850000		0.69151	158.1294
8330837500		0.69184	158.0294
8355825000		0.69184	157.9865
8380812500		0.69181	157.9529
8405800000		0.6918	157.8594
8430787500		0.69182	157.7727
8455775000		0.69233	157.7547
8480762500		0.69288	157.7465
8505750000		0.69259	157.7227
8530737500		0.69213	157.6963
8555725000		0.69224	157.626
8580712500		0.6925	157.5442
8605700000		0.69246	157.504
8630687500		0.69226	157.4689
8655675000		0.69199	157.3896
8680662500		0.69183	157.2806
8705650000		0.69188	157.1752
8730637500		0.69213	157.0896
8755625000		0.69219	157.0143
8780612500		0.69217	156.9527
8805600000		0.69236	156.9028
8830587500		0.69277	156.859
8855575000		0.69291	156.825
8880562500		0.69296	156.8045
8905550000		0.69298	156.7779
8930537500		0.69294	156.7414
8955525000		0.69284	156.6867
8980512500		0.69272	156.6204
9005500000		0.69257	156.5336
9030487500		0.69244	156.446
9055475000		0.69236	156.3741
9080462500		0.69237	156.2901
9105450000		0.69225	156.176
9130437500		0.69216	156.076
9155425000		0.69258	156.0076
9180412500		0.69313	155.964
9205400000		0.69316	155.9449
9230387500		0.69298	155.9157
9255375000		0.693	155.853
9280362500		0.69307	155.7988
9305350000		0.69333	155.7913
9330337500		0.69344	155.7864
9355325000		0.69314	155.7324
9380312500		0.69262	155.6393
9405300000		0.69262	155.5548
9430287500		0.693	155.4841
9455275000		0.69309	155.423
9480262500		0.69261	155.3475
9505250000		0.69239	155.2406
9530237500		0.69256	155.1179
9555225000		0.69285	155.0504
9580212500		0.69329	155.0283
9605200000		0.69338	154.9712
9630187500		0.69291	154.9002
9655175000		0.69322	154.8699
9680162500		0.69411	154.8202
9705150000		0.69401	154.7884
9730137500		0.69351	154.7991
9755125000		0.69352	154.7356
9780112500		0.69357	154.6194
9805100000		0.69335	154.5649
9830087500		0.69347	154.5329
9855075000		0.69325	154.4479
9880062500		0.69277	154.3258
9905050000		0.69283	154.2154
9930037500		0.69338	154.148
9955025000		0.69354	154.1029
9980012500		0.69327	154.0532
10005000000		0.69325	153.9864
10029987500		0.69373	153.9199
10054975000		0.69397	153.8944
10079962500		0.69389	153.9059
10104950000		0.69373	153.8748
10129937500		0.69348	153.7825
10154925000		0.69351	153.7237
10179912500		0.69387	153.685
10204900000		0.6936	153.6569
10229887500		0.69306	153.5999
10254875000		0.69318	153.4661
10279862500		0.69354	153.3193
10304850000		0.69387	153.2902
10329837500		0.69425	153.2992
10354825000		0.69406	153.2172
10379812500		0.69371	153.1046
10404800000		0.69428	153.0444
10429787500		0.6951	153.0357
10454775000		0.69514	153.0559
10479762500		0.69455	153.0322
10504750000		0.69426	152.9383
10529737500		0.69469	152.8403
10554725000		0.69501	152.808
10579712500		0.69499	152.8263
10604700000		0.69449	152.7651
10629687500		0.69388	152.6201
10654675000		0.69408	152.4944
10679662500		0.69497	152.4361
10704650000		0.6953	152.3992
10729637500		0.6948	152.3828
10754625000		0.69455	152.2499
10779612500		0.69492	152.1389
10804600000		0.69594	152.1396
10829587500		0.69665	152.1589
10854575000		0.69606	152.1585
10879562500		0.69537	152.1123
10904550000		0.69588	152.0156
10929537500		0.69633	151.9266
10954525000		0.69616	151.9231
10979512500		0.69579	151.916
11004500000		0.69524	151.7882
11029487500		0.69489	151.6679
11054475000		0.69566	151.5392
11079462500		0.69626	151.4916
11104450000		0.69606	151.4609
11129437500		0.6959	151.3994
11154425000		0.69636	151.3055
11179412500		0.69693	151.2586
11204400000		0.69718	151.279
11229387500		0.69717	151.299
11254375000		0.6968	151.2477
11279362500		0.69648	151.1772
11304350000		0.69682	151.1072
11329337500		0.69705	151.0244
11354325000		0.69655	150.9798
11379312500		0.69652	150.9264
11404300000		0.69696	150.786
11429287500		0.6967	150.674
11454275000		0.69674	150.652
11479262500		0.69741	150.6031
11504250000		0.69722	150.5545
11529237500		0.69711	150.4945
11554225000		0.69775	150.4887
11579212500		0.69802	150.4123
11604200000		0.6975	150.3565
11629187500		0.69756	150.3409
11654175000		0.69797	150.2864
11679162500		0.69764	150.206
11704150000		0.69715	150.1631
11729137500		0.69753	150.0771
11754125000		0.6978	149.9268
11779112500		0.69766	149.92
11804100000		0.69795	149.8955
11829087500		0.69776	149.793
11854075000		0.6972	149.7066
11879062500		0.69785	149.6566
11904050000		0.69858	149.5893
11929037500		0.69814	149.5904
11954025000		0.69794	149.6058
11979012500		0.69819	149.5066
!
!				Infineon Technologies AG
