! Infineon Technologies  Discrete & RF Semiconductors
! BAT15-02ELS
! IAC = 0.2 mA
! One-Port S-Parameters
# Hz  S  MA  R  50
!f									S11
!Hz							Mag  Ang
309850000		0.59092	-2.0908
334837500		0.59059	-2.5831
359825000		0.59033	-2.6495
384812500		0.59713	-2.8213
409800000		0.59304	-3.0278
434787500		0.58601	-3.2667
459775000		0.59421	-3.4096
484762500		0.59526	-3.5039
509750000		0.58739	-4.0198
534737500		0.58768	-4.1894
559725000		0.59107	-4.1671
584712500		0.58826	-4.5454
609700000		0.58554	-4.6664
634687500		0.59176	-4.9127
659675000		0.59	-5.1247
684662500		0.58606	-5.3466
709650000		0.59346	-5.559
734637500		0.59237	-5.7873
759625000		0.59205	-6.0546
784612500		0.59526	-6.0993
809600000		0.58936	-6.4438
834587500		0.59001	-6.733
859575000		0.5935	-7.1966
884562500		0.58713	-7.0456
909550000		0.59188	-7.5181
934537500		0.5918	-7.7797
959525000		0.58662	-7.7983
984512500		0.59527	-8.1468
1009500000		0.58839	-8.3251
1034487500		0.58409	-8.4736
1059475000		0.59489	-8.8141
1084462500		0.58878	-8.7457
1109450000		0.58746	-9.1562
1134437500		0.59595	-9.249
1159425000		0.58841	-9.5214
1184412500		0.58873	-9.8654
1209400000		0.5885	-9.7914
1234387500		0.58956	-10.3237
1259375000		0.58805	-10.3314
1284362500		0.5878	-10.5757
1309350000		0.59099	-10.8307
1334337500		0.58992	-11.0083
1359325000		0.58903	-11.3178
1384312500		0.5869	-11.4633
1409300000		0.5881	-11.5277
1434287500		0.58971	-11.9268
1459275000		0.58508	-11.9506
1484262500		0.58758	-12.2203
1509250000		0.5914	-12.2433
1534237500		0.58479	-12.6329
1559225000		0.58656	-12.7826
1584212500		0.58892	-13.0001
1609200000		0.58655	-13.1677
1634187500		0.58778	-13.434
1659175000		0.58594	-13.6406
1684162500		0.58669	-13.9251
1709150000		0.59641	-14.0792
1734137500		0.58172	-14.2405
1759125000		0.58186	-14.6492
1784112500		0.59408	-14.5638
1809100000		0.58321	-14.7297
1834087500		0.58203	-15.0132
1859075000		0.59221	-15.1499
1884062500		0.58373	-15.4372
1909050000		0.58187	-15.4774
1934037500		0.58517	-15.705
1959025000		0.58442	-16.1022
1984012500		0.58107	-16.0476
2009000000		0.58311	-16.5777
2033987500		0.58351	-16.5206
2058975000		0.57981	-16.9214
2083962500		0.58553	-17.1055
2108950000		0.58796	-17.2953
2133937500		0.58166	-17.4371
2158925000		0.58234	-17.7043
2183912500		0.59013	-17.8194
2208900000		0.58795	-17.9927
2233887500		0.58297	-18.1927
2258875000		0.58568	-18.6098
2283862500		0.58861	-18.5538
2308850000		0.58086	-18.8491
2333837500		0.58283	-19.0367
2358825000		0.59065	-19.1505
2383812500		0.58389	-19.5235
2408800000		0.57446	-19.7961
2433787500		0.58901	-20.0455
2458775000		0.59205	-20.0311
2483762500		0.58393	-20.491
2508750000		0.58751	-20.4577
2533737500		0.5909	-20.7614
2558725000		0.58961	-20.9021
2583712500		0.59144	-21.2214
2608700000		0.59352	-21.3987
2633687500		0.59159	-21.524
2658675000		0.58517	-21.8225
2683662500		0.58899	-22.063
2708650000		0.59442	-22.0381
2733637500		0.58961	-22.4032
2758625000		0.58932	-22.493
2783612500		0.58837	-22.9617
2808600000		0.58652	-23.0074
2833587500		0.59094	-23.2372
2858575000		0.5925	-23.3785
2883562500		0.58622	-23.5851
2908550000		0.58841	-23.9564
2933537500		0.5915	-24.1603
2958525000		0.59277	-24.2193
2983512500		0.58864	-24.5737
3008500000		0.58478	-24.3273
3033487500		0.59153	-24.5378
3058475000		0.58728	-24.683
3083462500		0.58344	-25.1095
3108450000		0.59056	-25.218
3133437500		0.58645	-25.4456
3158425000		0.58311	-25.7493
3183412500		0.58399	-25.9034
3208400000		0.58903	-26.0725
3233387500		0.59103	-26.2203
3258375000		0.5871	-26.5157
3283362500		0.58658	-26.8441
3308350000		0.59072	-27.0693
3333337500		0.59043	-27.2846
3358325000		0.58742	-27.4483
3383312500		0.58483	-27.6191
3408300000		0.59028	-27.8341
3433287500		0.58675	-27.9582
3458275000		0.58169	-28.3852
3483262500		0.58786	-28.4708
3508250000		0.58828	-28.7158
3533237500		0.58055	-28.9376
3558225000		0.5851	-29.0274
3583212500		0.58428	-29.2184
3608200000		0.58516	-29.5492
3633187500		0.59129	-29.6162
3658175000		0.58615	-29.9915
3683162500		0.58517	-30.1829
3708150000		0.58908	-30.4951
3733137500		0.58531	-30.5132
3758125000		0.58684	-30.728
3783112500		0.58504	-30.8888
3808100000		0.58603	-31.2289
3833087500		0.58768	-31.3413
3858075000		0.58043	-31.7653
3883062500		0.58196	-31.7765
3908050000		0.5896	-31.9586
3933037500		0.58164	-32.3109
3958025000		0.57956	-32.4368
3983012500		0.58865	-32.5192
4008000000		0.58782	-32.9478
4032987500		0.58127	-33.1692
4057975000		0.58421	-33.364
4082962500		0.58965	-33.3417
4107950000		0.58237	-33.8316
4132937500		0.58258	-33.8928
4157925000		0.58926	-34.0862
4182912500		0.58699	-34.3585
4207900000		0.58388	-34.5975
4232887500		0.58403	-34.8229
4257875000		0.58515	-35.0175
4282862500		0.58974	-35.0781
4307850000		0.58504	-35.3777
4332837500		0.58607	-35.6343
4357825000		0.59052	-35.7407
4382812500		0.58537	-36.0711
4407800000		0.58918	-36.0905
4432787500		0.5908	-36.4738
4457775000		0.58296	-36.5214
4482762500		0.59161	-36.7601
4507750000		0.58912	-37.041
4532737500		0.58062	-37.4485
4557725000		0.59112	-37.4563
4582712500		0.58818	-37.6366
4607700000		0.58046	-38.0128
4632687500		0.58355	-38.1747
4657675000		0.58881	-38.3136
4682662500		0.5912	-38.6054
4707650000		0.58406	-38.7691
4732637500		0.58305	-39.095
4757625000		0.58912	-39.1391
4782612500		0.58577	-39.3511
4807600000		0.58725	-39.5072
4832587500		0.58465	-39.6923
4857575000		0.58863	-40.1052
4882562500		0.5861	-40.1075
4907550000		0.58082	-40.5611
4932537500		0.58852	-40.5793
4957525000		0.58697	-40.7032
4982512500		0.58054	-41.0129
5007500000		0.58521	-41.1478
5032487500		0.58612	-41.4868
5057475000		0.58874	-41.725
5082462500		0.58517	-41.8448
5107450000		0.5813	-42.3155
5132437500		0.58689	-42.0109
5157425000		0.58613	-42.5955
5182412500		0.58644	-42.555
5207400000		0.58977	-42.7488
5232387500		0.58714	-43.1517
5257375000		0.58642	-43.353
5282362500		0.5886	-43.5838
5307350000		0.58602	-43.6438
5332337500		0.58684	-43.8345
5357325000		0.58936	-44.0451
5382312500		0.5864	-44.1825
5407300000		0.58688	-44.563
5432287500		0.59062	-44.7382
5457275000		0.59041	-44.9047
5482262500		0.58672	-45.2127
5507250000		0.58543	-45.3495
5532237500		0.59125	-45.423
5557225000		0.58891	-45.724
5582212500		0.58536	-45.9961
5607200000		0.58921	-46.1093
5632187500		0.59285	-46.3217
5657175000		0.58538	-46.5611
5682162500		0.58403	-46.8741
5707150000		0.59298	-46.7952
5732137500		0.58886	-47.0316
5757125000		0.58591	-47.5227
5782112500		0.59064	-47.3777
5807100000		0.59007	-47.7681
5832087500		0.58863	-47.9232
5857075000		0.58908	-48.1271
5882062500		0.58952	-48.5713
5907050000		0.58504	-48.5221
5932037500		0.58755	-48.9314
5957025000		0.59078	-48.9622
5982012500		0.58655	-49.0727
6007000000		0.58897	-49.5425
6031987500		0.59083	-49.3055
6056975000		0.59212	-49.7814
6081962500		0.59139	-49.9594
6106950000		0.58804	-50.132
6131937500		0.59438	-50.512
6156925000		0.58731	-50.4082
6181912500		0.58604	-50.9766
6206900000		0.59556	-50.8066
6231887500		0.59182	-51.0034
6256875000		0.58952	-51.7212
6281862500		0.59286	-51.5758
6306850000		0.59204	-51.8897
6331837500		0.59007	-52.0563
6356825000		0.58881	-52.1005
6381812500		0.59125	-52.4374
6406800000		0.59204	-52.3982
6431787500		0.59257	-52.8761
6456775000		0.59452	-52.9523
6481762500		0.59322	-53.1776
6506750000		0.59323	-53.4708
6531737500		0.59437	-53.5804
6556725000		0.59044	-53.5897
6581712500		0.58884	-54.1388
6606700000		0.59404	-54.1586
6631687500		0.59147	-54.4567
6656675000		0.59082	-54.8289
6681662500		0.58907	-54.9207
6706650000		0.58858	-55.1433
6731637500		0.58888	-55.0898
6756625000		0.58856	-55.4044
6781612500		0.59189	-55.5982
6806600000		0.5957	-55.6024
6831587500		0.59115	-56.1762
6856575000		0.59314	-56.2725
6881562500		0.59253	-56.3536
6906550000		0.59495	-56.6957
6931537500		0.59264	-56.6391
6956525000		0.58914	-57.0792
6981512500		0.59305	-57.2004
7006500000		0.59403	-57.5766
7031487500		0.59263	-57.7548
7056475000		0.59109	-57.9056
7081462500		0.59006	-58.1903
7106450000		0.59347	-58.2196
7131437500		0.59496	-58.2908
7156425000		0.5939	-58.6767
7181412500		0.59637	-58.6945
7206400000		0.5946	-59.072
7231387500		0.59063	-59.2629
7256375000		0.59444	-59.4312
7281362500		0.59618	-59.4963
7306350000		0.59436	-59.8038
7331337500		0.59494	-60.0031
7356325000		0.58992	-60.341
7381312500		0.59161	-60.6003
7406300000		0.5935	-60.7076
7431287500		0.58975	-61.1059
7456275000		0.59023	-61.1387
7481262500		0.595	-61.2913
7506250000		0.5951	-61.5192
7531237500		0.59353	-61.608
7556225000		0.59514	-61.8398
7581212500		0.59575	-61.957
7606200000		0.59652	-62.1874
7631187500		0.59673	-62.4274
7656175000		0.59476	-62.5554
7681162500		0.59684	-62.9933
7706150000		0.59482	-63.0892
7731137500		0.59079	-63.5126
7756125000		0.59318	-63.6146
7781112500		0.5966	-63.6359
7806100000		0.59632	-63.9727
7831087500		0.59535	-64.1336
7856075000		0.59753	-64.3909
7881062500		0.59442	-64.585
7906050000		0.59731	-64.6803
7931037500		0.60042	-64.7559
7956025000		0.59714	-64.9361
7981012500		0.60032	-65.1218
8006000000		0.59766	-65.4373
8030987500		0.59473	-65.7109
8055975000		0.60172	-65.8416
8080962500		0.59746	-66.1128
8105950000		0.59598	-66.4555
8130937500		0.5966	-66.5045
8155925000		0.59643	-66.7782
8180912500		0.60029	-66.7081
8205900000		0.59931	-67.0713
8230887500		0.59579	-67.4509
8255875000		0.5992	-67.5186
8280862500		0.59994	-67.6659
8305850000		0.59735	-67.8009
8330837500		0.59762	-67.9834
8355825000		0.59874	-68.137
8380812500		0.59707	-68.3789
8405800000		0.59584	-68.7141
8430787500		0.59515	-68.8453
8455775000		0.59739	-69.1753
8480762500		0.59577	-69.2983
8505750000		0.5953	-69.604
8530737500		0.59675	-69.6852
8555725000		0.59799	-69.8386
8580712500		0.60057	-69.9397
8605700000		0.59806	-70.27
8630687500		0.59963	-70.4639
8655675000		0.59899	-70.6872
8680662500		0.59587	-70.8171
8705650000		0.60034	-70.9338
8730637500		0.59814	-71.0158
8755625000		0.59669	-71.4158
8780612500		0.59855	-71.3692
8805600000		0.59379	-71.9175
8830587500		0.60088	-71.8662
8855575000		0.60238	-72.134
8880562500		0.59503	-72.5727
8905550000		0.59703	-72.5982
8930537500		0.60207	-72.7559
8955525000		0.60264	-72.7952
8980512500		0.60231	-73.0074
9005500000		0.60114	-73.3137
9030487500		0.6024	-73.3847
9055475000		0.59656	-73.9113
9080462500		0.59669	-73.9541
9105450000		0.60139	-73.986
9130437500		0.59844	-74.2857
9155425000		0.59199	-74.4799
9180412500		0.59638	-74.7909
9205400000		0.59823	-74.8804
9230387500		0.5976	-75.2467
9255375000		0.60073	-75.3804
9280362500		0.59997	-75.5365
9305350000		0.59585	-75.8308
9330337500		0.59886	-75.9411
9355325000		0.60395	-75.8584
9380312500		0.5994	-76.3675
9405300000		0.59575	-76.5209
9430287500		0.60025	-76.8262
9455275000		0.59488	-77.1061
9480262500		0.59328	-77.2886
9505250000		0.59902	-77.2208
9530237500		0.59691	-77.4104
9555225000		0.59194	-77.8002
9580212500		0.59493	-77.9652
9605200000		0.60363	-78.047
9630187500		0.59922	-78.335
9655175000		0.59206	-78.7368
9680162500		0.59811	-78.7036
9705150000		0.60294	-78.8145
9730137500		0.59518	-79.1696
9755125000		0.60169	-79.1787
9780112500		0.60372	-79.4644
9805100000		0.59257	-79.8496
9830087500		0.59559	-80.0973
9855075000		0.60236	-80.0111
9880062500		0.59857	-80.1644
9905050000		0.59904	-80.3979
9930037500		0.60016	-80.4663
9955025000		0.60018	-80.9067
9980012500		0.60168	-80.9767
10005000000		0.60612	-81.1011
10029987500		0.60523	-81.3578
10054975000		0.59692	-81.6482
10079962500		0.59854	-81.9168
10104950000		0.60382	-81.8873
10129937500		0.59766	-82.2048
10154925000		0.59699	-82.5248
10179912500		0.60158	-82.5497
10204900000		0.59663	-82.9335
10229887500		0.59092	-83.2216
10254875000		0.59675	-83.1351
10279862500		0.60544	-83.1527
10304850000		0.59406	-83.6288
10329837500		0.59352	-83.9741
10354825000		0.60376	-83.8187
10379812500		0.60234	-83.9512
10404800000		0.60057	-84.3272
10429787500		0.60388	-84.3182
10454775000		0.60039	-84.7634
10479762500		0.60114	-84.93
10504750000		0.6038	-84.9061
10529737500		0.60139	-85.253
10554725000		0.598	-85.4551
10579712500		0.59798	-85.8157
10604700000		0.60089	-85.815
10629687500		0.60225	-85.8798
10654675000		0.5992	-86.2409
10679662500		0.59965	-86.3451
10704650000		0.60073	-86.6554
10729637500		0.59991	-86.7867
10754625000		0.60501	-86.6916
10779612500		0.60639	-86.9234
10804600000		0.60255	-87.2141
10829587500		0.60288	-87.5697
10854575000		0.60336	-87.7833
10879562500		0.60237	-87.9322
10904550000		0.60395	-88.0556
10929537500		0.60443	-88.1728
10954525000		0.60254	-88.4707
10979512500		0.60323	-88.7448
11004500000		0.6058	-88.6883
11029487500		0.60516	-88.9643
11054475000		0.60604	-89.0627
11079462500		0.60562	-89.3024
11104450000		0.60091	-89.704
11129437500		0.60128	-89.7672
11154425000		0.60597	-89.8362
11179412500		0.60317	-90.1984
11204400000		0.60241	-90.4413
11229387500		0.60453	-90.6637
11254375000		0.60658	-90.7096
11279362500		0.60284	-90.9725
11304350000		0.60582	-91.0739
11329337500		0.60778	-91.0841
11354325000		0.60394	-91.5423
11379312500		0.60423	-91.6885
11404300000		0.61087	-91.6601
11429287500		0.60815	-91.9787
11454275000		0.60376	-92.255
11479262500		0.60876	-92.3608
11504250000		0.60918	-92.518
11529237500		0.60261	-92.9078
11554225000		0.60847	-93.0426
11579212500		0.60884	-93.0027
11604200000		0.60251	-93.5948
11629187500		0.60438	-93.6419
11654175000		0.61086	-93.6466
11679162500		0.61075	-93.8625
11704150000		0.60611	-94.1367
11729137500		0.61028	-94.1736
11754125000		0.61213	-94.3431
11779112500		0.60457	-94.7142
11804100000		0.60916	-94.8627
11829087500		0.61582	-94.6819
11854075000		0.60669	-95.3279
11879062500		0.60568	-95.5303
11904050000		0.61064	-95.5388
11929037500		0.60711	-95.8834
11954025000		0.60485	-96.1358
11979012500		0.61262	-95.9142
!
!				Infineon Technologies AG
