! Infineon Technologies  Discrete & RF Semiconductors
! BAT15-02ELS
! IAC = 0.4 mA
! One-Port S-Parameters
# Hz  S  MA  R  50
!f									S11
!Hz							Mag  Ang
309850000		0.30266	-2.0057
334837500		0.30226	-2.9452
359825000		0.30296	-2.8698
384812500		0.30632	-3.0538
409800000		0.30305	-3.2891
434787500		0.29941	-3.6898
459775000		0.30527	-3.7893
484762500		0.30451	-3.8184
509750000		0.29768	-4.6737
534737500		0.29856	-4.8843
559725000		0.30044	-4.5575
584712500		0.29893	-5.2427
609700000		0.29809	-5.3709
634687500		0.30049	-5.71
659675000		0.30128	-5.9
684662500		0.2996	-6.2904
709650000		0.30496	-6.4504
734637500		0.30349	-6.8219
759625000		0.30473	-7.2475
784612500		0.30629	-7.1308
809600000		0.30184	-7.7014
834587500		0.30091	-8.1148
859575000		0.30421	-8.9321
884562500		0.29985	-8.3273
909550000		0.30189	-9.2125
934537500		0.30414	-9.5688
959525000		0.30026	-9.3743
984512500		0.30516	-9.9697
1009500000		0.30082	-10.172
1034487500		0.29763	-10.2878
1059475000		0.30538	-10.88
1084462500		0.30178	-10.5015
1109450000		0.30112	-11.2423
1134437500		0.30658	-11.25
1159425000		0.30031	-11.7104
1184412500		0.30231	-12.1951
1209400000		0.29878	-11.7955
1234387500		0.30126	-12.8081
1259375000		0.30037	-12.5737
1284362500		0.30067	-12.8837
1309350000		0.30368	-13.2298
1334337500		0.30177	-13.4489
1359325000		0.30266	-13.906
1384312500		0.30066	-14.0325
1409300000		0.30048	-13.9816
1434287500		0.30171	-14.6806
1459275000		0.29884	-14.5511
1484262500		0.30134	-14.991
1509250000		0.30224	-14.8383
1534237500		0.2976	-15.557
1559225000		0.29893	-15.6438
1584212500		0.29886	-15.8826
1609200000		0.299	-15.9733
1634187500		0.29925	-16.3877
1659175000		0.29941	-16.5564
1684162500		0.29983	-16.9742
1709150000		0.30674	-17.0853
1734137500		0.29631	-17.244
1759125000		0.29706	-17.9365
1784112500		0.3039	-17.6079
1809100000		0.29749	-17.7633
1834087500		0.2965	-18.2707
1859075000		0.30295	-18.3961
1884062500		0.29771	-18.7327
1909050000		0.29656	-18.8607
1934037500		0.29626	-19.1609
1959025000		0.29738	-19.6966
1984012500		0.29416	-19.3794
2009000000		0.29657	-20.3327
2033987500		0.29737	-19.9625
2058975000		0.29433	-20.75
2083962500		0.29944	-20.872
2108950000		0.2999	-21.0671
2133937500		0.29701	-21.0832
2158925000		0.29732	-21.514
2183912500		0.30268	-21.6785
2208900000		0.30195	-21.764
2233887500		0.29733	-21.981
2258875000		0.29928	-22.8223
2283862500		0.3022	-22.515
2308850000		0.2956	-22.9465
2333837500		0.29858	-23.0766
2358825000		0.30164	-23.3425
2383812500		0.2989	-23.7219
2408800000		0.29349	-24.3297
2433787500		0.30346	-24.4593
2458775000		0.30499	-24.2537
2483762500		0.30126	-25.0742
2508750000		0.30379	-24.7453
2533737500		0.30681	-25.1852
2558725000		0.3055	-25.285
2583712500		0.30731	-25.8006
2608700000		0.30855	-25.9309
2633687500		0.30625	-26.0157
2658675000		0.30256	-26.557
2683662500		0.30594	-26.8386
2708650000		0.30912	-26.5793
2733637500		0.30683	-27.2357
2758625000		0.30611	-27.216
2783612500		0.30577	-28.0661
2808600000		0.30528	-27.8709
2833587500		0.3065	-28.2504
2858575000		0.30924	-28.3093
2883562500		0.30442	-28.6613
2908550000		0.30664	-29.1508
2933537500		0.30897	-29.3204
2958525000		0.3081	-29.3988
2983512500		0.30604	-29.8973
3008500000		0.30288	-29.2563
3033487500		0.30737	-29.4486
3058475000		0.3046	-29.601
3083462500		0.30216	-30.3883
3108450000		0.30788	-30.3395
3133437500		0.30398	-30.7431
3158425000		0.30267	-31.1408
3183412500		0.30346	-31.2479
3208400000		0.30696	-31.3869
3233387500		0.30847	-31.5029
3258375000		0.30654	-31.9075
3283362500		0.30625	-32.5568
3308350000		0.30929	-32.7329
3333337500		0.30856	-33.0455
3358325000		0.30627	-33.1692
3383312500		0.30446	-33.4024
3408300000		0.30839	-33.636
3433287500		0.30583	-33.8126
3458275000		0.30401	-34.4516
3483262500		0.30671	-34.488
3508250000		0.30709	-34.8435
3533237500		0.30204	-35.2231
3558225000		0.30486	-35.0707
3583212500		0.30421	-35.2936
3608200000		0.30563	-35.804
3633187500		0.31008	-35.6897
3658175000		0.30699	-36.3277
3683162500		0.30561	-36.5881
3708150000		0.30881	-36.949
3733137500		0.30558	-36.8257
3758125000		0.30698	-37.1527
3783112500		0.30629	-37.31
3808100000		0.30766	-37.8029
3833087500		0.3084	-37.9586
3858075000		0.30416	-38.6516
3883062500		0.30431	-38.4845
3908050000		0.30874	-38.6925
3933037500		0.30418	-39.1736
3958025000		0.30357	-39.1858
3983012500		0.30873	-39.276
4008000000		0.30764	-39.9649
4032987500		0.30531	-40.236
4057975000		0.30629	-40.4365
4082962500		0.30899	-40.2981
4107950000		0.30558	-41.0693
4132937500		0.30658	-40.996
4157925000		0.3109	-41.2292
4182912500		0.31033	-41.5899
4207900000		0.30822	-41.9064
4232887500		0.30917	-42.163
4257875000		0.30948	-42.4324
4282862500		0.31253	-42.3196
4307850000		0.30996	-42.7708
4332837500		0.31082	-43.1505
4357825000		0.31416	-43.131
4382812500		0.31095	-43.6645
4407800000		0.31193	-43.5768
4432787500		0.31451	-44.146
4457775000		0.30919	-44.0782
4482762500		0.31539	-44.3582
4507750000		0.31362	-44.7776
4532737500		0.30845	-45.499
4557725000		0.31617	-45.2276
4582712500		0.31182	-45.5804
4607700000		0.30833	-46.1087
4632687500		0.31097	-46.2038
4657675000		0.31309	-46.3893
4682662500		0.31662	-46.688
4707650000		0.31061	-46.9718
4732637500		0.30988	-47.5196
4757625000		0.3142	-47.3319
4782612500		0.31004	-47.7531
4807600000		0.31392	-47.6853
4832587500		0.3105	-48.0564
4857575000		0.31509	-48.6377
4882562500		0.31336	-48.4262
4907550000		0.30898	-49.3722
4932537500		0.31487	-49.0973
4957525000		0.31307	-49.2262
4982512500		0.30931	-49.695
5007500000		0.31394	-49.6505
5032487500		0.3133	-50.3007
5057475000		0.31621	-50.4984
5082462500		0.31233	-50.6968
5107450000		0.31065	-51.5589
5132437500		0.31381	-50.6257
5157425000		0.31311	-51.7663
5182412500		0.31571	-51.2569
5207400000		0.31763	-51.5302
5232387500		0.31614	-52.2493
5257375000		0.31709	-52.3674
5282362500		0.3176	-52.7669
5307350000		0.31577	-52.7104
5332337500		0.31629	-52.9377
5357325000		0.31798	-53.1942
5382312500		0.31706	-53.2108
5407300000		0.31743	-53.8443
5432287500		0.31957	-54.0373
5457275000		0.31956	-54.1844
5482262500		0.31705	-54.7073
5507250000		0.31659	-54.7841
5532237500		0.32017	-54.7303
5557225000		0.31798	-55.2425
5582212500		0.31843	-55.4237
5607200000		0.31987	-55.611
5632187500		0.32213	-55.8815
5657175000		0.31795	-56.1408
5682162500		0.31669	-56.7255
5707150000		0.32258	-56.2966
5732137500		0.31843	-56.743
5757125000		0.31882	-57.4651
5782112500		0.32185	-56.9153
5807100000		0.32034	-57.6965
5832087500		0.32096	-57.6694
5857075000		0.3195	-58.0717
5882062500		0.32164	-58.6988
5907050000		0.31862	-58.4061
5932037500		0.32014	-59.1556
5957025000		0.32318	-58.9048
5982012500		0.31957	-59.0605
6007000000		0.32297	-59.758
6031987500		0.32379	-59.0258
6056975000		0.32465	-59.9358
6081962500		0.32507	-60.0244
6106950000		0.32149	-60.3341
6131937500		0.32637	-60.8545
6156925000		0.31991	-60.5553
6181912500		0.32174	-61.4772
6206900000		0.32739	-60.8823
6231887500		0.32428	-61.1473
6256875000		0.3264	-62.2729
6281862500		0.32809	-61.8072
6306850000		0.32746	-62.3258
6331837500		0.32597	-62.4932
6356825000		0.3246	-62.4602
6381812500		0.32757	-62.8934
6406800000		0.32718	-62.6438
6431787500		0.32938	-63.364
6456775000		0.33054	-63.3713
6481762500		0.32872	-63.7696
6506750000		0.32909	-64.1672
6531737500		0.32881	-64.266
6556725000		0.32582	-64.1012
6581712500		0.32611	-65.0369
6606700000		0.33064	-64.7232
6631687500		0.32875	-65.228
6656675000		0.32934	-65.7917
6681662500		0.32784	-65.8348
6706650000		0.32782	-66.1157
6731637500		0.32663	-65.8623
6756625000		0.3278	-66.2886
6781612500		0.33082	-66.425
6806600000		0.33305	-66.2371
6831587500		0.33076	-67.3172
6856575000		0.33298	-67.2046
6881562500		0.32986	-67.4493
6906550000		0.33236	-67.8868
6931537500		0.33049	-67.58
6956525000		0.32984	-68.2478
6981512500		0.33333	-68.215
7006500000		0.33438	-68.8078
7031487500		0.33441	-68.9037
7056475000		0.33249	-69.1612
7081462500		0.3327	-69.5361
7106450000		0.33576	-69.3047
7131437500		0.33576	-69.3421
7156425000		0.33677	-69.8436
7181412500		0.33703	-69.817
7206400000		0.33534	-70.498
7231387500		0.33332	-70.676
7256375000		0.33505	-70.9537
7281362500		0.33618	-70.8383
7306350000		0.33597	-71.2532
7331337500		0.33695	-71.4283
7356325000		0.33422	-71.9005
7381312500		0.33591	-72.1999
7406300000		0.33587	-72.3735
7431287500		0.33548	-72.8501
7456275000		0.33586	-72.7472
7481262500		0.33958	-72.8671
7506250000		0.34027	-73.1093
7531237500		0.33845	-73.1782
7556225000		0.33985	-73.4601
7581212500		0.33927	-73.6258
7606200000		0.34078	-73.8427
7631187500		0.34212	-74.0521
7656175000		0.3396	-74.2692
7681162500		0.34255	-74.8067
7706150000		0.33952	-74.9942
7731137500		0.33837	-75.6249
7756125000		0.34182	-75.453
7781112500		0.34273	-75.4269
7806100000		0.34471	-75.7412
7831087500		0.34371	-76.0045
7856075000		0.34575	-76.2796
7881062500		0.34407	-76.4858
7906050000		0.34523	-76.6654
7931037500		0.34736	-76.576
7956025000		0.34487	-76.8128
7981012500		0.34649	-77.0731
8006000000		0.34601	-77.3929
8030987500		0.34434	-77.788
8055975000		0.34887	-77.8537
8080962500		0.34576	-78.3397
8105950000		0.34649	-78.7266
8130937500		0.34659	-78.6255
8155925000		0.3476	-78.9427
8180912500		0.34929	-78.6626
8205900000		0.34896	-79.2196
8230887500		0.34824	-79.7363
8255875000		0.3504	-79.6976
8280862500		0.35001	-79.9284
8305850000		0.34776	-80.1032
8330837500		0.34819	-80.2969
8355825000		0.3487	-80.4244
8380812500		0.34764	-80.7423
8405800000		0.34851	-81.1131
8430787500		0.34683	-81.35
8455775000		0.34909	-81.7449
8480762500		0.34776	-81.8645
8505750000		0.34835	-82.2897
8530737500		0.35047	-82.0746
8555725000		0.35073	-82.3324
8580712500		0.35295	-82.2748
8605700000		0.35172	-82.7854
8630687500		0.35277	-83.0215
8655675000		0.35327	-83.2041
8680662500		0.35061	-83.4341
8705650000		0.3535	-83.489
8730637500		0.35116	-83.5443
8755625000		0.35136	-84.1538
8780612500		0.35292	-83.7393
8805600000		0.35092	-84.6982
8830587500		0.35591	-84.3069
8855575000		0.35561	-84.8279
8880562500		0.35221	-85.4448
8905550000		0.354	-85.2539
8930537500		0.35711	-85.4694
8955525000		0.35748	-85.3464
8980512500		0.35819	-85.5166
9005500000		0.35752	-86.0106
9030487500		0.3581	-85.9444
9055475000		0.35482	-86.9139
9080462500		0.3557	-86.7101
9105450000		0.35685	-86.8521
9130437500		0.35525	-87.2127
9155425000		0.3513	-87.4003
9180412500		0.3555	-87.7408
9205400000		0.35607	-87.7816
9230387500		0.35717	-88.2253
9255375000		0.35933	-88.3463
9280362500		0.35816	-88.5837
9305350000		0.35642	-88.9171
9330337500		0.359	-88.9263
9355325000		0.36045	-88.7489
9380312500		0.35956	-89.3826
9405300000		0.3578	-89.5054
9430287500		0.36164	-89.9096
9455275000		0.35757	-90.4157
9480262500		0.35727	-90.5481
9505250000		0.35959	-90.37
9530237500		0.35798	-90.5904
9555225000		0.35673	-91.0106
9580212500		0.35961	-91.0849
9605200000		0.3642	-91.1807
9630187500		0.36012	-91.6721
9655175000		0.3575	-92.2037
9680162500		0.36093	-92.0653
9705150000		0.3634	-92.1309
9730137500		0.36023	-92.4982
9755125000		0.36536	-92.2712
9780112500		0.36584	-92.7783
9805100000		0.35953	-93.3152
9830087500		0.36375	-93.5016
9855075000		0.36714	-93.2623
9880062500		0.36436	-93.4137
9905050000		0.36552	-93.6296
9930037500		0.3655	-93.6603
9955025000		0.36768	-94.124
9980012500		0.36886	-94.1392
10005000000		0.37051	-94.3198
10029987500		0.3692	-94.7274
10054975000		0.36385	-95.2334
10079962500		0.36642	-95.4666
10104950000		0.3686	-95.3077
10129937500		0.3648	-95.8011
10154925000		0.36668	-96.082
10179912500		0.36897	-96.0431
10204900000		0.36585	-96.6118
10229887500		0.36362	-96.9107
10254875000		0.36708	-96.6735
10279862500		0.37164	-96.599
10304850000		0.36468	-97.3526
10329837500		0.36711	-97.6194
10354825000		0.37264	-97.2636
10379812500		0.37028	-97.495
10404800000		0.37078	-97.8836
10429787500		0.37188	-97.8355
10454775000		0.37136	-98.4481
10479762500		0.37334	-98.455
10504750000		0.37345	-98.4297
10529737500		0.37236	-98.9239
10554725000		0.37013	-99.1145
10579712500		0.37214	-99.4888
10604700000		0.3747	-99.2995
10629687500		0.37475	-99.3555
10654675000		0.37313	-99.9057
10679662500		0.37291	-99.9972
10704650000		0.37418	-100.4284
10729637500		0.3746	-100.3945
10754625000		0.37718	-100.1177
10779612500		0.37761	-100.4916
10804600000		0.37592	-100.7828
10829587500		0.37732	-101.2835
10854575000		0.37794	-101.4818
10879562500		0.37776	-101.5646
10904550000		0.37881	-101.6777
10929537500		0.37926	-101.7906
10954525000		0.37877	-102.0476
10979512500		0.38088	-102.2763
11004500000		0.38255	-102.0355
11029487500		0.38243	-102.4938
11054475000		0.38244	-102.562
11079462500		0.38141	-102.9236
11104450000		0.3791	-103.5054
11129437500		0.37931	-103.4012
11154425000		0.3811	-103.5559
11179412500		0.37966	-104.0756
11204400000		0.38109	-104.1776
11229387500		0.38304	-104.5258
11254375000		0.38441	-104.3196
11279362500		0.38211	-104.8145
11304350000		0.38498	-104.7526
11329337500		0.3854	-104.7213
11354325000		0.38445	-105.2978
11379312500		0.38616	-105.2113
11404300000		0.38954	-105.2135
11429287500		0.38727	-105.718
11454275000		0.38575	-105.8684
11479262500		0.38899	-106.0667
11504250000		0.38907	-106.1483
11529237500		0.38534	-106.7147
11554225000		0.38999	-106.7605
11579212500		0.3876	-106.7972
11604200000		0.38578	-107.6141
11629187500		0.388	-107.3408
11654175000		0.39198	-107.3663
11679162500		0.39222	-107.5995
11704150000		0.3903	-107.8649
11729137500		0.39306	-107.8379
11754125000		0.39301	-108.1158
11779112500		0.38885	-108.4618
11804100000		0.39412	-108.5527
11829087500		0.39624	-108.228
11854075000		0.39157	-109.1563
11879062500		0.39225	-109.2314
11904050000		0.39407	-109.3974
11929037500		0.39207	-109.8043
11954025000		0.39188	-109.9779
11979012500		0.39628	-109.5446
!
!				Infineon Technologies AG
