! Infineon Technologies  Discrete & RF Semiconductors
! BAT15-02ELS
! IAC = 90 mA
! One-Port S-Parameters
# Hz  S  MA  R  50
!f									S11
!Hz							Mag  Ang
309850000		0.57072	178.0659
334837500		0.56997	178.0752
359825000		0.56924	178.0671
384812500		0.56882	177.9977
409800000		0.56838	177.964
434787500		0.56809	177.9682
459775000		0.56798	177.9494
484762500		0.56756	177.911
509750000		0.56716	177.8769
534737500		0.56712	177.8146
559725000		0.56667	177.8397
584712500		0.56653	177.7872
609700000		0.56623	177.7874
634687500		0.56593	177.6719
659675000		0.5657	177.6457
684662500		0.56538	177.6635
709650000		0.56541	177.6049
734637500		0.56544	177.5415
759625000		0.5652	177.523
784612500		0.56517	177.4837
809600000		0.56514	177.4747
834587500		0.56533	177.398
859575000		0.5654	177.3175
884562500		0.56515	177.2963
909550000		0.56498	177.2459
934537500		0.56482	177.1901
959525000		0.56472	177.1381
984512500		0.56471	177.0603
1009500000		0.56448	177.0382
1034487500		0.56435	176.9918
1059475000		0.56425	176.9417
1084462500		0.56419	176.8946
1109450000		0.56427	176.8587
1134437500		0.56444	176.8172
1159425000		0.56461	176.7682
1184412500		0.56459	176.7091
1209400000		0.56461	176.6387
1234387500		0.56461	176.5638
1259375000		0.56458	176.5074
1284362500		0.56454	176.4745
1309350000		0.56441	176.4362
1334337500		0.56424	176.3691
1359325000		0.56412	176.3016
1384312500		0.56415	176.2385
1409300000		0.56408	176.1888
1434287500		0.56395	176.1694
1459275000		0.56388	176.1243
1484262500		0.56381	176.0658
1509250000		0.56405	176.0093
1534237500		0.56445	175.9512
1559225000		0.56466	175.903
1584212500		0.56468	175.8497
1609200000		0.56468	175.762
1634187500		0.56459	175.6434
1659175000		0.56444	175.6279
1684162500		0.56449	175.5995
1709150000		0.5643	175.5531
1734137500		0.564	175.4951
1759125000		0.56394	175.4229
1784112500		0.56389	175.3524
1809100000		0.56376	175.3091
1834087500		0.56373	175.2868
1859075000		0.56369	175.213
1884062500		0.56368	175.1823
1909050000		0.56407	175.1002
1934037500		0.5644	175.0796
1959025000		0.56467	175.0141
1984012500		0.56474	174.9625
2009000000		0.56478	174.8945
2033987500		0.56478	174.7763
2058975000		0.56471	174.7137
2083962500		0.56476	174.6641
2108950000		0.56452	174.6386
2133937500		0.56431	174.5581
2158925000		0.56418	174.5024
2183912500		0.56419	174.4091
2208900000		0.56415	174.3166
2233887500		0.56413	174.3455
2258875000		0.56431	174.2622
2283862500		0.56418	174.2205
2308850000		0.56433	174.1667
2333837500		0.56464	174.0875
2358825000		0.56476	174.0406
2383812500		0.5649	173.9977
2408800000		0.56465	173.9819
2433787500		0.56465	173.8443
2458775000		0.5645	173.7972
2483762500		0.56462	173.7322
2508750000		0.56463	173.6862
2533737500		0.56449	173.6412
2558725000		0.56426	173.574
2583712500		0.56428	173.478
2608700000		0.56447	173.3722
2633687500		0.56438	173.3905
2658675000		0.56426	173.3652
2683662500		0.56404	173.3252
2708650000		0.56418	173.2095
2733637500		0.56421	173.1465
2758625000		0.56436	173.1332
2783612500		0.56446	173.098
2808600000		0.56451	173.0048
2833587500		0.56425	173.0268
2858575000		0.56437	172.9091
2883562500		0.56453	172.8538
2908550000		0.56463	172.8153
2933537500		0.56461	172.7291
2958525000		0.56448	172.6581
2983512500		0.56449	172.5965
3008500000		0.5646	172.5377
3033487500		0.56481	172.469
3058475000		0.56462	172.4541
3083462500		0.5645	172.385
3108450000		0.56452	172.293
3133437500		0.5646	172.2318
3158425000		0.56484	172.1714
3183412500		0.56483	172.1217
3208400000		0.56469	172.0555
3233387500		0.56456	172.0192
3258375000		0.56474	171.9471
3283362500		0.56473	171.9067
3308350000		0.56468	171.8658
3333337500		0.56452	171.7991
3358325000		0.56454	171.7296
3383312500		0.56449	171.7126
3408300000		0.56474	171.6288
3433287500		0.56469	171.5798
3458275000		0.56461	171.5576
3483262500		0.56481	171.4559
3508250000		0.56505	171.3565
3533237500		0.56507	171.3092
3558225000		0.56503	171.2846
3583212500		0.56508	171.1869
3608200000		0.56496	171.1486
3633187500		0.56493	171.0944
3658175000		0.56507	171.0411
3683162500		0.56496	170.9857
3708150000		0.56495	170.9012
3733137500		0.56489	170.8647
3758125000		0.56499	170.7899
3783112500		0.56493	170.7525
3808100000		0.56508	170.6777
3833087500		0.56509	170.6186
3858075000		0.56501	170.594
3883062500		0.56512	170.5424
3908050000		0.56533	170.4545
3933037500		0.56527	170.4049
3958025000		0.56528	170.3849
3983012500		0.56538	170.317
4008000000		0.56533	170.2488
4032987500		0.56529	170.2107
4057975000		0.56539	170.141
4082962500		0.56539	170.0639
4107950000		0.56532	170.0039
4132937500		0.56553	169.9296
4157925000		0.56538	169.898
4182912500		0.56533	169.8338
4207900000		0.56542	169.7472
4232887500		0.56558	169.7004
4257875000		0.56559	169.6491
4282862500		0.56538	169.6382
4307850000		0.56537	169.576
4332837500		0.56541	169.5031
4357825000		0.56546	169.4569
4382812500		0.56562	169.4145
4407800000		0.56557	169.3545
4432787500		0.56542	169.2944
4457775000		0.56556	169.2298
4482762500		0.56568	169.1653
4507750000		0.56575	169.1257
4532737500		0.56584	169.0553
4557725000		0.56572	169.0068
4582712500		0.56566	168.9417
4607700000		0.56586	168.9084
4632687500		0.56603	168.8698
4657675000		0.56581	168.8189
4682662500		0.56561	168.7504
4707650000		0.56565	168.6758
4732637500		0.5658	168.6118
4757625000		0.56591	168.5674
4782612500		0.56578	168.5258
4807600000		0.56562	168.4634
4832587500		0.56571	168.3796
4857575000		0.56589	168.3163
4882562500		0.56608	168.2863
4907550000		0.56617	168.2539
4932537500		0.56605	168.1907
4957525000		0.56594	168.1267
4982512500		0.56613	168.077
5007500000		0.56637	168.0368
5032487500		0.56634	167.9939
5057475000		0.56615	167.9336
5082462500		0.56608	167.8634
5107450000		0.56624	167.7913
5132437500		0.56639	167.7358
5157425000		0.56633	167.7003
5182412500		0.56625	167.6421
5207400000		0.56619	167.5614
5232387500		0.56623	167.4953
5257375000		0.56635	167.451
5282362500		0.56643	167.4086
5307350000		0.5664	167.3535
5332337500		0.56638	167.291
5357325000		0.5665	167.2328
5382312500		0.56663	167.1858
5407300000		0.56668	167.1457
5432287500		0.56664	167.096
5457275000		0.5666	167.0373
5482262500		0.56667	166.983
5507250000		0.56679	166.9231
5532237500		0.56672	166.8606
5557225000		0.56662	166.8105
5582212500		0.56676	166.7616
5607200000		0.5668	166.6922
5632187500		0.5666	166.6313
5657175000		0.56658	166.5793
5682162500		0.56685	166.5062
5707150000		0.567	166.4389
5732137500		0.56702	166.412
5757125000		0.56707	166.3832
5782112500		0.56711	166.3168
5807100000		0.56707	166.2434
5832087500		0.56725	166.1921
5857075000		0.56742	166.1538
5882062500		0.56737	166.1127
5907050000		0.56707	166.052
5932037500		0.56699	165.9772
5957025000		0.56716	165.8988
5982012500		0.56725	165.8403
6007000000		0.56716	165.8001
6031987500		0.56716	165.7301
6056975000		0.56715	165.63
6081962500		0.56739	165.5714
6106950000		0.56779	165.544
6131937500		0.56783	165.5261
6156925000		0.56772	165.4932
6181912500		0.56773	165.4241
6206900000		0.56774	165.3423
6231887500		0.56778	165.3202
6256875000		0.56789	165.3041
6281862500		0.56767	165.2309
6306850000		0.56722	165.1423
6331837500		0.56729	165.0645
6356825000		0.56764	164.9881
6381812500		0.56762	164.9313
6406800000		0.56749	164.894
6431787500		0.56758	164.8113
6456775000		0.56776	164.7239
6481762500		0.568	164.6847
6506750000		0.56829	164.6657
6531737500		0.5683	164.6277
6556725000		0.56814	164.5853
6581712500		0.56826	164.5328
6606700000		0.56832	164.4775
6631687500		0.56825	164.444
6656675000		0.56808	164.3985
6681662500		0.56802	164.3262
6706650000		0.56809	164.2473
6731637500		0.56825	164.1839
6756625000		0.56823	164.1179
6781612500		0.56811	164.0553
6806600000		0.56816	163.9831
6831587500		0.56843	163.9103
6856575000		0.56867	163.8579
6881562500		0.5687	163.8219
6906550000		0.56863	163.7824
6931537500		0.56864	163.7336
6956525000		0.56887	163.6833
6981512500		0.56905	163.6492
7006500000		0.56905	163.6254
7031487500		0.56894	163.5763
7056475000		0.56881	163.5045
7081462500		0.56886	163.4388
7106450000		0.56891	163.3789
7131437500		0.56878	163.3244
7156425000		0.56868	163.2565
7181412500		0.56861	163.1656
7206400000		0.56872	163.0915
7231387500		0.56908	163.0307
7256375000		0.56928	162.9662
7281362500		0.56924	162.9162
7306350000		0.56946	162.8751
7331337500		0.5697	162.8208
7356325000		0.5698	162.7972
7381312500		0.56998	162.7814
7406300000		0.56992	162.7264
7431287500		0.56969	162.6758
7456275000		0.56964	162.6317
7481262500		0.56963	162.5635
7506250000		0.56941	162.4774
7531237500		0.56942	162.4
7556225000		0.56958	162.3128
7581212500		0.56969	162.239
7606200000		0.56979	162.1841
7631187500		0.56997	162.1163
7656175000		0.57013	162.0453
7681162500		0.57045	162.0081
7706150000		0.57077	162.0036
7731137500		0.57086	161.9987
7756125000		0.5706	161.955
7781112500		0.57041	161.8944
7806100000		0.57056	161.8384
7831087500		0.5706	161.789
7856075000		0.57024	161.7563
7881062500		0.57	161.6887
7906050000		0.56997	161.5633
7931037500		0.57011	161.4587
7956025000		0.57053	161.403
7981012500		0.57069	161.3529
8006000000		0.57042	161.2895
8030987500		0.57044	161.2142
8055975000		0.57102	161.1371
8080962500		0.57156	161.1078
8105950000		0.57156	161.1245
8130937500		0.57123	161.1289
8155925000		0.57098	161.066
8180912500		0.57096	160.9749
8205900000		0.57114	160.927
8230887500		0.57118	160.9074
8255875000		0.57086	160.8505
8280862500		0.57039	160.7543
8305850000		0.57048	160.6439
8330837500		0.5709	160.5487
8355825000		0.57103	160.5025
8380812500		0.571	160.4685
8405800000		0.57104	160.3829
8430787500		0.57118	160.2989
8455775000		0.57176	160.274
8480762500		0.57223	160.2707
8505750000		0.57205	160.261
8530737500		0.57175	160.2368
8555725000		0.57179	160.1656
8580712500		0.57197	160.0924
8605700000		0.57201	160.0609
8630687500		0.57187	160.0282
8655675000		0.57159	159.9514
8680662500		0.57141	159.8488
8705650000		0.57148	159.7415
8730637500		0.57177	159.6523
8755625000		0.57192	159.5749
8780612500		0.57196	159.5185
8805600000		0.57225	159.4727
8830587500		0.57265	159.4282
8855575000		0.57282	159.3994
8880562500		0.5729	159.3816
8905550000		0.57302	159.3626
8930537500		0.573	159.3322
8955525000		0.57288	159.2858
8980512500		0.57271	159.2278
9005500000		0.5726	159.1451
9030487500		0.57255	159.054
9055475000		0.57246	158.9831
9080462500		0.57247	158.9024
9105450000		0.57237	158.7934
9130437500		0.57239	158.6857
9155425000		0.57287	158.6083
9180412500		0.57343	158.5715
9205400000		0.57362	158.5594
9230387500		0.57351	158.5332
9255375000		0.57346	158.4754
9280362500		0.57363	158.4249
9305350000		0.57398	158.4185
9330337500		0.57413	158.4227
9355325000		0.57378	158.3826
9380312500		0.57327	158.3012
9405300000		0.57332	158.2094
9430287500		0.5737	158.134
9455275000		0.57378	158.079
9480262500		0.57346	158.0136
9505250000		0.57326	157.9083
9530237500		0.57338	157.778
9555225000		0.57379	157.7031
9580212500		0.5743	157.687
9605200000		0.57437	157.6397
9630187500		0.57407	157.5747
9655175000		0.57438	157.5358
9680162500		0.57517	157.4917
9705150000		0.57523	157.4708
9730137500		0.57485	157.483
9755125000		0.57478	157.4287
9780112500		0.57476	157.3239
9805100000		0.57471	157.2614
9830087500		0.57484	157.228
9855075000		0.57454	157.1533
9880062500		0.57425	157.0362
9905050000		0.57436	156.9174
9930037500		0.57487	156.8447
9955025000		0.5751	156.8075
9980012500		0.575	156.761
10005000000		0.57503	156.6965
10029987500		0.57542	156.6349
10054975000		0.57573	156.6148
10079962500		0.57577	156.6332
10104950000		0.57565	156.6035
10129937500		0.5754	156.5248
10154925000		0.57555	156.4674
10179912500		0.57587	156.4332
10204900000		0.57565	156.4035
10229887500		0.57529	156.3214
10254875000		0.57532	156.2129
10279862500		0.57575	156.0719
10304850000		0.5762	156.0286
10329837500		0.57657	156.0397
10354825000		0.57636	155.9715
10379812500		0.57619	155.8586
10404800000		0.57675	155.7929
10429787500		0.57752	155.7852
10454775000		0.57763	155.8225
10479762500		0.57719	155.8057
10504750000		0.57692	155.7121
10529737500		0.57723	155.6129
10554725000		0.57766	155.5909
10579712500		0.57774	155.6055
10604700000		0.57722	155.5545
10629687500		0.57667	155.4118
10654675000		0.57697	155.2795
10679662500		0.57785	155.2169
10704650000		0.57812	155.2144
10729637500		0.5778	155.1754
10754625000		0.5776	155.0446
10779612500		0.57801	154.9231
10804600000		0.57902	154.9162
10829587500		0.57974	154.9561
10854575000		0.57933	154.9682
10879562500		0.5787	154.9213
10904550000		0.57901	154.8269
10929537500		0.57949	154.7476
10954525000		0.57955	154.7503
10979512500		0.57914	154.7423
11004500000		0.57859	154.6253
11029487500		0.57841	154.4656
11054475000		0.57908	154.3623
11079462500		0.57967	154.318
11104450000		0.5796	154.2962
11129437500		0.5795	154.2378
11154425000		0.57995	154.1407
11179412500		0.58051	154.0902
11204400000		0.5809	154.1212
11229387500		0.58091	154.1526
11254375000		0.58061	154.1112
11279362500		0.58032	154.0433
11304350000		0.58057	153.9726
11329337500		0.58082	153.8983
11354325000		0.58045	153.886
11379312500		0.58049	153.7955
11404300000		0.58074	153.664
11429287500		0.58067	153.5605
11454275000		0.5809	153.5268
11479262500		0.58141	153.4803
11504250000		0.58142	153.4128
11529237500		0.58146	153.3893
11554225000		0.58198	153.3777
11579212500		0.58213	153.317
11604200000		0.58193	153.2383
11629187500		0.58206	153.2523
11654175000		0.58231	153.2021
11679162500		0.58203	153.1389
11704150000		0.5817	153.0939
11729137500		0.58203	153.0057
11754125000		0.58231	152.8644
11779112500		0.58232	152.8591
11804100000		0.58258	152.8399
11829087500		0.58241	152.7479
11854075000		0.58205	152.6588
11879062500		0.58262	152.6018
11904050000		0.58331	152.5472
11929037500		0.58308	152.5569
11954025000		0.58295	152.5659
11979012500		0.58307	152.4786
!
!				Infineon Technologies AG
