! Infineon Technologies  Discrete & RF Semiconductors
! BAT15-02ELS
! IAC = 5 mA
! One-Port S-Parameters
# Hz  S  MA  R  50
!f									S11
!Hz							Mag  Ang
309850000		0.63816	178.8825
334837500		0.63794	178.8435
359825000		0.63759	178.787
384812500		0.63767	178.6662
409800000		0.6375	178.5839
434787500		0.63736	178.5489
459775000		0.63765	178.4828
484762500		0.63745	178.4055
509750000		0.63721	178.3363
534737500		0.63727	178.2739
559725000		0.63692	178.2594
584712500		0.63697	178.1321
609700000		0.63675	178.0998
634687500		0.63651	177.9496
659675000		0.63613	177.9388
684662500		0.63598	177.8612
709650000		0.63602	177.8107
734637500		0.63602	177.7562
759625000		0.63592	177.6807
784612500		0.63599	177.6176
809600000		0.63605	177.5567
834587500		0.63626	177.4891
859575000		0.63626	177.4212
884562500		0.636	177.3482
909550000		0.63595	177.277
934537500		0.63573	177.2031
959525000		0.63547	177.1291
984512500		0.63548	177.0629
1009500000		0.63525	176.9881
1034487500		0.63506	176.9302
1059475000		0.63509	176.8653
1084462500		0.63486	176.8044
1109450000		0.63489	176.7546
1134437500		0.63525	176.6945
1159425000		0.6354	176.626
1184412500		0.6353	176.5536
1209400000		0.63544	176.4689
1234387500		0.63536	176.3802
1259375000		0.63521	176.3049
1284362500		0.6351	176.2622
1309350000		0.635	176.2067
1334337500		0.63479	176.1229
1359325000		0.63456	176.046
1384312500		0.63462	175.9688
1409300000		0.63449	175.9016
1434287500		0.63437	175.8746
1459275000		0.63422	175.8112
1484262500		0.63409	175.7488
1509250000		0.63449	175.684
1534237500		0.63485	175.6096
1559225000		0.635	175.546
1584212500		0.63512	175.4799
1609200000		0.63505	175.3787
1634187500		0.63481	175.2746
1659175000		0.63456	175.2188
1684162500		0.63465	175.1775
1709150000		0.63451	175.113
1734137500		0.6339	175.0432
1759125000		0.63382	174.9664
1784112500		0.63389	174.8778
1809100000		0.63346	174.8277
1834087500		0.6335	174.7664
1859075000		0.63348	174.711
1884062500		0.63329	174.6793
1909050000		0.63356	174.6199
1934037500		0.63416	174.5525
1959025000		0.63434	174.4796
1984012500		0.63421	174.4521
2009000000		0.63444	174.3414
2033987500		0.63422	174.2425
2058975000		0.63395	174.174
2083962500		0.63422	174.0822
2108950000		0.63393	174.0434
2133937500		0.63337	173.9848
2158925000		0.63338	173.8915
2183912500		0.63335	173.8197
2208900000		0.63298	173.7517
2233887500		0.6331	173.704
2258875000		0.63315	173.6471
2283862500		0.63298	173.6044
2308850000		0.63309	173.5421
2333837500		0.63313	173.4832
2358825000		0.63353	173.3938
2383812500		0.63361	173.3458
2408800000		0.63318	173.2836
2433787500		0.6331	173.2029
2458775000		0.63318	173.0864
2483762500		0.63299	173.043
2508750000		0.63295	172.9825
2533737500		0.63277	172.9307
2558725000		0.63255	172.8576
2583712500		0.63254	172.7552
2608700000		0.63267	172.6385
2633687500		0.63263	172.6189
2658675000		0.63234	172.5844
2683662500		0.63212	172.541
2708650000		0.6322	172.4487
2733637500		0.63217	172.3465
2758625000		0.63229	172.3245
2783612500		0.63238	172.2863
2808600000		0.63223	172.2118
2833587500		0.63227	172.1589
2858575000		0.63209	172.1084
2883562500		0.63231	172.0065
2908550000		0.63235	171.9576
2933537500		0.63233	171.869
2958525000		0.63214	171.8235
2983512500		0.63203	171.7552
3008500000		0.63214	171.6323
3033487500		0.6323	171.5863
3058475000		0.63216	171.5299
3083462500		0.63193	171.4546
3108450000		0.63195	171.3601
3133437500		0.63193	171.2937
3158425000		0.63195	171.257
3183412500		0.63182	171.225
3208400000		0.63176	171.1241
3233387500		0.63165	171.0528
3258375000		0.63176	170.9779
3283362500		0.63174	170.9278
3308350000		0.63158	170.9129
3333337500		0.6315	170.8131
3358325000		0.63144	170.7361
3383312500		0.6315	170.676
3408300000		0.6317	170.6186
3433287500		0.63157	170.5633
3458275000		0.63141	170.5088
3483262500		0.63165	170.4238
3508250000		0.63173	170.35
3533237500		0.63171	170.2644
3558225000		0.63169	170.2358
3583212500		0.63164	170.1589
3608200000		0.6315	170.0776
3633187500		0.63152	170.0214
3658175000		0.63169	169.9335
3683162500		0.63137	169.8948
3708150000		0.63135	169.8111
3733137500		0.63126	169.7689
3758125000		0.63133	169.6859
3783112500		0.63115	169.6405
3808100000		0.63111	169.5952
3833087500		0.63123	169.5282
3858075000		0.63104	169.4665
3883062500		0.63112	169.4052
3908050000		0.63141	169.3161
3933037500		0.63112	169.2894
3958025000		0.63112	169.2275
3983012500		0.63137	169.1492
4008000000		0.63133	169.0805
4032987500		0.63111	169.0362
4057975000		0.63129	168.9573
4082962500		0.63127	168.8713
4107950000		0.63103	168.8111
4132937500		0.63106	168.7628
4157925000		0.6311	168.6902
4182912500		0.63087	168.6201
4207900000		0.63077	168.5626
4232887500		0.63091	168.504
4257875000		0.63084	168.4463
4282862500		0.63072	168.396
4307850000		0.63067	168.3331
4332837500		0.63068	168.2491
4357825000		0.63073	168.1964
4382812500		0.63075	168.1542
4407800000		0.63082	168.0855
4432787500		0.63061	168.0182
4457775000		0.63055	167.9468
4482762500		0.6308	167.8783
4507750000		0.63084	167.8395
4532737500		0.63066	167.7872
4557725000		0.63073	167.7024
4582712500		0.63063	167.6352
4607700000		0.63061	167.6003
4632687500		0.63083	167.5487
4657675000		0.6307	167.4846
4682662500		0.6304	167.4152
4707650000		0.63033	167.3376
4732637500		0.6305	167.2654
4757625000		0.63067	167.2136
4782612500		0.63046	167.1656
4807600000		0.63028	167.0996
4832587500		0.63037	167.0083
4857575000		0.63046	166.9398
4882562500		0.6306	166.9094
4907550000		0.63061	166.8706
4932537500		0.63053	166.7962
4957525000		0.63034	166.7291
4982512500		0.63045	166.6802
5007500000		0.6307	166.6315
5032487500		0.63068	166.578
5057475000		0.63043	166.5138
5082462500		0.63038	166.4405
5107450000		0.63047	166.3599
5132437500		0.63054	166.2992
5157425000		0.63046	166.2599
5182412500		0.63036	166.1988
5207400000		0.63031	166.1077
5232387500		0.63026	166.0409
5257375000		0.63027	165.9959
5282362500		0.63039	165.9461
5307350000		0.63032	165.8829
5332337500		0.63025	165.8163
5357325000		0.63036	165.7575
5382312500		0.63042	165.7071
5407300000		0.63042	165.6583
5432287500		0.63042	165.5993
5457275000		0.63031	165.5411
5482262500		0.63037	165.4823
5507250000		0.63045	165.4146
5532237500		0.63038	165.3416
5557225000		0.63025	165.2926
5582212500		0.63031	165.2395
5607200000		0.63046	165.1584
5632187500		0.6302	165.0945
5657175000		0.63003	165.0491
5682162500		0.63033	164.9672
5707150000		0.63052	164.8924
5732137500		0.63046	164.8641
5757125000		0.63045	164.8367
5782112500		0.63053	164.7595
5807100000		0.63044	164.6777
5832087500		0.63055	164.625
5857075000		0.63084	164.5859
5882062500		0.63077	164.5351
5907050000		0.6303	164.4644
5932037500		0.63023	164.392
5957025000		0.63046	164.3093
5982012500		0.63047	164.2449
6007000000		0.63031	164.2027
6031987500		0.63026	164.1297
6056975000		0.6303	164.025
6081962500		0.63048	163.9581
6106950000		0.63083	163.9284
6131937500		0.63094	163.9082
6156925000		0.63076	163.8737
6181912500		0.63068	163.7903
6206900000		0.63071	163.701
6231887500		0.63075	163.6788
6256875000		0.63081	163.6622
6281862500		0.63054	163.5757
6306850000		0.62999	163.4826
6331837500		0.63006	163.4129
6356825000		0.63047	163.3302
6381812500		0.63039	163.265
6406800000		0.63017	163.2271
6431787500		0.63027	163.1484
6456775000		0.63046	163.0494
6481762500		0.63064	163.0073
6506750000		0.63092	162.9883
6531737500		0.63098	162.9415
6556725000		0.63076	162.8884
6581712500		0.63078	162.8329
6606700000		0.63088	162.7767
6631687500		0.63077	162.7428
6656675000		0.63056	162.6907
6681662500		0.63048	162.6148
6706650000		0.63049	162.5373
6731637500		0.63072	162.469
6756625000		0.63063	162.3957
6781612500		0.63039	162.3342
6806600000		0.63048	162.2625
6831587500		0.63073	162.1901
6856575000		0.63094	162.1281
6881562500		0.63096	162.0844
6906550000		0.63082	162.0441
6931537500		0.63087	161.9962
6956525000		0.63098	161.942
6981512500		0.63109	161.9011
7006500000		0.63108	161.8793
7031487500		0.63093	161.8261
7056475000		0.63084	161.7459
7081462500		0.63078	161.6795
7106450000		0.63076	161.622
7131437500		0.63072	161.5618
7156425000		0.63051	161.4865
7181412500		0.63047	161.3875
7206400000		0.63064	161.3222
7231387500		0.63102	161.2596
7256375000		0.6312	161.1851
7281362500		0.63107	161.1352
7306350000		0.63133	161.0938
7331337500		0.63159	161.0353
7356325000		0.63148	161.0126
7381312500		0.63164	160.9973
7406300000		0.63172	160.93
7431287500		0.63135	160.8732
7456275000		0.63123	160.8336
7481262500		0.63129	160.7631
7506250000		0.63101	160.6753
7531237500		0.63098	160.5919
7556225000		0.6312	160.5006
7581212500		0.63127	160.4286
7606200000		0.63136	160.3804
7631187500		0.63146	160.3046
7656175000		0.63153	160.2262
7681162500		0.63186	160.1905
7706150000		0.63227	160.1895
7731137500		0.63233	160.1768
7756125000		0.63185	160.1286
7781112500		0.63165	160.0684
7806100000		0.63181	160.008
7831087500		0.63186	159.9512
7856075000		0.63143	159.9166
7881062500		0.63112	159.8568
7906050000		0.63119	159.7215
7931037500		0.63133	159.6118
7956025000		0.63167	159.5581
7981012500		0.63193	159.5083
8006000000		0.63155	159.4416
8030987500		0.63142	159.3653
8055975000		0.63213	159.2883
8080962500		0.63266	159.2583
8105950000		0.63257	159.2734
8130937500		0.63213	159.2737
8155925000		0.63183	159.2086
8180912500		0.63194	159.1089
8205900000		0.63219	159.0575
8230887500		0.6321	159.0399
8255875000		0.63173	158.9833
8280862500		0.6313	158.8806
8305850000		0.63141	158.7659
8330837500		0.63181	158.6682
8355825000		0.63187	158.6265
8380812500		0.63185	158.5965
8405800000		0.63179	158.5034
8430787500		0.63185	158.4147
8455775000		0.63247	158.3952
8480762500		0.63304	158.395
8505750000		0.63274	158.3771
8530737500		0.63223	158.3499
8555725000		0.63233	158.2831
8580712500		0.63259	158.2
8605700000		0.63257	158.1661
8630687500		0.63242	158.1333
8655675000		0.63212	158.0572
8680662500		0.6319	157.9461
8705650000		0.63201	157.8374
8730637500		0.6323	157.7515
8755625000		0.6324	157.6835
8780612500		0.63237	157.6209
8805600000		0.6325	157.5756
8830587500		0.63293	157.5286
8855575000		0.63323	157.4981
8880562500		0.63318	157.4809
8905550000		0.63322	157.4612
8930537500		0.6332	157.4227
8955525000		0.63314	157.3713
8980512500		0.63296	157.3089
9005500000		0.63284	157.2273
9030487500		0.63273	157.1358
9055475000		0.63264	157.0691
9080462500		0.6326	156.9858
9105450000		0.6326	156.8691
9130437500		0.63259	156.77
9155425000		0.63295	156.7001
9180412500		0.6335	156.6602
9205400000		0.63362	156.6429
9230387500		0.63346	156.6168
9255375000		0.63345	156.5566
9280362500		0.63361	156.5047
9305350000		0.63382	156.4994
9330337500		0.63396	156.4991
9355325000		0.63375	156.4457
9380312500		0.63316	156.358
9405300000		0.6331	156.2731
9430287500		0.63355	156.2048
9455275000		0.63366	156.1476
9480262500		0.63312	156.0763
9505250000		0.63297	155.9707
9530237500		0.63319	155.8412
9555225000		0.63344	155.7755
9580212500		0.63381	155.7594
9605200000		0.63402	155.6992
9630187500		0.63365	155.6289
9655175000		0.63388	155.5983
9680162500		0.6348	155.5517
9705150000		0.63482	155.5258
9730137500		0.6342	155.5405
9755125000		0.6342	155.4771
9780112500		0.63434	155.362
9805100000		0.63412	155.3108
9830087500		0.63413	155.2865
9855075000		0.63393	155.2018
9880062500		0.63347	155.0772
9905050000		0.63352	154.9673
9930037500		0.63415	154.8967
9955025000		0.63427	154.8621
9980012500		0.634	154.8116
10005000000		0.63412	154.7409
10029987500		0.63462	154.6764
10054975000		0.63486	154.6508
10079962500		0.63477	154.6716
10104950000		0.63471	154.6398
10129937500		0.63446	154.5509
10154925000		0.63445	154.493
10179912500		0.63487	154.459
10204900000		0.63465	154.4364
10229887500		0.63401	154.3846
10254875000		0.63409	154.2452
10279862500		0.63458	154.0919
10304850000		0.63495	154.0663
10329837500		0.63516	154.0854
10354825000		0.63505	154.0044
10379812500		0.63476	153.885
10404800000		0.63532	153.8232
10429787500		0.63624	153.8145
10454775000		0.63629	153.8494
10479762500		0.63563	153.8302
10504750000		0.63541	153.7325
10529737500		0.63585	153.6318
10554725000		0.63621	153.6054
10579712500		0.63615	153.6332
10604700000		0.63558	153.5798
10629687500		0.63501	153.4318
10654675000		0.63528	153.2994
10679662500		0.63619	153.2406
10704650000		0.63659	153.2117
10729637500		0.636	153.1953
10754625000		0.63574	153.0604
10779612500		0.6362	152.9395
10804600000		0.6373	152.9422
10829587500		0.63799	152.9734
10854575000		0.63739	152.9819
10879562500		0.63666	152.9348
10904550000		0.63715	152.8346
10929537500		0.63764	152.7476
10954525000		0.63748	152.7583
10979512500		0.63705	152.7538
11004500000		0.63644	152.6277
11029487500		0.63627	152.4644
11054475000		0.63698	152.3689
11079462500		0.63763	152.3254
11104450000		0.63743	152.3006
11129437500		0.63718	152.2377
11154425000		0.6378	152.1365
11179412500		0.63848	152.0874
11204400000		0.63866	152.1212
11229387500		0.63867	152.145
11254375000		0.63829	152.0956
11279362500		0.63796	152.0254
11304350000		0.6383	151.9589
11329337500		0.63853	151.8809
11354325000		0.63807	151.8389
11379312500		0.63792	151.7852
11404300000		0.63836	151.6415
11429287500		0.63826	151.5339
11454275000		0.63821	151.5157
11479262500		0.63885	151.4689
11504250000		0.63889	151.3829
11529237500		0.63867	151.3634
11554225000		0.63932	151.3566
11579212500		0.63968	151.2826
11604200000		0.63916	151.23
11629187500		0.63917	151.2145
11654175000		0.63946	151.2004
11679162500		0.63935	151.0858
11704150000		0.63876	151.0477
11729137500		0.63899	150.9963
11754125000		0.6395	150.81
11779112500		0.63937	150.8045
11804100000		0.63958	150.7876
11829087500		0.6395	150.6858
11854075000		0.63894	150.597
11879062500		0.63947	150.5468
11904050000		0.64017	150.5185
11929037500		0.63998	150.4873
11954025000		0.63967	150.5094
11979012500		0.63993	150.4059
!
!				Infineon Technologies AG
