! Infineon Technologies  Discrete & RF Semiconductors
! BAT15-02ELS
! IAC = 10 mA
! One-Port S-Parameters
# Hz  S  MA  R  50
!f									S11
!Hz							Mag  Ang
309850000		0.7087	178.8771
334837500		0.70849	178.8304
359825000		0.70813	178.7727
384812500		0.70811	178.6532
409800000		0.70794	178.5725
434787500		0.70792	178.5316
459775000		0.70819	178.4616
484762500		0.7077	178.4188
509750000		0.70745	178.3473
534737500		0.70764	178.2418
559725000		0.70762	178.1605
584712500		0.70722	178.1349
609700000		0.70722	178.0653
634687500		0.70672	177.9487
659675000		0.7066	177.8988
684662500		0.70656	177.8178
709650000		0.70642	177.7634
734637500		0.70644	177.7075
759625000		0.70638	177.6283
784612500		0.7064	177.5643
809600000		0.70633	177.5315
834587500		0.70666	177.4283
859575000		0.7066	177.3546
884562500		0.70641	177.2767
909550000		0.7063	177.2057
934537500		0.70606	177.1271
959525000		0.70586	177.0514
984512500		0.70576	176.9831
1009500000		0.70559	176.9067
1034487500		0.70538	176.8474
1059475000		0.70532	176.7767
1084462500		0.70514	176.7159
1109450000		0.70519	176.6646
1134437500		0.70553	176.6008
1159425000		0.70569	176.5318
1184412500		0.70562	176.4552
1209400000		0.70564	176.3738
1234387500		0.7056	176.2776
1259375000		0.70544	176.2024
1284362500		0.7053	176.1563
1309350000		0.70522	176.1002
1334337500		0.705	176.0151
1359325000		0.70479	175.9349
1384312500		0.70485	175.8559
1409300000		0.70462	175.7873
1434287500		0.70439	175.757
1459275000		0.70435	175.693
1484262500		0.7042	175.625
1509250000		0.70455	175.5654
1534237500		0.70498	175.4863
1559225000		0.70512	175.4241
1584212500		0.70519	175.3536
1609200000		0.70521	175.252
1634187500		0.70493	175.1424
1659175000		0.70468	175.0873
1684162500		0.70475	175.0445
1709150000		0.70454	174.9739
1734137500		0.70405	174.905
1759125000		0.70398	174.8245
1784112500		0.70384	174.7332
1809100000		0.7035	174.6845
1834087500		0.70345	174.649
1859075000		0.70345	174.5587
1884062500		0.70329	174.5283
1909050000		0.70359	174.4693
1934037500		0.7041	174.4001
1959025000		0.7042	174.3578
1984012500		0.70436	174.2666
2009000000		0.70449	174.1807
2033987500		0.70424	174.0755
2058975000		0.70401	174.0049
2083962500		0.70409	173.9455
2108950000		0.70387	173.8678
2133937500		0.70336	173.8084
2158925000		0.70326	173.747
2183912500		0.70314	173.6756
2208900000		0.70305	173.5364
2233887500		0.70303	173.5245
2258875000		0.70303	173.4625
2283862500		0.70266	173.4472
2308850000		0.70316	173.3176
2333837500		0.70328	173.2592
2358825000		0.70351	173.1728
2383812500		0.70333	173.1863
2408800000		0.70329	173.0809
2433787500		0.7031	172.9669
2458775000		0.70291	172.9192
2483762500		0.703	172.8377
2508750000		0.70292	172.7754
2533737500		0.70272	172.7228
2558725000		0.70251	172.6455
2583712500		0.70244	172.5427
2608700000		0.70255	172.4225
2633687500		0.70227	172.4342
2658675000		0.70225	172.3618
2683662500		0.70199	172.3132
2708650000		0.70181	172.2585
2733637500		0.70198	172.1182
2758625000		0.7021	172.0935
2783612500		0.70221	172.052
2808600000		0.70207	171.9741
2833587500		0.70201	171.9212
2858575000		0.702	171.8354
2883562500		0.70207	171.7698
2908550000		0.7021	171.7165
2933537500		0.70209	171.6233
2958525000		0.70186	171.5775
2983512500		0.7019	171.4729
3008500000		0.70189	171.4
3033487500		0.70195	171.3534
3058475000		0.70184	171.2938
3083462500		0.70159	171.2141
3108450000		0.7016	171.1178
3133437500		0.70158	171.052
3158425000		0.70162	171.0092
3183412500		0.70162	170.9479
3208400000		0.70137	170.8716
3233387500		0.70121	170.8001
3258375000		0.70142	170.7229
3283362500		0.70118	170.6988
3308350000		0.70126	170.6157
3333337500		0.70105	170.5436
3358325000		0.70097	170.4686
3383312500		0.70086	170.4402
3408300000		0.70115	170.3432
3433287500		0.70096	170.2881
3458275000		0.70081	170.2597
3483262500		0.70108	170.1464
3508250000		0.70109	170.068
3533237500		0.70099	170.01
3558225000		0.70108	169.951
3583212500		0.70103	169.8725
3608200000		0.70086	169.793
3633187500		0.70083	169.7338
3658175000		0.70097	169.6696
3683162500		0.70077	169.5991
3708150000		0.70067	169.51
3733137500		0.70064	169.4704
3758125000		0.70052	169.417
3783112500		0.70047	169.3329
3808100000		0.70044	169.287
3833087500		0.70048	169.2177
3858075000		0.70038	169.1505
3883062500		0.70045	169.0906
3908050000		0.70066	169.0025
3933037500		0.70036	168.9699
3958025000		0.70047	168.9096
3983012500		0.70058	168.8275
4008000000		0.70049	168.758
4032987500		0.70034	168.7102
4057975000		0.70052	168.6318
4082962500		0.70037	168.5412
4107950000		0.70018	168.4798
4132937500		0.7003	168.4268
4157925000		0.70026	168.352
4182912500		0.70002	168.278
4207900000		0.69998	168.2219
4232887500		0.70013	168.1606
4257875000		0.7	168.0968
4282862500		0.6998	168.0465
4307850000		0.69982	167.9836
4332837500		0.69979	167.8974
4357825000		0.69975	167.8416
4382812500		0.69988	167.7959
4407800000		0.69984	167.7239
4432787500		0.69959	167.6555
4457775000		0.69965	167.5839
4482762500		0.69979	167.5149
4507750000		0.6998	167.4664
4532737500		0.69981	167.4108
4557725000		0.69972	167.326
4582712500		0.6995	167.2586
4607700000		0.69966	167.2218
4632687500		0.69986	167.1675
4657675000		0.69957	167.1006
4682662500		0.69927	167.0294
4707650000		0.69924	166.9506
4732637500		0.6994	166.8767
4757625000		0.69946	166.8225
4782612500		0.69925	166.7708
4807600000		0.69907	166.7035
4832587500		0.69916	166.6119
4857575000		0.69917	166.5423
4882562500		0.69933	166.5099
4907550000		0.69945	166.4652
4932537500		0.69925	166.3881
4957525000		0.69899	166.3218
4982512500		0.69917	166.2706
5007500000		0.69945	166.2203
5032487500		0.69932	166.1614
5057475000		0.69901	166.0956
5082462500		0.69901	166.0237
5107450000		0.69917	165.9389
5132437500		0.69919	165.8741
5157425000		0.69906	165.8305
5182412500		0.69901	165.7685
5207400000		0.69892	165.6761
5232387500		0.69879	165.6084
5257375000		0.69887	165.5579
5282362500		0.69898	165.5081
5307350000		0.69889	165.4409
5332337500		0.6988	165.372
5357325000		0.69887	165.3132
5382312500		0.69896	165.2592
5407300000		0.69896	165.2056
5432287500		0.69884	165.1465
5457275000		0.69877	165.0859
5482262500		0.69886	165.024
5507250000		0.69895	164.9533
5532237500		0.69878	164.8788
5557225000		0.69861	164.8286
5582212500		0.69881	164.7732
5607200000		0.69889	164.6896
5632187500		0.6985	164.6204
5657175000		0.69846	164.5749
5682162500		0.69875	164.4933
5707150000		0.6988	164.4165
5732137500		0.69872	164.3823
5757125000		0.69875	164.354
5782112500		0.69884	164.2736
5807100000		0.69869	164.1923
5832087500		0.69879	164.1382
5857075000		0.699	164.0956
5882062500		0.69895	164.0392
5907050000		0.69854	163.9686
5932037500		0.69845	163.8946
5957025000		0.69865	163.8116
5982012500		0.69866	163.7418
6007000000		0.69848	163.6966
6031987500		0.69847	163.6251
6056975000		0.69845	163.5187
6081962500		0.6986	163.4532
6106950000		0.69891	163.4202
6131937500		0.69895	163.3976
6156925000		0.69876	163.3564
6181912500		0.69877	163.2762
6206900000		0.69869	163.1862
6231887500		0.69863	163.1601
6256875000		0.69887	163.1378
6281862500		0.69864	163.0455
6306850000		0.69801	162.9516
6331837500		0.69807	162.8838
6356825000		0.69854	162.8014
6381812500		0.69836	162.7309
6406800000		0.6981	162.6907
6431787500		0.69825	162.6129
6456775000		0.6984	162.5133
6481762500		0.69848	162.4701
6506750000		0.69873	162.447
6531737500		0.69876	162.3989
6556725000		0.69855	162.3444
6581712500		0.69857	162.2872
6606700000		0.69864	162.2255
6631687500		0.69854	162.1863
6656675000		0.69834	162.1331
6681662500		0.69826	162.0557
6706650000		0.69832	161.9772
6731637500		0.6985	161.9109
6756625000		0.6984	161.8329
6781612500		0.69814	161.7667
6806600000		0.69819	161.6999
6831587500		0.69855	161.6252
6856575000		0.69867	161.5592
6881562500		0.69857	161.5141
6906550000		0.69836	161.4717
6931537500		0.69847	161.4214
6956525000		0.69861	161.362
6981512500		0.69871	161.3216
7006500000		0.6987	161.2934
7031487500		0.69859	161.2375
7056475000		0.69844	161.1555
7081462500		0.69845	161.0879
7106450000		0.69842	161.0256
7131437500		0.6983	160.9647
7156425000		0.69815	160.8875
7181412500		0.69804	160.7917
7206400000		0.69812	160.7258
7231387500		0.69856	160.6608
7256375000		0.69863	160.5841
7281362500		0.69848	160.532
7306350000		0.69874	160.4911
7331337500		0.699	160.4294
7356325000		0.69892	160.4005
7381312500		0.69908	160.3823
7406300000		0.69909	160.315
7431287500		0.6988	160.2519
7456275000		0.69869	160.2089
7481262500		0.69871	160.1353
7506250000		0.69846	160.0451
7531237500		0.6984	159.9638
7556225000		0.69861	159.8713
7581212500		0.69858	159.7968
7606200000		0.69865	159.7478
7631187500		0.69881	159.6729
7656175000		0.6988	159.5949
7681162500		0.69904	159.5601
7706150000		0.69943	159.55
7731137500		0.69951	159.5295
7756125000		0.69915	159.4761
7781112500		0.69888	159.4172
7806100000		0.6991	159.3573
7831087500		0.69912	159.2927
7856075000		0.69861	159.2525
7881062500		0.69841	159.1942
7906050000		0.69849	159.0602
7931037500		0.69854	158.9526
7956025000		0.69894	158.9023
7981012500		0.69909	158.8441
8006000000		0.69869	158.7722
8030987500		0.69859	158.6991
8055975000		0.69917	158.6271
8080962500		0.69972	158.5903
8105950000		0.6996	158.5946
8130937500		0.69918	158.5899
8155925000		0.69894	158.5246
8180912500		0.69896	158.4285
8205900000		0.69913	158.3756
8230887500		0.69913	158.3483
8255875000		0.69878	158.2846
8280862500		0.69827	158.1849
8305850000		0.69839	158.0752
8330837500		0.69877	157.9768
8355825000		0.69876	157.9308
8380812500		0.69872	157.8981
8405800000		0.69875	157.8033
8430787500		0.69877	157.7169
8455775000		0.69924	157.6999
8480762500		0.6998	157.6906
8505750000		0.6995	157.6614
8530737500		0.69906	157.6366
8555725000		0.69919	157.568
8580712500		0.69937	157.488
8605700000		0.69937	157.4455
8630687500		0.69917	157.409
8655675000		0.69894	157.3289
8680662500		0.69876	157.2201
8705650000		0.6988	157.1163
8730637500		0.69906	157.0311
8755625000		0.69912	156.9551
8780612500		0.69908	156.8929
8805600000		0.69925	156.8469
8830587500		0.69967	156.8005
8855575000		0.69978	156.7655
8880562500		0.69985	156.743
8905550000		0.69987	156.7161
8930537500		0.69979	156.6794
8955525000		0.69976	156.627
8980512500		0.69959	156.5603
9005500000		0.69945	156.4734
9030487500		0.69932	156.3839
9055475000		0.69922	156.3142
9080462500		0.69924	156.2286
9105450000		0.69912	156.1148
9130437500		0.69902	156.0139
9155425000		0.69952	155.9444
9180412500		0.70003	155.9014
9205400000		0.70006	155.881
9230387500		0.69985	155.8532
9255375000		0.69987	155.7908
9280362500		0.69998	155.7338
9305350000		0.70024	155.7305
9330337500		0.70038	155.7229
9355325000		0.70003	155.6673
9380312500		0.69944	155.5782
9405300000		0.69946	155.4937
9430287500		0.69991	155.4209
9455275000		0.7	155.3605
9480262500		0.69951	155.2843
9505250000		0.69926	155.1781
9530237500		0.6994	155.0551
9555225000		0.69972	154.9881
9580212500		0.70015	154.9663
9605200000		0.70021	154.9064
9630187500		0.69973	154.8344
9655175000		0.70008	154.8062
9680162500		0.70097	154.756
9705150000		0.70085	154.7212
9730137500		0.70035	154.7301
9755125000		0.70037	154.6691
9780112500		0.7004	154.5538
9805100000		0.7002	154.4979
9830087500		0.70031	154.4671
9855075000		0.7001	154.3803
9880062500		0.6996	154.2588
9905050000		0.69969	154.1499
9930037500		0.70019	154.0799
9955025000		0.70039	154.0362
9980012500		0.70012	153.9849
10005000000		0.70012	153.9209
10029987500		0.70055	153.8518
10054975000		0.70078	153.8257
10079962500		0.7007	153.838
10104950000		0.70058	153.8019
10129937500		0.7003	153.7139
10154925000		0.70037	153.6533
10179912500		0.70068	153.6164
10204900000		0.70044	153.5852
10229887500		0.69991	153.5272
10254875000		0.70003	153.3967
10279862500		0.7004	153.2499
10304850000		0.70068	153.2211
10329837500		0.70109	153.2299
10354825000		0.70088	153.1455
10379812500		0.70054	153.0345
10404800000		0.70107	152.9785
10429787500		0.70193	152.9627
10454775000		0.70196	152.9851
10479762500		0.70135	152.962
10504750000		0.7011	152.8688
10529737500		0.7015	152.7699
10554725000		0.7018	152.7388
10579712500		0.7018	152.7544
10604700000		0.70135	152.693
10629687500		0.70072	152.5503
10654675000		0.70091	152.426
10679662500		0.7018	152.3663
10704650000		0.70214	152.3272
10729637500		0.70163	152.3074
10754625000		0.70135	152.1781
10779612500		0.70175	152.0677
10804600000		0.70278	152.0692
10829587500		0.70349	152.0881
10854575000		0.70285	152.0851
10879562500		0.7022	152.0397
10904550000		0.70269	151.9454
10929537500		0.70312	151.8553
10954525000		0.70292	151.8524
10979512500		0.70255	151.8432
11004500000		0.70204	151.7154
11029487500		0.70179	151.5571
11054475000		0.70244	151.4685
11079462500		0.70308	151.4186
11104450000		0.70286	151.3856
11129437500		0.70268	151.3246
11154425000		0.70311	151.2331
11179412500		0.70374	151.1858
11204400000		0.70397	151.2071
11229387500		0.70395	151.2224
11254375000		0.70357	151.171
11279362500		0.70324	151.1019
11304350000		0.70362	151.0319
11329337500		0.70383	150.9486
11354325000		0.7033	150.9031
11379312500		0.70331	150.8495
11404300000		0.70371	150.7101
11429287500		0.70345	150.5969
11454275000		0.70351	150.5786
11479262500		0.70419	150.5279
11504250000		0.70398	150.4805
11529237500		0.70393	150.4191
11554225000		0.70453	150.4117
11579212500		0.70478	150.336
11604200000		0.70427	150.2771
11629187500		0.70435	150.263
11654175000		0.70474	150.2078
11679162500		0.70444	150.1279
11704150000		0.7039	150.0843
11729137500		0.7043	149.9992
11754125000		0.70457	149.8488
11779112500		0.70441	149.8397
11804100000		0.70474	149.815
11829087500		0.70452	149.7143
11854075000		0.70393	149.626
11879062500		0.70462	149.5755
11904050000		0.70533	149.5094
11929037500		0.70491	149.5076
11954025000		0.70458	149.5575
11979012500		0.70478	149.4616
!
!				Infineon Technologies AG
