! Infineon Technologies  Discrete & RF Semiconductors
! BAT15-02ELS
! IAC = 70 mA
! One-Port S-Parameters
# Hz  S  MA  R  50
!f									S11
!Hz							Mag  Ang
309850000		0.64319	178.6532
334837500		0.64276	178.614
359825000		0.64227	178.5608
384812500		0.64203	178.451
409800000		0.64177	178.3818
434787500		0.64165	178.3462
459775000		0.64173	178.2865
484762500		0.64136	178.2129
509750000		0.64107	178.1519
534737500		0.64113	178.0568
559725000		0.64087	178.0183
584712500		0.64048	178.0006
609700000		0.64037	177.938
634687500		0.63987	177.8317
659675000		0.63982	177.753
684662500		0.63962	177.7135
709650000		0.63949	177.6604
734637500		0.63945	177.6073
759625000		0.63934	177.5338
784612500		0.63932	177.474
809600000		0.6394	177.4156
834587500		0.63954	177.3214
859575000		0.63937	177.2824
884562500		0.63919	177.2108
909550000		0.63905	177.1425
934537500		0.63881	177.0691
959525000		0.63863	176.9999
984512500		0.63848	176.9366
1009500000		0.6383	176.8654
1034487500		0.63811	176.8072
1059475000		0.638	176.7407
1084462500		0.63783	176.6809
1109450000		0.63787	176.6344
1134437500		0.63804	176.5787
1159425000		0.6382	176.5144
1184412500		0.63812	176.4415
1209400000		0.63812	176.3604
1234387500		0.63803	176.2709
1259375000		0.63793	176.2006
1284362500		0.63782	176.1567
1309350000		0.63769	176.1054
1334337500		0.63744	176.0265
1359325000		0.63722	175.9483
1384312500		0.6373	175.8723
1409300000		0.63713	175.8105
1434287500		0.63689	175.7802
1459275000		0.63681	175.7242
1484262500		0.63671	175.6574
1509250000		0.63694	175.5959
1534237500		0.63735	175.5243
1559225000		0.63746	175.4673
1584212500		0.63746	175.4017
1609200000		0.63744	175.3016
1634187500		0.63719	175.2008
1659175000		0.63701	175.148
1684162500		0.63705	175.109
1709150000		0.63685	175.0484
1734137500		0.63643	174.9803
1759125000		0.63634	174.9053
1784112500		0.63618	174.8209
1809100000		0.63594	174.7732
1834087500		0.63586	174.7372
1859075000		0.63581	174.6544
1884062500		0.6357	174.6227
1909050000		0.63585	174.593
1934037500		0.63643	174.5019
1959025000		0.63673	174.3946
1984012500		0.63669	174.3695
2009000000		0.63672	174.2932
2033987500		0.63655	174.1968
2058975000		0.63634	174.1276
2083962500		0.63639	174.0738
2108950000		0.63617	174.0023
2133937500		0.63576	173.9429
2158925000		0.63565	173.8852
2183912500		0.63561	173.7849
2208900000		0.63545	173.6837
2233887500		0.63547	173.6738
2258875000		0.63547	173.6154
2283862500		0.63546	173.5348
2308850000		0.63561	173.474
2333837500		0.63584	173.3897
2358825000		0.63575	173.3691
2383812500		0.63593	173.318
2408800000		0.63588	173.23
2433787500		0.63548	173.1753
2458775000		0.63537	173.0951
2483762500		0.63558	172.9908
2508750000		0.6354	172.9637
2533737500		0.63519	172.913
2558725000		0.63491	172.8725
2583712500		0.63496	172.7376
2608700000		0.63501	172.6215
2633687500		0.63485	172.6408
2658675000		0.63468	172.5997
2683662500		0.63456	172.5221
2708650000		0.63454	172.435
2733637500		0.63463	172.3324
2758625000		0.63459	172.3453
2783612500		0.63479	172.2738
2808600000		0.63471	172.1986
2833587500		0.63466	172.1482
2858575000		0.6346	172.0661
2883562500		0.6347	172.0056
2908550000		0.63476	171.9557
2933537500		0.63471	171.8647
2958525000		0.63436	171.8572
2983512500		0.63455	171.718
3008500000		0.63454	171.6588
3033487500		0.63444	171.6446
3058475000		0.63451	171.5586
3083462500		0.63432	171.4829
3108450000		0.63413	171.4229
3133437500		0.63434	171.3215
3158425000		0.63437	171.2848
3183412500		0.63428	171.2541
3208400000		0.63415	171.1562
3233387500		0.63407	171.0848
3258375000		0.63422	171.0072
3283362500		0.63404	170.9919
3308350000		0.63409	170.9094
3333337500		0.63388	170.8407
3358325000		0.63384	170.767
3383312500		0.6339	170.7112
3408300000		0.63399	170.6541
3433287500		0.63386	170.5998
3458275000		0.63376	170.5731
3483262500		0.63396	170.4624
3508250000		0.63386	170.4218
3533237500		0.63407	170.3059
3558225000		0.634	170.2774
3583212500		0.63397	170.2022
3608200000		0.63383	170.1285
3633187500		0.6338	170.0704
3658175000		0.63393	170.01
3683162500		0.63375	169.9475
3708150000		0.63366	169.8595
3733137500		0.63363	169.8193
3758125000		0.63353	169.7717
3783112500		0.63354	169.6926
3808100000		0.63352	169.6471
3833087500		0.63353	169.5827
3858075000		0.63352	169.5216
3883062500		0.63353	169.4649
3908050000		0.6336	169.4035
3933037500		0.63351	169.3473
3958025000		0.6336	169.2909
3983012500		0.63367	169.2161
4008000000		0.63357	169.1415
4032987500		0.63352	169.0997
4057975000		0.6336	169.0272
4082962500		0.6335	168.9414
4107950000		0.63342	168.8777
4132937500		0.63349	168.8284
4157925000		0.63341	168.7603
4182912500		0.63324	168.6907
4207900000		0.63322	168.6337
4232887500		0.63334	168.5771
4257875000		0.63328	168.5222
4282862500		0.63309	168.4731
4307850000		0.63312	168.41
4332837500		0.63312	168.3294
4357825000		0.63319	168.2505
4382812500		0.63323	168.2328
4407800000		0.63314	168.1665
4432787500		0.63293	168.1008
4457775000		0.63307	168.0336
4482762500		0.63318	167.9644
4507750000		0.63318	167.9203
4532737500		0.63317	167.8682
4557725000		0.63306	167.7874
4582712500		0.63295	167.7193
4607700000		0.6331	167.6849
4632687500		0.63329	167.6383
4657675000		0.63304	167.5757
4682662500		0.63275	167.5071
4707650000		0.63273	167.4299
4732637500		0.63286	167.3607
4757625000		0.63292	167.3113
4782612500		0.63273	167.2611
4807600000		0.6326	167.1943
4832587500		0.63267	167.1081
4857575000		0.63275	167.0404
4882562500		0.6329	167.0099
4907550000		0.63299	166.9688
4932537500		0.6328	166.8973
4957525000		0.63266	166.8313
4982512500		0.63284	166.7786
5007500000		0.63306	166.7323
5032487500		0.63294	166.6828
5057475000		0.63272	166.6159
5082462500		0.63266	166.5442
5107450000		0.63283	166.4672
5132437500		0.63287	166.4089
5157425000		0.63278	166.3626
5182412500		0.63271	166.3023
5207400000		0.63262	166.2159
5232387500		0.63258	166.1498
5257375000		0.6327	166.1008
5282362500		0.6327	166.0552
5307350000		0.63264	165.9936
5332337500		0.63259	165.926
5357325000		0.63264	165.8674
5382312500		0.63278	165.817
5407300000		0.63279	165.7706
5432287500		0.63271	165.7134
5457275000		0.63264	165.6507
5482262500		0.63268	165.5917
5507250000		0.63278	165.5276
5532237500		0.63268	165.4561
5557225000		0.63252	165.4069
5582212500		0.63266	165.3532
5607200000		0.63273	165.2743
5632187500		0.63244	165.2113
5657175000		0.63234	165.161
5682162500		0.63262	165.0834
5707150000		0.6327	165.0095
5732137500		0.63264	164.9792
5757125000		0.63269	164.9485
5782112500		0.63272	164.876
5807100000		0.63263	164.7963
5832087500		0.63277	164.7451
5857075000		0.63296	164.7007
5882062500		0.63288	164.6546
5907050000		0.63254	164.5876
5932037500		0.63247	164.51
5957025000		0.63262	164.4287
5982012500		0.63266	164.3656
6007000000		0.6325	164.3219
6031987500		0.63248	164.2497
6056975000		0.63246	164.1479
6081962500		0.63266	164.0842
6106950000		0.633	164.0525
6131937500		0.633	164.0319
6156925000		0.63284	163.9957
6181912500		0.63283	163.9191
6206900000		0.63279	163.834
6231887500		0.63279	163.8066
6256875000		0.63295	163.7858
6281862500		0.63267	163.7021
6306850000		0.63216	163.6123
6331837500		0.63222	163.5384
6356825000		0.63261	163.4568
6381812500		0.6325	163.3929
6406800000		0.63228	163.3511
6431787500		0.63242	163.2731
6456775000		0.63257	163.1792
6481762500		0.63274	163.1362
6506750000		0.63299	163.1126
6531737500		0.63297	163.0697
6556725000		0.63281	163.0213
6581712500		0.63284	162.9673
6606700000		0.63293	162.9065
6631687500		0.63279	162.8706
6656675000		0.63261	162.8201
6681662500		0.63253	162.7423
6706650000		0.63264	162.6656
6731637500		0.63275	162.5995
6756625000		0.63269	162.5263
6781612500		0.63248	162.4619
6806600000		0.63251	162.3913
6831587500		0.63283	162.3162
6856575000		0.63297	162.2573
6881562500		0.63294	162.2168
6906550000		0.63278	162.1752
6931537500		0.63283	162.127
6956525000		0.63305	162.0699
6981512500		0.63316	162.0316
7006500000		0.63314	162.0037
7031487500		0.63298	161.9493
7056475000		0.63285	161.8755
7081462500		0.63286	161.8031
7106450000		0.63287	161.7436
7131437500		0.63272	161.6844
7156425000		0.63258	161.6131
7181412500		0.6325	161.5147
7206400000		0.63257	161.4445
7231387500		0.63298	161.3848
7256375000		0.6331	161.3124
7281362500		0.63302	161.262
7306350000		0.63324	161.2166
7331337500		0.63348	161.1575
7356325000		0.63346	161.1327
7381312500		0.63365	161.1159
7406300000		0.63362	161.0508
7431287500		0.63334	160.9938
7456275000		0.63326	160.9497
7481262500		0.63328	160.8779
7506250000		0.63299	160.7901
7531237500		0.63297	160.7094
7556225000		0.63314	160.6176
7581212500		0.63315	160.5466
7606200000		0.63327	160.4926
7631187500		0.63338	160.4199
7656175000		0.63348	160.3457
7681162500		0.63376	160.3094
7706150000		0.63412	160.3005
7731137500		0.63422	160.2855
7756125000		0.63391	160.238
7781112500		0.63365	160.1775
7806100000		0.63377	160.1195
7831087500		0.63381	160.0597
7856075000		0.63338	160.0229
7881062500		0.63315	159.9576
7906050000		0.63314	159.8291
7931037500		0.63322	159.7231
7956025000		0.63364	159.6695
7981012500		0.63379	159.6122
8006000000		0.63344	159.5451
8030987500		0.63341	159.4718
8055975000		0.63399	159.3964
8080962500		0.63449	159.3618
8105950000		0.63444	159.3714
8130937500		0.63406	159.3714
8155925000		0.63379	159.3051
8180912500		0.6338	159.2084
8205900000		0.63396	159.1597
8230887500		0.63401	159.1335
8255875000		0.63364	159.0714
8280862500		0.63314	158.9747
8305850000		0.63324	158.8634
8330837500		0.63364	158.766
8355825000		0.63369	158.7196
8380812500		0.63365	158.6856
8405800000		0.63361	158.5958
8430787500		0.63373	158.509
8455775000		0.63423	158.4883
8480762500		0.63478	158.481
8505750000		0.63455	158.4622
8530737500		0.63414	158.4359
8555725000		0.63422	158.3657
8580712500		0.63437	158.2859
8605700000		0.63436	158.25
8630687500		0.63424	158.2132
8655675000		0.63392	158.1329
8680662500		0.63376	158.025
8705650000		0.63382	157.9226
8730637500		0.63406	157.8322
8755625000		0.63415	157.7596
8780612500		0.63415	157.6993
8805600000		0.63438	157.6506
8830587500		0.63475	157.6061
8855575000		0.63491	157.5705
8880562500		0.63495	157.5515
8905550000		0.63504	157.528
8930537500		0.63497	157.492
8955525000		0.63487	157.4423
8980512500		0.63469	157.3795
9005500000		0.63459	157.2941
9030487500		0.63447	157.2025
9055475000		0.63436	157.1297
9080462500		0.63437	157.0474
9105450000		0.63431	156.9361
9130437500		0.63427	156.8313
9155425000		0.63466	156.757
9180412500		0.63521	156.7182
9205400000		0.63534	156.7013
9230387500		0.63519	156.6738
9255375000		0.63515	156.6125
9280362500		0.63524	156.561
9305350000		0.63554	156.5533
9330337500		0.6357	156.5511
9355325000		0.63536	156.5019
9380312500		0.6348	156.4155
9405300000		0.63481	156.3245
9430287500		0.63521	156.2522
9455275000		0.63527	156.1924
9480262500		0.63486	156.1239
9505250000		0.63463	156.0162
9530237500		0.63476	155.8886
9555225000		0.6351	155.818
9580212500		0.6356	155.7959
9605200000		0.63577	155.7117
9630187500		0.6353	155.6746
9655175000		0.63558	155.6389
9680162500		0.6364	155.5905
9705150000		0.63636	155.5614
9730137500		0.63591	155.5719
9755125000		0.63592	155.5147
9780112500		0.63591	155.4046
9805100000		0.63578	155.3443
9830087500		0.63589	155.3084
9855075000		0.6356	155.2298
9880062500		0.63524	155.1084
9905050000		0.63534	154.9955
9930037500		0.63583	154.9218
9955025000		0.63606	154.8807
9980012500		0.63583	154.8351
10005000000		0.63581	154.7671
10029987500		0.63626	154.7047
10054975000		0.63647	154.6831
10079962500		0.63646	154.695
10104950000		0.63632	154.6613
10129937500		0.63603	154.573
10154925000		0.63612	154.5191
10179912500		0.63646	154.4819
10204900000		0.63621	154.4489
10229887500		0.63576	154.3904
10254875000		0.63582	154.2581
10279862500		0.63619	154.116
10304850000		0.63657	154.0792
10329837500		0.63696	154.0869
10354825000		0.63681	153.9828
10379812500		0.6365	153.8976
10404800000		0.63705	153.8375
10429787500		0.63783	153.827
10454775000		0.63786	153.8547
10479762500		0.63737	153.8342
10504750000		0.63708	153.7385
10529737500		0.63746	153.6415
10554725000		0.63784	153.6141
10579712500		0.63784	153.6249
10604700000		0.63733	153.5687
10629687500		0.63674	153.4273
10654675000		0.63696	153.2985
10679662500		0.63771	153.2719
10704650000		0.63817	153.2022
10729637500		0.63773	153.1863
10754625000		0.63747	153.0544
10779612500		0.63788	152.9416
10804600000		0.6389	152.9405
10829587500		0.63956	152.9692
10854575000		0.63904	152.97
10879562500		0.63837	152.9224
10904550000		0.63877	152.8268
10929537500		0.63921	152.7414
10954525000		0.63917	152.7415
10979512500		0.63877	152.7315
11004500000		0.63821	152.6087
11029487500		0.63805	152.4492
11054475000		0.63868	152.3526
11079462500		0.63923	152.3056
11104450000		0.63908	152.2803
11129437500		0.63897	152.2185
11154425000		0.63941	152.1252
11179412500		0.64003	152.0731
11204400000		0.64029	152.1016
11229387500		0.6403	152.1218
11254375000		0.6399	152.0743
11279362500		0.63964	152.0036
11304350000		0.6399	151.9377
11329337500		0.64013	151.8565
11354325000		0.63974	151.8118
11379312500		0.6397	151.7549
11404300000		0.64001	151.6189
11429287500		0.63984	151.5107
11454275000		0.64	151.4848
11479262500		0.64056	151.4367
11504250000		0.6405	151.3569
11529237500		0.64045	151.3367
11554225000		0.64099	151.324
11579212500		0.64115	151.2581
11604200000		0.64074	151.2063
11629187500		0.64089	151.187
11654175000		0.64119	151.1352
11679162500		0.64086	151.0605
11704150000		0.64047	151.0145
11729137500		0.64081	150.9287
11754125000		0.6411	150.7839
11779112500		0.6409	150.8132
11804100000		0.6413	150.7513
11829087500		0.64108	150.6493
11854075000		0.64063	150.5628
11879062500		0.64123	150.5128
11904050000		0.64194	150.4521
11929037500		0.64146	150.491
11954025000		0.64143	150.4674
11979012500		0.64159	150.3699
!
!				Infineon Technologies AG
