! Infineon Technologies  Discrete & RF Semiconductors
! BAT15-02ELS
! IAC = 4 mA
! One-Port S-Parameters
# Hz  S  MA  R  50
!f									S11
!Hz							Mag  Ang
309850000		0.60185	178.8864
334837500		0.60161	178.8526
359825000		0.60127	178.796
384812500		0.60147	178.6796
409800000		0.60132	178.597
434787500		0.60106	178.5593
459775000		0.60143	178.4956
484762500		0.60128	178.4175
509750000		0.60085	178.3891
534737500		0.60118	178.2576
559725000		0.60108	178.2084
584712500		0.60078	178.1554
609700000		0.60064	178.0892
634687500		0.6004	177.9743
659675000		0.60006	177.9339
684662500		0.59985	177.8618
709650000		0.59975	177.8467
734637500		0.59977	177.7944
759625000		0.59964	177.7208
784612500		0.59973	177.6559
809600000		0.5998	177.6014
834587500		0.60003	177.537
859575000		0.60005	177.4725
884562500		0.59976	177.3997
909550000		0.59982	177.3317
934537500		0.59956	177.2564
959525000		0.59924	177.1834
984512500		0.59937	177.1194
1009500000		0.59909	177.0475
1034487500		0.59884	176.9897
1059475000		0.599	176.9293
1084462500		0.59871	176.8688
1109450000		0.59869	176.8224
1134437500		0.59914	176.762
1159425000		0.59924	176.6965
1184412500		0.59913	176.6238
1209400000		0.59933	176.5445
1234387500		0.59927	176.4549
1259375000		0.59911	176.3829
1284362500		0.59894	176.3382
1309350000		0.59891	176.2867
1334337500		0.59869	176.207
1359325000		0.59842	176.1301
1384312500		0.59848	176.0519
1409300000		0.59842	175.9857
1434287500		0.59833	175.9614
1459275000		0.59814	175.9022
1484262500		0.59804	175.8374
1509250000		0.59847	175.771
1534237500		0.5988	175.6985
1559225000		0.59896	175.6372
1584212500		0.59916	175.5733
1609200000		0.59901	175.4728
1634187500		0.59879	175.3705
1659175000		0.59853	175.3145
1684162500		0.59858	175.2743
1709150000		0.59862	175.1841
1734137500		0.59784	175.1461
1759125000		0.59775	175.0711
1784112500		0.59795	174.9843
1809100000		0.59746	174.9341
1834087500		0.59742	174.9038
1859075000		0.59756	174.8192
1884062500		0.59728	174.7903
1909050000		0.59754	174.7341
1934037500		0.59821	174.6693
1959025000		0.5984	174.5974
1984012500		0.59823	174.5692
2009000000		0.59855	174.4295
2033987500		0.59809	174.3959
2058975000		0.59806	174.2658
2083962500		0.59818	174.2043
2108950000		0.59799	174.171
2133937500		0.59736	174.1152
2158925000		0.59735	174.0216
2183912500		0.5975	173.9149
2208900000		0.59727	173.8147
2233887500		0.59715	173.837
2258875000		0.59726	173.7868
2283862500		0.59712	173.7458
2308850000		0.59719	173.682
2333837500		0.5972	173.6241
2358825000		0.59772	173.5403
2383812500		0.59784	173.4555
2408800000		0.59716	173.4359
2433787500		0.59731	173.3193
2458775000		0.59728	173.2358
2483762500		0.597	173.1952
2508750000		0.59698	173.1381
2533737500		0.59684	173.0903
2558725000		0.59652	173.0506
2583712500		0.59661	172.9106
2608700000		0.59675	172.8
2633687500		0.59678	172.7779
2658675000		0.59641	172.7499
2683662500		0.59623	172.7067
2708650000		0.59633	172.616
2733637500		0.59625	172.5179
2758625000		0.59639	172.4942
2783612500		0.59647	172.4595
2808600000		0.59628	172.3893
2833587500		0.59631	172.3684
2858575000		0.5964	172.2479
2883562500		0.59639	172.1853
2908550000		0.59645	172.139
2933537500		0.59646	172.0532
2958525000		0.59626	172.0463
2983512500		0.59639	171.9036
3008500000		0.59626	171.8124
3033487500		0.59655	171.764
3058475000		0.59637	171.7124
3083462500		0.59606	171.6361
3108450000		0.59599	171.5749
3133437500		0.5962	171.4762
3158425000		0.59611	171.4427
3183412500		0.59608	171.3843
3208400000		0.59599	171.3145
3233387500		0.59591	171.2449
3258375000		0.59599	171.171
3283362500		0.59596	171.1265
3308350000		0.59596	171.0811
3333337500		0.5958	171.0143
3358325000		0.59576	170.9375
3383312500		0.59577	170.8806
3408300000		0.59602	170.8243
3433287500		0.59579	170.8031
3458275000		0.59552	170.7477
3483262500		0.59596	170.6325
3508250000		0.59608	170.5591
3533237500		0.59593	170.4793
3558225000		0.596	170.4492
3583212500		0.59593	170.3725
3608200000		0.5958	170.299
3633187500		0.59591	170.2391
3658175000		0.59593	170.182
3683162500		0.59574	170.1164
3708150000		0.59574	170.0326
3733137500		0.59566	169.9912
3758125000		0.59574	169.9079
3783112500		0.59553	169.8666
3808100000		0.5955	169.8274
3833087500		0.59562	169.76
3858075000		0.59552	169.6696
3883062500		0.59553	169.6401
3908050000		0.59581	169.582
3933037500		0.59551	169.5265
3958025000		0.5955	169.4675
3983012500		0.59585	169.3918
4008000000		0.59573	169.3572
4032987500		0.59552	169.2819
4057975000		0.59573	169.2061
4082962500		0.59581	169.1182
4107950000		0.59548	169.0611
4132937500		0.59548	169.014
4157925000		0.59561	168.9455
4182912500		0.59534	168.8777
4207900000		0.59521	168.8212
4232887500		0.59534	168.7659
4257875000		0.59543	168.6783
4282862500		0.59526	168.6591
4307850000		0.59518	168.5961
4332837500		0.5952	168.5156
4357825000		0.59529	168.4625
4382812500		0.59529	168.4221
4407800000		0.59542	168.3551
4432787500		0.59521	168.2897
4457775000		0.59509	168.219
4482762500		0.59542	168.1497
4507750000		0.59542	168.1147
4532737500		0.59518	168.0676
4557725000		0.59533	167.9817
4582712500		0.59528	167.9154
4607700000		0.59519	167.8832
4632687500		0.59542	167.8328
4657675000		0.59541	167.772
4682662500		0.5951	167.7051
4707650000		0.59501	167.6269
4732637500		0.59518	167.5575
4757625000		0.59538	167.507
4782612500		0.59521	167.4618
4807600000		0.59497	167.3968
4832587500		0.59506	167.3052
4857575000		0.59517	167.2403
4882562500		0.59531	167.2095
4907550000		0.59532	167.1761
4932537500		0.59529	167.1013
4957525000		0.5951	167.0362
4982512500		0.59516	166.9888
5007500000		0.59544	166.9401
5032487500		0.59545	166.8894
5057475000		0.59523	166.8286
5082462500		0.59521	166.7546
5107450000		0.59528	166.6765
5132437500		0.59542	166.6151
5157425000		0.59534	166.5792
5182412500		0.59516	166.5181
5207400000		0.59512	166.4313
5232387500		0.59509	166.3669
5257375000		0.59504	166.3241
5282362500		0.59523	166.278
5307350000		0.59511	166.2157
5332337500		0.59509	166.1481
5357325000		0.59527	166.09
5382312500		0.59526	166.0424
5407300000		0.5953	165.9937
5432287500		0.59534	165.9377
5457275000		0.59526	165.8793
5482262500		0.59528	165.8221
5507250000		0.59533	165.7588
5532237500		0.59535	165.6884
5557225000		0.59523	165.6401
5582212500		0.5952	165.5902
5607200000		0.59536	165.5098
5632187500		0.59523	165.4475
5657175000		0.59497	165.4034
5682162500		0.59523	165.3241
5707150000		0.59557	165.2473
5732137500		0.59555	165.2199
5757125000		0.59546	165.1969
5782112500		0.59556	165.1186
5807100000		0.59554	165.0376
5832087500		0.59561	164.9868
5857075000		0.59592	164.9468
5882062500		0.59588	164.9037
5907050000		0.59535	164.8365
5932037500		0.59531	164.7626
5957025000		0.59555	164.6793
5982012500		0.59553	164.6184
6007000000		0.5954	164.5763
6031987500		0.59536	164.505
6056975000		0.59543	164.4015
6081962500		0.59563	164.3347
6106950000		0.59599	164.3069
6131937500		0.59618	164.2875
6156925000		0.59597	164.2539
6181912500		0.59582	164.1777
6206900000		0.59595	164.0862
6231887500		0.59595	164.0656
6256875000		0.59594	164.0559
6281862500		0.59571	163.9706
6306850000		0.5952	163.8792
6331837500		0.59523	163.8076
6356825000		0.59569	163.7252
6381812500		0.59561	163.6631
6406800000		0.59539	163.6252
6431787500		0.59546	163.547
6456775000		0.59572	163.4469
6481762500		0.59594	163.4062
6506750000		0.59623	163.3893
6531737500		0.5963	163.344
6556725000		0.59611	163.2946
6581712500		0.5961	163.239
6606700000		0.5962	163.1854
6631687500		0.59611	163.154
6656675000		0.59591	163.1066
6681662500		0.59578	163.031
6706650000		0.59583	162.9539
6731637500		0.59605	162.8859
6756625000		0.59593	162.8158
6781612500		0.59575	162.7517
6806600000		0.5959	162.6812
6831587500		0.59614	162.6103
6856575000		0.59629	162.5507
6881562500		0.59639	162.5078
6906550000		0.59631	162.4699
6931537500		0.59637	162.4204
6956525000		0.59645	162.37
6981512500		0.59657	162.334
7006500000		0.59656	162.3125
7031487500		0.59642	162.2621
7056475000		0.59628	162.1843
7081462500		0.5962	162.1207
7106450000		0.59622	162.0638
7131437500		0.59614	162.0036
7156425000		0.59597	161.9282
7181412500		0.59597	161.834
7206400000		0.59619	161.7645
7231387500		0.59652	161.7048
7256375000		0.59678	161.6324
7281362500		0.59671	161.5783
7306350000		0.59692	161.5434
7331337500		0.59721	161.4861
7356325000		0.59711	161.4651
7381312500		0.59721	161.4541
7406300000		0.59737	161.3861
7431287500		0.59695	161.3327
7456275000		0.59683	161.2948
7481262500		0.59683	161.2292
7506250000		0.59658	161.1397
7531237500		0.59657	161.0568
7556225000		0.59682	160.964
7581212500		0.59694	160.892
7606200000		0.59704	160.848
7631187500		0.5971	160.7746
7656175000		0.59722	160.6958
7681162500		0.59753	160.6589
7706150000		0.59803	160.6596
7731137500		0.59804	160.6537
7756125000		0.59749	160.6111
7781112500		0.59735	160.5501
7806100000		0.59747	160.491
7831087500		0.59753	160.4356
7856075000		0.59715	160.4047
7881062500		0.59677	160.3476
7906050000		0.59685	160.2128
7931037500		0.59704	160.0985
7956025000		0.59742	160.0498
7981012500		0.5977	159.9987
8006000000		0.59733	159.9337
8030987500		0.59717	159.8599
8055975000		0.59796	159.7787
8080962500		0.59849	159.7522
8105950000		0.59833	159.7748
8130937500		0.59793	159.7796
8155925000		0.59759	159.7136
8180912500		0.5977	159.6134
8205900000		0.59797	159.5647
8230887500		0.59787	159.5526
8255875000		0.59752	159.494
8280862500		0.59712	159.3922
8305850000		0.59725	159.2765
8330837500		0.59765	159.1787
8355825000		0.59781	159.1409
8380812500		0.5978	159.1125
8405800000		0.59772	159.0207
8430787500		0.5978	158.9292
8455775000		0.59846	158.9135
8480762500		0.59898	158.9147
8505750000		0.5987	158.9038
8530737500		0.59817	158.8787
8555725000		0.5983	158.8096
8580712500		0.59859	158.727
8605700000		0.59854	158.696
8630687500		0.59841	158.6644
8655675000		0.59809	158.5894
8680662500		0.59784	158.4812
8705650000		0.59802	158.3716
8730637500		0.59836	158.287
8755625000		0.59841	158.2181
8780612500		0.59839	158.1567
8805600000		0.59851	158.1146
8830587500		0.59899	158.0684
8855575000		0.59936	158.0364
8880562500		0.59927	158.0269
8905550000		0.59921	158.0079
8930537500		0.59925	157.97
8955525000		0.59921	157.9217
8980512500		0.59904	157.8591
9005500000		0.59891	157.7765
9030487500		0.59886	157.6875
9055475000		0.59874	157.6238
9080462500		0.59865	157.5428
9105450000		0.59874	157.4233
9130437500		0.59866	157.3585
9155425000		0.59905	157.2535
9180412500		0.59967	157.2156
9205400000		0.59983	157.1996
9230387500		0.59961	157.1798
9255375000		0.59966	157.1193
9280362500		0.59986	157.0637
9305350000		0.60007	157.0637
9330337500		0.60016	157.0695
9355325000		0.60001	157.0156
9380312500		0.59946	156.9293
9405300000		0.59932	156.847
9430287500		0.59982	156.778
9455275000		0.59988	156.7267
9480262500		0.59935	156.6574
9505250000		0.59923	156.5448
9530237500		0.59949	156.4165
9555225000		0.59965	156.3562
9580212500		0.60002	156.3439
9605200000		0.60034	156.2814
9630187500		0.60006	156.21
9655175000		0.60019	156.1812
9680162500		0.60112	156.1366
9705150000		0.60126	156.11
9730137500		0.60057	156.132
9755125000		0.60052	156.0727
9780112500		0.6008	155.9518
9805100000		0.60055	155.9093
9830087500		0.60041	155.888
9855075000		0.60026	155.8088
9880062500		0.59983	155.6808
9905050000		0.5999	155.5672
9930037500		0.60051	155.498
9955025000		0.60064	155.4678
9980012500		0.60036	155.4224
10005000000		0.6005	155.3493
10029987500		0.60109	155.2786
10054975000		0.6014	155.2606
10079962500		0.60128	155.289
10104950000		0.60127	155.2562
10129937500		0.60101	155.1664
10154925000		0.601	155.1116
10179912500		0.60141	155.0784
10204900000		0.60124	155.0627
10229887500		0.6005	155.0138
10254875000		0.60053	154.874
10279862500		0.60119	154.7145
10304850000		0.60158	154.6923
10329837500		0.60163	154.7149
10354825000		0.60161	154.6348
10379812500		0.60145	154.5124
10404800000		0.60195	154.4489
10429787500		0.60293	154.4412
10454775000		0.60293	154.4794
10479762500		0.60225	154.4685
10504750000		0.60211	154.3678
10529737500		0.60252	154.2667
10554725000		0.6029	154.2438
10579712500		0.60279	154.2768
10604700000		0.60221	154.2282
10629687500		0.60166	154.0754
10654675000		0.60192	153.9402
10679662500		0.60288	153.8817
10704650000		0.60327	153.8599
10729637500		0.60265	153.8488
10754625000		0.60241	153.7076
10779612500		0.60298	153.5852
10804600000		0.60405	153.5868
10829587500		0.60474	153.6267
10854575000		0.60421	153.6365
10879562500		0.60345	153.5946
10904550000		0.60387	153.4908
10929537500		0.60441	153.4068
10954525000		0.6043	153.4201
10979512500		0.60377	153.4238
11004500000		0.60317	153.2954
11029487500		0.60296	153.1317
11054475000		0.60372	153.0332
11079462500		0.60447	152.9922
11104450000		0.60424	152.9709
11129437500		0.60402	152.9057
11154425000		0.60467	152.8026
11179412500		0.60537	152.7556
11204400000		0.60551	152.7924
11229387500		0.60556	152.8223
11254375000		0.60517	152.771
11279362500		0.60485	152.7053
11304350000		0.60514	152.6391
11329337500		0.60546	152.5619
11354325000		0.60496	152.5197
11379312500		0.60471	152.4709
11404300000		0.60524	152.3254
11429287500		0.60518	152.2164
11454275000		0.6051	152.1991
11479262500		0.6058	152.1561
11504250000		0.60585	152.0728
11529237500		0.60566	152.0531
11554225000		0.60629	152.0457
11579212500		0.60675	151.974
11604200000		0.60632	151.8933
11629187500		0.60614	151.91
11654175000		0.60666	151.8612
11679162500		0.60641	151.7862
11704150000		0.60578	151.7501
11729137500		0.60611	151.662
11754125000		0.60661	151.5123
11779112500		0.60644	151.5091
11804100000		0.60661	151.497
11829087500		0.6065	151.432
11854075000		0.60613	151.3053
11879062500		0.60655	151.2585
11904050000		0.60745	151.1919
11929037500		0.60719	151.2002
11954025000		0.60678	151.226
11979012500		0.60701	151.1239
!
!				Infineon Technologies AG
