! Infineon Technologies  Discrete & RF Semiconductors
! BAT15-02ELS
! IAC = 0.01 mA
! One-Port S-Parameters
# Hz  S  MA  R  50
!f									S11
!Hz							Mag  Ang
309850000		0.97537	-2.2291
334837500		0.97556	-2.4558
359825000		0.97546	-2.6286
384812500		0.97648	-2.7927
409800000		0.976	-2.9757
434787500		0.97466	-3.153
459775000		0.97594	-3.336
484762500		0.97656	-3.5284
509750000		0.97583	-3.733
534737500		0.97539	-3.9212
559725000		0.97551	-4.0626
584712500		0.97562	-4.2982
609700000		0.97489	-4.4926
634687500		0.97613	-4.652
659675000		0.97498	-4.8378
684662500		0.97456	-4.9913
709650000		0.97563	-5.18
734637500		0.97542	-5.3663
759625000		0.97492	-5.4916
784612500		0.97594	-5.6887
809600000		0.97547	-5.8999
834587500		0.97587	-6.1011
859575000		0.97625	-6.2935
884562500		0.97542	-6.505
909550000		0.976	-6.6934
934537500		0.97543	-6.8774
959525000		0.97491	-7.0662
984512500		0.97603	-7.2368
1009500000		0.97486	-7.4253
1034487500		0.97417	-7.612
1059475000		0.97528	-7.7449
1084462500		0.9748	-7.9237
1109450000		0.97452	-8.1073
1134437500		0.97555	-8.2471
1159425000		0.97542	-8.4289
1184412500		0.97566	-8.6492
1209400000		0.97596	-8.8572
1234387500		0.9756	-9.0413
1259375000		0.97539	-9.2331
1284362500		0.97523	-9.446
1309350000		0.97523	-9.6338
1334337500		0.97538	-9.8036
1359325000		0.97508	-9.999
1384312500		0.9743	-10.1764
1409300000		0.97463	-10.3356
1434287500		0.97457	-10.5326
1459275000		0.97363	-10.6767
1484262500		0.97451	-10.8093
1509250000		0.97553	-10.9691
1534237500		0.97494	-11.1546
1559225000		0.97594	-11.3637
1584212500		0.97657	-11.6037
1609200000		0.97568	-11.8183
1634187500		0.9761	-11.9934
1659175000		0.97568	-12.2342
1684162500		0.97506	-12.4544
1709150000		0.97584	-12.6053
1734137500		0.97407	-12.838
1759125000		0.97329	-13.016
1784112500		0.97458	-13.1068
1809100000		0.97306	-13.3203
1834087500		0.97248	-13.4866
1859075000		0.97397	-13.5794
1884062500		0.97295	-13.7683
1909050000		0.97308	-13.9321
1934037500		0.9741	-14.0822
1959025000		0.97444	-14.3262
1984012500		0.97436	-14.5678
2009000000		0.97413	-14.7326
2033987500		0.97428	-14.9034
2058975000		0.97418	-15.1364
2083962500		0.97408	-15.3309
2108950000		0.97402	-15.4408
2133937500		0.97385	-15.7025
2158925000		0.97345	-15.895
2183912500		0.9742	-15.9915
2208900000		0.97423	-16.179
2233887500		0.97303	-16.3966
2258875000		0.97326	-16.5332
2283862500		0.97401	-16.7045
2308850000		0.97338	-16.9467
2333837500		0.97341	-17.1099
2358825000		0.97505	-17.2385
2383812500		0.9738	-17.5355
2408800000		0.97247	-17.7358
2433787500		0.97482	-17.9112
2458775000		0.97468	-18.0117
2483762500		0.97327	-18.2681
2508750000		0.97345	-18.4403
2533737500		0.97398	-18.6336
2558725000		0.97375	-18.8159
2583712500		0.97371	-18.9687
2608700000		0.97385	-19.1231
2633687500		0.97323	-19.3115
2658675000		0.97215	-19.5122
2683662500		0.97275	-19.7193
2708650000		0.97346	-19.8569
2733637500		0.97288	-20.0096
2758625000		0.97276	-20.205
2783612500		0.97234	-20.3792
2808600000		0.97242	-20.6264
2833587500		0.97324	-20.7646
2858575000		0.97289	-20.8991
2883562500		0.97222	-21.1212
2908550000		0.97249	-21.3579
2933537500		0.97318	-21.5709
2958525000		0.97338	-21.6855
2983512500		0.97276	-21.8977
3008500000		0.97214	-22.0433
3033487500		0.97289	-22.2207
3058475000		0.97226	-22.4327
3083462500		0.97179	-22.6194
3108450000		0.97263	-22.7814
3133437500		0.97231	-22.9933
3158425000		0.97136	-23.1942
3183412500		0.97102	-23.3358
3208400000		0.97221	-23.523
3233387500		0.97227	-23.6911
3258375000		0.97139	-23.9345
3283362500		0.97129	-24.0957
3308350000		0.97164	-24.2654
3333337500		0.97162	-24.3964
3358325000		0.97161	-24.6519
3383312500		0.97083	-24.8088
3408300000		0.97147	-24.9461
3433287500		0.97147	-25.1593
3458275000		0.9706	-25.3904
3483262500		0.97138	-25.5035
3508250000		0.97155	-25.6705
3533237500		0.97081	-25.9298
3558225000		0.97106	-26.1094
3583212500		0.97083	-26.2835
3608200000		0.97098	-26.4615
3633187500		0.97145	-26.6231
3658175000		0.97043	-26.8456
3683162500		0.97058	-27.0275
3708150000		0.97114	-27.2049
3733137500		0.96986	-27.3631
3758125000		0.97021	-27.5685
3783112500		0.97001	-27.7429
3808100000		0.9699	-27.9453
3833087500		0.97014	-28.0879
3858075000		0.96937	-28.3097
3883062500		0.96957	-28.4826
3908050000		0.9707	-28.6079
3933037500		0.96967	-28.8696
3958025000		0.96892	-29.0836
3983012500		0.97017	-29.1731
4008000000		0.97059	-29.3918
4032987500		0.96924	-29.6441
4057975000		0.96936	-29.7898
4082962500		0.97025	-29.8988
4107950000		0.96926	-30.1617
4132937500		0.96885	-30.364
4157925000		0.96965	-30.4818
4182912500		0.96951	-30.6859
4207900000		0.96898	-30.9103
4232887500		0.96823	-31.0946
4257875000		0.96849	-31.2513
4282862500		0.96902	-31.3915
4307850000		0.96824	-31.6438
4332837500		0.96822	-31.7877
4357825000		0.96878	-31.9494
4382812500		0.96779	-32.1874
4407800000		0.96855	-32.3156
4432787500		0.96887	-32.488
4457775000		0.96765	-32.7273
4482762500		0.96857	-32.8372
4507750000		0.96838	-33.0626
4532737500		0.96699	-33.3202
4557725000		0.96832	-33.3962
4582712500		0.9686	-33.5839
4607700000		0.96695	-33.8821
4632687500		0.96671	-34.0589
4657675000		0.96783	-34.1724
4682662500		0.9681	-34.349
4707650000		0.96717	-34.5715
4732637500		0.96667	-34.7614
4757625000		0.96705	-34.9028
4782612500		0.96712	-35.0984
4807600000		0.9667	-35.2889
4832587500		0.96652	-35.4367
4857575000		0.96683	-35.5932
4882562500		0.9662	-35.8338
4907550000		0.96544	-36.0485
4932537500		0.96656	-36.1453
4957525000		0.96676	-36.332
4982512500		0.96555	-36.5919
5007500000		0.96537	-36.7603
5032487500		0.96597	-36.9161
5057475000		0.9664	-37.0933
5082462500		0.9661	-37.2915
5107450000		0.96518	-37.4969
5132437500		0.96581	-37.6393
5157425000		0.96605	-37.8467
5182412500		0.96522	-38.0522
5207400000		0.96575	-38.163
5232387500		0.96556	-38.3614
5257375000		0.96495	-38.581
5282362500		0.9653	-38.7251
5307350000		0.96497	-38.9147
5332337500		0.96515	-39.0759
5357325000		0.96537	-39.2371
5382312500		0.96446	-39.4755
5407300000		0.96453	-39.6607
5432287500		0.96513	-39.8002
5457275000		0.96511	-39.9902
5482262500		0.96441	-40.2117
5507250000		0.96392	-40.4016
5532237500		0.96501	-40.5217
5557225000		0.96501	-40.737
5582212500		0.96342	-40.9904
5607200000		0.964	-41.0747
5632187500		0.96522	-41.2107
5657175000		0.96402	-41.5008
5682162500		0.96337	-41.6567
5707150000		0.96454	-41.7229
5732137500		0.96448	-41.9522
5757125000		0.96358	-42.2123
5782112500		0.96393	-42.3371
5807100000		0.96439	-42.4897
5832087500		0.96365	-42.7312
5857075000		0.9637	-42.9041
5882062500		0.96345	-43.104
5907050000		0.96313	-43.3337
5932037500		0.96372	-43.475
5957025000		0.96347	-43.6178
5982012500		0.96312	-43.8196
6007000000		0.96354	-44.0133
6031987500		0.96342	-44.1732
6056975000		0.96377	-44.2891
6081962500		0.96341	-44.4901
6106950000		0.96282	-44.719
6131937500		0.96358	-44.8683
6156925000		0.96268	-45.1343
6181912500		0.96202	-45.3291
6206900000		0.96335	-45.3923
6231887500		0.963	-45.6544
6256875000		0.96178	-45.9154
6281862500		0.96241	-46.018
6306850000		0.96322	-46.191
6331837500		0.96245	-46.4064
6356825000		0.96153	-46.5645
6381812500		0.96197	-46.7224
6406800000		0.96238	-46.9095
6431787500		0.96187	-47.0847
6456775000		0.96192	-47.2048
6481762500		0.96205	-47.4007
6506750000		0.96167	-47.62
6531737500		0.96191	-47.7796
6556725000		0.96145	-48.0137
6581712500		0.96098	-48.2288
6606700000		0.96118	-48.3816
6631687500		0.96107	-48.5938
6656675000		0.96095	-48.7909
6681662500		0.96064	-48.9696
6706650000		0.96037	-49.1505
6731637500		0.96024	-49.3085
6756625000		0.96007	-49.5007
6781612500		0.96071	-49.6474
6806600000		0.96098	-49.7811
6831587500		0.96004	-49.9925
6856575000		0.9599	-50.1696
6881562500		0.96041	-50.3301
6906550000		0.96073	-50.5043
6931537500		0.96005	-50.7201
6956525000		0.95914	-50.9567
6981512500		0.95938	-51.1231
7006500000		0.9596	-51.3119
7031487500		0.95923	-51.5235
7056475000		0.95929	-51.6966
7081462500		0.95885	-51.8962
7106450000		0.95887	-52.0478
7131437500		0.95916	-52.1945
7156425000		0.95878	-52.3868
7181412500		0.95948	-52.4837
7206400000		0.95939	-52.6764
7231387500		0.95804	-52.9169
7256375000		0.95875	-53.0144
7281362500		0.95917	-53.2005
7306350000		0.95851	-53.4265
7331337500		0.95833	-53.6079
7356325000		0.95764	-53.9148
7381312500		0.95728	-54.1047
7406300000		0.95781	-54.208
7431287500		0.95752	-54.4741
7456275000		0.95724	-54.6661
7481262500		0.95762	-54.7545
7506250000		0.95787	-54.9223
7531237500		0.95771	-55.1068
7556225000		0.95756	-55.2355
7581212500		0.95788	-55.3881
7606200000		0.95765	-55.5819
7631187500		0.95718	-55.768
7656175000		0.95719	-55.953
7681162500		0.95719	-56.1606
7706150000		0.95673	-56.3854
7731137500		0.95594	-56.6601
7756125000		0.95631	-56.8462
7781112500		0.95707	-56.9664
7806100000		0.95601	-57.1675
7831087500		0.95599	-57.324
7856075000		0.95674	-57.5029
7881062500		0.95592	-57.7273
7906050000		0.95633	-57.7727
7931037500		0.95691	-57.8868
7956025000		0.95602	-58.1334
7981012500		0.95641	-58.259
8006000000		0.9562	-58.505
8030987500		0.95566	-58.742
8055975000		0.95593	-58.8096
8080962500		0.95528	-59.0564
8105950000		0.95514	-59.3366
8130937500		0.95534	-59.5462
8155925000		0.95495	-59.7195
8180912500		0.95535	-59.8035
8205900000		0.95506	-60.0061
8230887500		0.95422	-60.2679
8255875000		0.95486	-60.382
8280862500		0.95542	-60.5011
8305850000		0.95472	-60.6759
8330837500		0.95433	-60.8324
8355825000		0.95468	-61.0189
8380812500		0.95425	-61.2455
8405800000		0.95374	-61.4421
8430787500		0.95402	-61.605
8455775000		0.95373	-61.809
8480762500		0.95297	-62.0319
8505750000		0.9534	-62.2441
8530737500		0.95348	-62.4569
8555725000		0.95325	-62.578
8580712500		0.95308	-62.7039
8605700000		0.95291	-62.9342
8630687500		0.95323	-63.0965
8655675000		0.95295	-63.2768
8680662500		0.95265	-63.4486
8705650000		0.95312	-63.5356
8730637500		0.95245	-63.7367
8755625000		0.95215	-63.9429
8780612500		0.95216	-64.1302
8805600000		0.95126	-64.399
8830587500		0.95169	-64.4859
8855575000		0.95229	-64.6172
8880562500		0.95104	-64.9687
8905550000		0.95101	-65.1431
8930537500		0.95184	-65.2217
8955525000		0.9518	-65.3896
8980512500		0.95146	-65.5735
9005500000		0.9514	-65.7441
9030487500		0.95146	-65.8944
9055475000		0.95069	-66.15
9080462500		0.95017	-66.3321
9105450000		0.95131	-66.3507
9130437500		0.95081	-66.5864
9155425000		0.94921	-66.902
9180412500		0.94948	-67.0473
9205400000		0.94992	-67.2146
9230387500		0.94961	-67.4448
9255375000		0.94992	-67.5471
9280362500		0.9499	-67.7217
9305350000		0.94881	-68.0286
9330337500		0.94898	-68.1685
9355325000		0.95032	-68.1981
9380312500		0.94959	-68.4764
9405300000		0.94859	-68.7177
9430287500		0.94886	-68.8166
9455275000		0.94816	-69.074
9480262500		0.94808	-69.2877
9505250000		0.94911	-69.3111
9530237500		0.94849	-69.4979
9555225000		0.94711	-69.8318
9580212500		0.94684	-70.0105
9605200000		0.94846	-69.9871
9630187500		0.94859	-70.2078
9655175000		0.94661	-70.5708
9680162500		0.9469	-70.6251
9705150000		0.94826	-70.718
9730137500		0.94687	-71.1177
9755125000		0.9473	-71.1615
9780112500		0.94808	-71.2278
9805100000		0.94609	-71.6626
9830087500		0.94608	-71.8308
9855075000		0.94733	-71.8301
9880062500		0.94693	-72.0463
9905050000		0.9465	-72.229
9930037500		0.94606	-72.3825
9955025000		0.94564	-72.6141
9980012500		0.94603	-72.7782
10005000000		0.94677	-72.8334
10029987500		0.94646	-72.9926
10054975000		0.945	-73.3474
10079962500		0.94503	-73.5506
10104950000		0.94596	-73.5996
10129937500		0.945	-73.8651
10154925000		0.9443	-74.0903
10179912500		0.94498	-74.1769
10204900000		0.9445	-74.4598
10229887500		0.94327	-74.7677
10254875000		0.9437	-74.7596
10279862500		0.94503	-74.6935
10304850000		0.94318	-75.1851
10329837500		0.94223	-75.4621
10354825000		0.9441	-75.396
10379812500		0.9445	-75.5413
10404800000		0.94336	-75.7884
10429787500		0.94351	-75.912
10454775000		0.94298	-76.2102
10479762500		0.94313	-76.4016
10504750000		0.94367	-76.4534
10529737500		0.94288	-76.6506
10554725000		0.94216	-76.9363
10579712500		0.94185	-77.1901
10604700000		0.94237	-77.3
10629687500		0.94301	-77.3742
10654675000		0.94202	-77.5849
10679662500		0.94137	-77.7605
10704650000		0.94201	-77.9611
10729637500		0.94148	-78.1823
10754625000		0.94228	-78.199
10779612500		0.94224	-78.3021
10804600000		0.94058	-78.6274
10829587500		0.94057	-78.8387
10854575000		0.94137	-79.0459
10879562500		0.94103	-79.2452
10904550000		0.94059	-79.3284
10929537500		0.94074	-79.4881
10954525000		0.94062	-79.7976
10979512500		0.94022	-80.0044
11004500000		0.94058	-80.0631
11029487500		0.94049	-80.1778
11054475000		0.94002	-80.3386
11079462500		0.93996	-80.5216
11104450000		0.93952	-80.8368
11129437500		0.93918	-81.0246
11154425000		0.9397	-81.0292
11179412500		0.93893	-81.2848
11204400000		0.93852	-81.552
11229387500		0.93901	-81.6891
11254375000		0.93937	-81.8193
11279362500		0.93895	-82.0394
11304350000		0.93862	-82.1565
11329337500		0.93914	-82.2549
11354325000		0.93887	-82.577
11379312500		0.93781	-82.805
11404300000		0.93873	-82.7417
11429287500		0.93896	-82.9571
11454275000		0.93737	-83.332
11479262500		0.93768	-83.3578
11504250000		0.93815	-83.5093
11529237500		0.93725	-83.8897
11554225000		0.93736	-83.9555
11579212500		0.93767	-84.0131
11604200000		0.93713	-84.3768
11629187500		0.93647	-84.6178
11654175000		0.93716	-84.5667
11679162500		0.93758	-84.7213
11704150000		0.93659	-85.0366
11729137500		0.93656	-85.0935
11754125000		0.93729	-85.1608
11779112500		0.93569	-85.5971
11804100000		0.93578	-85.7048
11829087500		0.93732	-85.6279
11854075000		0.93588	-86.045
11879062500		0.93467	-86.3143
11904050000		0.93577	-86.3092
11929037500		0.93569	-86.6231
11954025000		0.93459	-86.8836
11979012500		0.93554	-86.8058
!
!				Infineon Technologies AG
