! Infineon Technologies  Discrete & RF Semiconductors
! BAT17-07
! IAC = 1 mA
! One-Port S-Parameters
# Hz  S  MA  R  50
!f									S11
!Hz							Mag  Ang
309850000		0.19977	177.2799
409800000		0.20191	175.6867
509750000		0.20609	174.401
609700000		0.20931	173.4697
709650000		0.21038	172.2049
809600000		0.21107	170.8912
909550000		0.21186	169.9292
1009500000		0.21618	168.6648
1109450000		0.21749	167.6303
1209400000		0.22029	166.0785
1309350000		0.22141	165.5732
1409300000		0.22396	164.413
1509250000		0.22913	163.6533
1609200000		0.23293	162.5396
1709150000		0.23744	161.4372
1809100000		0.24297	160.4633
1909050000		0.24948	159.1373
2009000000		0.25501	157.9347
2108950000		0.25943	156.9727
2208900000		0.26427	155.9057
2308850000		0.26968	154.7396
2408800000		0.27363	153.4499
2508750000		0.27786	152.4595
2608700000		0.28399	151.1693
2708650000		0.28906	149.9384
2808600000		0.29636	148.7574
2908550000		0.30101	147.5157
3008500000		0.31076	146.257
3108450000		0.31693	144.9606
3208400000		0.32498	143.3689
3308350000		0.33037	142.217
3408300000		0.33708	140.9733
3508250000		0.34375	139.816
3608200000		0.35347	137.9604
3708150000		0.36114	136.7944
3808100000		0.36821	135.4074
3908050000		0.37593	134.2253
4008000000		0.38528	132.6608
4107950000		0.39411	131.3072
4207900000		0.40187	130.002
4307850000		0.41036	128.737
4407800000		0.41992	127.4068
4507750000		0.42818	125.9985
4607700000		0.43761	124.6667
4707650000		0.44559	123.4655
4807600000		0.4545	122.2424
4907550000		0.46299	121.1054
5007500000		0.47156	119.9231
5107450000		0.48112	118.3829
5207400000		0.48872	117.38
5307350000		0.49636	116.3669
5407300000		0.50407	115.306
5507250000		0.51248	113.9068
5607200000		0.52065	112.8867
5707150000		0.52761	111.7212
5807100000		0.53473	110.7807
5907050000		0.54153	109.5788
6007000000		0.54834	108.7623
6106950000		0.55441	107.8466
6206900000		0.56134	106.8788
6306850000		0.56689	105.8472
6406800000		0.57333	104.8445
6506750000		0.5788	103.8406
6606700000		0.58415	102.7441
6706650000		0.58978	101.7138
6806600000		0.59438	100.6794
6906550000		0.59959	99.4412
7006500000		0.60388	98.2731
7106450000		0.60801	97.0812
7206400000		0.61198	95.7951
7306350000		0.61493	94.4635
!
!				Infineon Technologies AG
