! Infineon Technologies  Discrete & RF Semiconductors
! BAT17-07
! VCA = 0.5 V
! One-Port S-Parameters
# Hz  S  MA  R  50
!f									S11
!Hz							Mag  Ang
309850000		0.99796	-5.8613
409800000		0.99776	-7.7637
509750000		0.99718	-9.6738
609700000		0.99673	-11.642
709650000		0.99624	-13.5859
809600000		0.99558	-15.5225
909550000		0.9951	-17.6059
1009500000		0.99411	-19.634
1109450000		0.99259	-21.6796
1209400000		0.99189	-23.7087
1309350000		0.99015	-25.8325
1409300000		0.98813	-27.8917
1509250000		0.98564	-29.9939
1609200000		0.98404	-32.1052
1709150000		0.9797	-34.3065
1809100000		0.97454	-36.4362
1909050000		0.96903	-38.4481
2009000000		0.96305	-40.4457
2108950000		0.95527	-42.2379
2208900000		0.95183	-43.6624
2308850000		0.95657	-45.194
2408800000		0.96465	-47.1125
2508750000		0.96996	-49.3484
2608700000		0.97291	-51.5817
2708650000		0.97466	-53.8149
2808600000		0.9765	-56.1506
2908550000		0.97787	-58.3684
3008500000		0.97794	-60.6917
3108450000		0.97821	-63.0074
3208400000		0.97805	-65.4017
3308350000		0.97771	-67.7917
3408300000		0.97662	-70.1736
3508250000		0.97594	-72.6218
3608200000		0.97415	-75.1312
3708150000		0.97233	-77.6434
3808100000		0.96942	-80.139
3908050000		0.96748	-82.6854
4008000000		0.96464	-85.2732
4107950000		0.96237	-87.9471
4207900000		0.95898	-90.5623
4307850000		0.95616	-93.2528
4407800000		0.9531	-96.0092
4507750000		0.95056	-98.7226
4607700000		0.9473	-101.6084
4707650000		0.94548	-104.4285
4807600000		0.94279	-107.3006
4907550000		0.94152	-110.2479
5007500000		0.94014	-113.225
5107450000		0.93909	-116.2546
5207400000		0.93832	-119.3048
5307350000		0.93692	-122.3938
5407300000		0.93596	-125.4827
5507250000		0.93467	-128.5443
5607200000		0.93375	-131.6938
5707150000		0.93302	-134.6677
5807100000		0.9317	-137.7398
5907050000		0.93049	-140.7038
6007000000		0.92902	-143.7587
6106950000		0.92745	-146.6076
6206900000		0.92678	-149.4358
6306850000		0.92556	-152.1402
6406800000		0.92504	-154.8382
6506750000		0.92457	-157.4438
6606700000		0.92443	-159.9959
6706650000		0.92315	-162.495
6806600000		0.92296	-164.9349
6906550000		0.92242	-167.3673
7006500000		0.92282	-169.7783
7106450000		0.92287	-172.2042
7206400000		0.92261	-174.6065
7306350000		0.9218	-177.0224
!
!				Infineon Technologies AG
