! Infineon Technologies  Discrete & RF Semiconductors
! BAT17-07
! IAC = 0.6 mA
! One-Port S-Parameters
# Hz  S  MA  R  50
!f									S11
!Hz							Mag  Ang
309850000		0.07808	-20.9144
409800000		0.07675	-24.516
509750000		0.07309	-30.8121
609700000		0.07209	-38.7544
709650000		0.07326	-43.6295
809600000		0.07222	-49.4095
909550000		0.07624	-54.3926
1009500000		0.0756	-61.0472
1109450000		0.07983	-65.3535
1209400000		0.07736	-70.6802
1309350000		0.08333	-77.3807
1409300000		0.08599	-82.9298
1509250000		0.08941	-91.3273
1609200000		0.09382	-96.8154
1709150000		0.0991	-100.5496
1809100000		0.10458	-107.568
1909050000		0.1066	-115.0719
2009000000		0.11132	-121.7553
2108950000		0.11971	-124.8943
2208900000		0.12621	-129.8114
2308850000		0.13226	-134.5184
2408800000		0.13762	-138.0558
2508750000		0.14567	-140.7166
2608700000		0.15358	-144.7967
2708650000		0.16047	-148.6128
2808600000		0.17081	-152.0657
2908550000		0.17823	-155.4077
3008500000		0.1897	-160.0728
3108450000		0.19818	-163.5205
3208400000		0.20701	-167.0137
3308350000		0.21602	-169.7344
3408300000		0.22496	-172.9568
3508250000		0.23553	-175.8197
3608200000		0.24453	-179.7256
3708150000		0.2558	177.2701
3808100000		0.2649	174.2832
3908050000		0.27592	171.4268
4008000000		0.28678	168.1205
4107950000		0.29808	165.26
4207900000		0.30915	163.145
4307850000		0.3208	160.8371
4407800000		0.33299	157.9394
4507750000		0.34371	155.3718
4607700000		0.35589	152.8247
4707650000		0.36764	150.9733
4807600000		0.37936	148.7094
4907550000		0.39173	146.7481
5007500000		0.40382	144.5778
5107450000		0.41543	142.0048
5207400000		0.42753	140.3242
5307350000		0.43941	138.6498
5407300000		0.45076	136.8775
5507250000		0.46129	134.6189
5607200000		0.47277	132.8446
5707150000		0.4828	131.1134
5807100000		0.49354	129.6029
5907050000		0.50286	127.7391
6007000000		0.51349	126.4479
6106950000		0.52281	125.0808
6206900000		0.53261	123.6314
6306850000		0.54077	122.1022
6406800000		0.54969	120.6175
6506750000		0.55784	119.2039
6606700000		0.56575	117.7036
6706650000		0.57354	116.2483
6806600000		0.58092	114.8828
6906550000		0.58775	113.2309
7006500000		0.59465	111.7718
7106450000		0.60112	110.2521
7206400000		0.60698	108.6609
7306350000		0.61157	107.0155
!
!				Infineon Technologies AG
