! Infineon Technologies  Discrete & RF Semiconductors
! BAT17-07
! IAC = 3 mA
! One-Port S-Parameters
# Hz  S  MA  R  50
!f									S11
!Hz							Mag  Ang
309850000		0.61687	174.0988
409800000		0.61699	172.2288
509750000		0.61754	170.4309
609700000		0.61788	168.6237
709650000		0.61779	166.8889
809600000		0.61747	165.0803
909550000		0.61808	163.4146
1009500000		0.61865	161.6878
1109450000		0.61929	160.0043
1209400000		0.62004	158.2849
1309350000		0.62059	156.6358
1409300000		0.6214	154.9003
1509250000		0.62285	153.3225
1609200000		0.62464	151.6118
1709150000		0.62687	149.9954
1809100000		0.62839	148.3706
1909050000		0.63024	146.7995
2009000000		0.63259	145.1344
2108950000		0.63446	143.5083
2208900000		0.63621	141.8856
2308850000		0.63803	140.3383
2408800000		0.64054	138.6944
2508750000		0.64217	137.1496
2608700000		0.64441	135.49
2708650000		0.64571	133.9497
2808600000		0.64816	132.4115
2908550000		0.64946	130.8383
3008500000		0.65258	129.3199
3108450000		0.65401	127.8775
3208400000		0.65683	126.3115
3308350000		0.65832	124.9001
3408300000		0.66093	123.4826
3508250000		0.66313	122.0642
3608200000		0.66656	120.6136
3708150000		0.66891	119.3372
3808100000		0.67169	117.9405
3908050000		0.67466	116.6141
4008000000		0.67883	115.262
4107950000		0.68193	113.991
4207900000		0.68559	112.6331
4307850000		0.68919	111.3555
4407800000		0.69337	110.1173
4507750000		0.69672	108.8127
4607700000		0.70091	107.5815
4707650000		0.70395	106.3363
4807600000		0.70784	105.1586
4907550000		0.71115	103.9875
5007500000		0.71422	102.865
5107450000		0.7174	101.6477
5207400000		0.71976	100.5595
5307350000		0.7222	99.5136
5407300000		0.7245	98.4887
5507250000		0.72709	97.3774
5607200000		0.72952	96.4937
5707150000		0.73113	95.4195
5807100000		0.73315	94.5075
5907050000		0.73482	93.4846
6007000000		0.73672	92.6462
6106950000		0.73819	91.7699
6206900000		0.74041	90.8693
6306850000		0.74152	89.9066
6406800000		0.74348	88.9954
6506750000		0.74445	88.0446
6606700000		0.74546	87.0008
6706650000		0.74702	86.0496
6806600000		0.74733	84.9964
6906550000		0.74839	83.9157
7006500000		0.74829	82.7452
7106450000		0.7482	81.5761
7206400000		0.74804	80.3758
7306350000		0.74703	79.1463
!
!				Infineon Technologies AG
