! Infineon Technologies  Discrete & RF Semiconductors
! BAT17-07
! VCA = 0.4 V
! One-Port S-Parameters
# Hz  S  MA  R  50
!f									S11
!Hz							Mag  Ang
309850000		0.99793	-5.9928
409800000		0.99774	-7.9375
509750000		0.99719	-9.8888
609700000		0.9967	-11.9004
709650000		0.99625	-13.8868
809600000		0.99558	-15.8675
909550000		0.99501	-17.9963
1009500000		0.99402	-20.0676
1109450000		0.99255	-22.1567
1209400000		0.99173	-24.2307
1309350000		0.98994	-26.3994
1409300000		0.98789	-28.5049
1509250000		0.98544	-30.6471
1609200000		0.98382	-32.8082
1709150000		0.97945	-35.0521
1809100000		0.97423	-37.2279
1909050000		0.96876	-39.2865
2009000000		0.96276	-41.33
2108950000		0.9551	-43.1679
2208900000		0.9516	-44.6403
2308850000		0.9563	-46.2217
2408800000		0.96433	-48.193
2508750000		0.96969	-50.4786
2608700000		0.97256	-52.7633
2708650000		0.97418	-55.0434
2808600000		0.97598	-57.4315
2908550000		0.97741	-59.7009
3008500000		0.97738	-62.0764
3108450000		0.97775	-64.4801
3208400000		0.97734	-66.8962
3308350000		0.97694	-69.3388
3408300000		0.97571	-71.775
3508250000		0.97496	-74.2774
3608200000		0.9731	-76.8437
3708150000		0.97119	-79.41
3808100000		0.9682	-81.9636
3908050000		0.96617	-84.5658
4008000000		0.96321	-87.2078
4107950000		0.96092	-89.9362
4207900000		0.95754	-92.6064
4307850000		0.95459	-95.3553
4407800000		0.9515	-98.163
4507750000		0.94898	-100.9296
4607700000		0.94572	-103.8696
4707650000		0.94385	-106.7432
4807600000		0.94127	-109.6671
4907550000		0.94	-112.6661
5007500000		0.93869	-115.6885
5107450000		0.93769	-118.7627
5207400000		0.93689	-121.8563
5307350000		0.93546	-124.9827
5407300000		0.93458	-128.1007
5507250000		0.93332	-131.1952
5607200000		0.93239	-134.3685
5707150000		0.93167	-137.3676
5807100000		0.93036	-140.4554
5907050000		0.92916	-143.4361
6007000000		0.92768	-146.4983
6106950000		0.92608	-149.3531
6206900000		0.92559	-152.1816
6306850000		0.92434	-154.8887
6406800000		0.92383	-157.5838
6506750000		0.92334	-160.1897
6606700000		0.92331	-162.7456
6706650000		0.92212	-165.2409
6806600000		0.92187	-167.681
6906550000		0.92139	-170.1169
7006500000		0.92177	-172.5336
7106450000		0.92181	-174.9665
7206400000		0.92155	-177.375
7306350000		0.92075	-179.8007
!
!				Infineon Technologies AG
