! Infineon Technologies  Discrete & RF Semiconductors
! BAT17-07
! IAC = 0.7 mA
! One-Port S-Parameters
# Hz  S  MA  R  50
!f									S11
!Hz							Mag  Ang
309850000		0.01984	-124.2722
409800000		0.02226	-128.9847
509750000		0.0281	-135.8984
609700000		0.03496	-137.4239
709650000		0.0382	-137.3738
809600000		0.0421	-139.4879
909550000		0.04595	-137.4548
1009500000		0.05168	-141.6017
1109450000		0.05553	-140.7369
1209400000		0.059	-145.4861
1309350000		0.06611	-144.3428
1409300000		0.07139	-146.1824
1509250000		0.08059	-149.2997
1609200000		0.08705	-151.1512
1709150000		0.09271	-152.4327
1809100000		0.10195	-155.2689
1909050000		0.11002	-159.7485
2009000000		0.11852	-162.9671
2108950000		0.12596	-163.7785
2208900000		0.13413	-166.0092
2308850000		0.14195	-168.4714
2408800000		0.14791	-170.4099
2508750000		0.15515	-171.5514
2608700000		0.16386	-173.8543
2708650000		0.1715	-176.0428
2808600000		0.18181	-178.0253
2908550000		0.18936	-179.9965
3008500000		0.2022	177.1196
3108450000		0.21096	174.9082
3208400000		0.22053	172.3141
3308350000		0.22906	170.5625
3408300000		0.23837	168.3654
3508250000		0.24843	166.5017
3608200000		0.25872	163.4161
3708150000		0.26978	161.3718
3808100000		0.27904	159.1606
3908050000		0.28984	157.1473
4008000000		0.30109	154.6062
4107950000		0.31235	152.427
4207900000		0.32256	150.7357
4307850000		0.33361	148.9253
4407800000		0.34581	146.6977
4507750000		0.35626	144.6633
4607700000		0.36813	142.6243
4707650000		0.37886	141.0877
4807600000		0.39019	139.2911
4907550000		0.40162	137.7089
5007500000		0.41303	135.9648
5107450000		0.42448	133.781
5207400000		0.43541	132.4225
5307350000		0.44622	131.0497
5407300000		0.45673	129.5791
5507250000		0.46696	127.6377
5607200000		0.47768	126.1834
5707150000		0.48706	124.6591
5807100000		0.49689	123.3882
5907050000		0.50573	121.774
6007000000		0.51535	120.688
6106950000		0.52382	119.5079
6206900000		0.53291	118.2452
6306850000		0.54053	116.9116
6406800000		0.5489	115.6084
6506750000		0.55642	114.3555
6606700000		0.56372	113.0112
6706650000		0.5711	111.7124
6806600000		0.57778	110.4762
6906550000		0.58433	108.97
7006500000		0.59057	107.6242
7106450000		0.59652	106.2246
7206400000		0.60195	104.7448
7306350000		0.60621	103.2107
!
!				Infineon Technologies AG
