! Infineon Technologies  Discrete & RF Semiconductors
! BAT17-07
! IAC = 0.5 mA
! One-Port S-Parameters
# Hz  S  MA  R  50
!f									S11
!Hz							Mag  Ang
309850000		0.1762	-13.5011
409800000		0.17506	-16.1914
509750000		0.1705	-20.0254
609700000		0.16803	-24.7331
709650000		0.16848	-28.1885
809600000		0.16475	-31.9136
909550000		0.16801	-35.8382
1009500000		0.16596	-39.882
1109450000		0.16967	-43.5112
1209400000		0.16465	-46.7425
1309350000		0.16716	-52.1109
1409300000		0.16719	-56.3586
1509250000		0.16547	-62.3017
1609200000		0.16702	-66.9793
1709150000		0.17191	-70.5671
1809100000		0.17224	-76.4912
1909050000		0.16776	-82.0636
2009000000		0.16609	-88.0067
2108950000		0.17334	-92.2369
2208900000		0.17519	-97.538
2308850000		0.17701	-102.4881
2408800000		0.17959	-106.6627
2508750000		0.18661	-110.4489
2608700000		0.19146	-115.3105
2708650000		0.19514	-119.9189
2808600000		0.20376	-124.4304
2908550000		0.20868	-128.7414
3008500000		0.21591	-134.4963
3108450000		0.22197	-138.9017
3208400000		0.22897	-143.0361
3308350000		0.23666	-146.8007
3408300000		0.2432	-151.0428
3508250000		0.25242	-154.9262
3608200000		0.25891	-159.3859
3708150000		0.26844	-163.4688
3808100000		0.27581	-167.3026
3908050000		0.28533	-171.1299
4008000000		0.29431	-175.2601
4107950000		0.30441	-178.8905
4207900000		0.31584	178.4048
4307850000		0.32733	175.4606
4407800000		0.33819	171.7785
4507750000		0.34819	168.5453
4607700000		0.35976	165.3685
4707650000		0.3723	163.0761
4807600000		0.38366	160.2066
4907550000		0.39637	157.725
5007500000		0.4084	155.0042
5107450000		0.41954	151.9794
5207400000		0.43239	149.8337
5307350000		0.44497	147.7396
5407300000		0.45679	145.5643
5507250000		0.46708	142.9268
5607200000		0.47879	140.8056
5707150000		0.48937	138.7441
5807100000		0.50074	136.906
5907050000		0.5101	134.7242
6007000000		0.52154	133.1545
6106950000		0.5315	131.5392
6206900000		0.54183	129.8469
6306850000		0.55018	128.0674
6406800000		0.5594	126.3505
6506750000		0.56802	124.7383
6606700000		0.57623	123.0389
6706650000		0.58427	121.3893
6806600000		0.59215	119.8477
6906550000		0.59908	118.0282
7006500000		0.60645	116.4243
7106450000		0.61324	114.7513
7206400000		0.61941	113.0232
7306350000		0.62419	111.2475
!
!				Infineon Technologies AG
