! Infineon Technologies  Discrete & RF Semiconductors
! BAT17-07
! IAC = 0.2 mA
! One-Port S-Parameters
# Hz  S  MA  R  50
!f									S11
!Hz							Mag  Ang
309850000		0.58832	-9.0132
409800000		0.58942	-11.4509
509750000		0.58523	-14.1928
609700000		0.58372	-17.1378
709650000		0.58454	-19.7794
809600000		0.57587	-22.5326
909550000		0.57815	-25.3962
1009500000		0.57907	-28.1684
1109450000		0.58327	-30.9475
1209400000		0.57562	-33.5615
1309350000		0.57357	-36.8671
1409300000		0.57059	-39.835
1509250000		0.56572	-43.1474
1609200000		0.56486	-46.2606
1709150000		0.57295	-49.0473
1809100000		0.56858	-52.4774
1909050000		0.55946	-55.5749
2009000000		0.5502	-58.9625
2108950000		0.55638	-62.1065
2208900000		0.55084	-65.4178
2308850000		0.54753	-68.6191
2408800000		0.54388	-71.8827
2508750000		0.54885	-75.0888
2608700000		0.54889	-78.5851
2708650000		0.54538	-82.0989
2808600000		0.55183	-85.6861
2908550000		0.54875	-89.3136
3008500000		0.54696	-93.4722
3108450000		0.54513	-97.2555
3208400000		0.55026	-100.6754
3308350000		0.54994	-104.4674
3408300000		0.54625	-108.4049
3508250000		0.54676	-112.3642
3608200000		0.54863	-116.1582
3708150000		0.54708	-120.3156
3808100000		0.5438	-124.3619
3908050000		0.54172	-128.5815
4008000000		0.54009	-132.8464
4107950000		0.5418	-136.8863
4207900000		0.5495	-140.458
4307850000		0.5555	-144.1995
4407800000		0.55502	-148.539
4507750000		0.55552	-152.6519
4607700000		0.55919	-156.7178
4707650000		0.56995	-160.0712
4807600000		0.57292	-164.0756
4907550000		0.5804	-167.7681
5007500000		0.5851	-171.6605
5107450000		0.5906	-175.4883
5207400000		0.59879	-178.9998
5307350000		0.60748	177.6412
5407300000		0.6151	174.3198
5507250000		0.62001	170.7602
5607200000		0.62757	167.545
5707150000		0.63552	164.5456
5807100000		0.64362	161.6074
5907050000		0.64853	158.4834
6007000000		0.65773	155.8435
6106950000		0.66559	153.3291
6206900000		0.6739	150.7994
6306850000		0.67873	148.1802
6406800000		0.68521	145.6812
6506750000		0.69194	143.3537
6606700000		0.6982	140.9775
6706650000		0.70363	138.6611
6806600000		0.71005	136.4805
6906550000		0.71473	134.1243
7006500000		0.72133	131.977
7106450000		0.7265	129.7415
7206400000		0.73147	127.5412
7306350000		0.73451	125.29
!
!				Infineon Technologies AG
