! Infineon Technologies  Discrete & RF Semiconductors
! BAT17-07
! VCA = 0.3 V
! One-Port S-Parameters
# Hz  S  MA  R  50
!f									S11
!Hz							Mag  Ang
309850000		0.99795	-6.1477
409800000		0.99769	-8.1434
509750000		0.99713	-10.1496
609700000		0.99666	-12.2119
709650000		0.99617	-14.251
809600000		0.99544	-16.2812
909550000		0.99491	-18.4636
1009500000		0.99387	-20.5878
1109450000		0.99238	-22.7304
1209400000		0.99157	-24.8587
1309350000		0.98976	-27.0779
1409300000		0.98762	-29.2383
1509250000		0.98514	-31.4353
1609200000		0.98342	-33.6502
1709150000		0.97907	-35.9504
1809100000		0.97387	-38.1776
1909050000		0.96832	-40.2898
2009000000		0.96236	-42.3875
2108950000		0.95467	-44.2829
2208900000		0.95117	-45.8141
2308850000		0.95595	-47.4542
2408800000		0.96394	-49.4856
2508750000		0.96919	-51.833
2608700000		0.97203	-54.1781
2708650000		0.9738	-56.5496
2808600000		0.97533	-58.9671
2908550000		0.97668	-61.2966
3008500000		0.97665	-63.7361
3108450000		0.97695	-66.2001
3208400000		0.97642	-68.6829
3308350000		0.97589	-71.1891
3408300000		0.97459	-73.692
3508250000		0.97374	-76.2556
3608200000		0.97172	-78.8901
3708150000		0.96973	-81.5189
3808100000		0.96664	-84.1379
3908050000		0.96453	-86.8049
4008000000		0.96153	-89.5145
4107950000		0.9591	-92.3065
4207900000		0.95562	-95.0407
4307850000		0.95268	-97.8565
4407800000		0.94962	-100.724
4507750000		0.94706	-103.5535
4607700000		0.94376	-106.5551
4707650000		0.94193	-109.4893
4807600000		0.93936	-112.4699
4907550000		0.93816	-115.5246
5007500000		0.93686	-118.5951
5107450000		0.93589	-121.7224
5207400000		0.93513	-124.8622
5307350000		0.93371	-128.0278
5407300000		0.93282	-131.1798
5507250000		0.93164	-134.3083
5607200000		0.9307	-137.5063
5707150000		0.93002	-140.526
5807100000		0.92876	-143.6307
5907050000		0.92761	-146.6262
6007000000		0.92613	-149.6939
6106950000		0.92458	-152.5504
6206900000		0.92413	-155.378
6306850000		0.92285	-158.0865
6406800000		0.92245	-160.7777
6506750000		0.92202	-163.3798
6606700000		0.92193	-165.9317
6706650000		0.9208	-168.4227
6806600000		0.92065	-170.8607
6906550000		0.9202	-173.2949
7006500000		0.92054	-175.7167
7106450000		0.92057	-178.1523
7206400000		0.92038	179.4306
7306350000		0.91949	176.9975
!
!				Infineon Technologies AG
