! Infineon Technologies  Discrete & RF Semiconductors
! BAT17-07
! IAC = 0.8 mA
! One-Port S-Parameters
# Hz  S  MA  R  50
!f									S11
!Hz							Mag  Ang
309850000		0.0836	-175.5485
409800000		0.08602	-176.7906
509750000		0.09133	-177.3182
609700000		0.09593	-176.8124
709650000		0.09756	-177.1612
809600000		0.09974	-177.7422
909550000		0.101	-177.3255
1009500000		0.10643	-178.2874
1109450000		0.1082	-178.1849
1209400000		0.11207	179.9572
1309350000		0.11537	-178.892
1409300000		0.11924	-179.5109
1509250000		0.12696	-179.9085
1609200000		0.13212	179.4019
1709150000		0.13705	178.6732
1809100000		0.14498	177.8027
1909050000		0.1534	175.7809
2009000000		0.16112	174.3207
2108950000		0.16693	173.8234
2208900000		0.17391	172.7057
2308850000		0.18107	171.3193
2408800000		0.18621	170
2508750000		0.19208	169.224
2608700000		0.19994	167.7484
2708650000		0.20674	166.3338
2808600000		0.21598	164.9964
2908550000		0.22248	163.6336
3008500000		0.23459	161.8049
3108450000		0.24256	160.2345
3208400000		0.25185	158.2193
3308350000		0.25923	156.9231
3408300000		0.26775	155.3261
3508250000		0.27661	153.9549
3608200000		0.28716	151.4897
3708150000		0.29711	149.9854
3808100000		0.30572	148.248
3908050000		0.31556	146.73
4008000000		0.32634	144.7024
4107950000		0.33691	142.963
4207900000		0.34622	141.5034
4307850000		0.35639	139.9959
4407800000		0.36786	138.2157
4507750000		0.37761	136.5269
4607700000		0.38865	134.8637
4707650000		0.39847	133.4766
4807600000		0.40898	131.9879
4907550000		0.41935	130.6451
5007500000		0.42982	129.1857
5107450000		0.44077	127.2931
5207400000		0.45046	126.1317
5307350000		0.46007	124.951
5407300000		0.46961	123.6825
5507250000		0.47936	121.9852
5607200000		0.48919	120.7352
5707150000		0.4977	119.3797
5807100000		0.50659	118.2702
5907050000		0.51479	116.8447
6007000000		0.52334	115.8935
6106950000		0.53096	114.841
6206900000		0.53931	113.7148
6306850000		0.54621	112.5215
6406800000		0.55394	111.3557
6506750000		0.56078	110.2175
6606700000		0.56737	108.986
6706650000		0.57419	107.8092
6806600000		0.58015	106.6689
6906550000		0.5863	105.2758
7006500000		0.59186	104.0113
7106450000		0.59722	102.7071
7206400000		0.60214	101.3109
7306350000		0.606	99.8641
!
!				Infineon Technologies AG
