! Infineon Technologies  Discrete & RF Semiconductors
! BAT17-07
! VCA = 3 V
! One-Port S-Parameters
# Hz  S  MA  R  50
!f									S11
!Hz							Mag  Ang
309850000		0.99793	-4.9201
409800000		0.99776	-6.5225
509750000		0.9972	-8.1241
609700000		0.99687	-9.7861
709650000		0.99645	-11.4177
809600000		0.99587	-13.0421
909550000		0.99549	-14.8071
1009500000		0.9947	-16.5225
1109450000		0.99341	-18.252
1209400000		0.99277	-19.9602
1309350000		0.99115	-21.7627
1409300000		0.98944	-23.5012
1509250000		0.98704	-25.2789
1609200000		0.98564	-27.0626
1709150000		0.98152	-28.9325
1809100000		0.97652	-30.7392
1909050000		0.97109	-32.426
2009000000		0.96513	-34.0883
2108950000		0.95729	-35.5453
2208900000		0.95374	-36.6162
2308850000		0.9583	-37.7597
2408800000		0.96663	-39.3346
2508750000		0.97211	-41.2145
2608700000		0.97537	-43.0742
2708650000		0.97731	-44.9409
2808600000		0.97942	-46.8879
2908550000		0.98102	-48.7414
3008500000		0.9814	-50.6521
3108450000		0.98221	-52.6209
3208400000		0.98239	-54.5656
3308350000		0.98248	-56.5531
3408300000		0.982	-58.516
3508250000		0.98182	-60.5685
3608200000		0.98083	-62.6379
3708150000		0.97956	-64.7356
3808100000		0.9773	-66.8011
3908050000		0.97583	-68.92
4008000000		0.97358	-71.0708
4107950000		0.9719	-73.3087
4207900000		0.969	-75.4787
4307850000		0.96654	-77.7196
4407800000		0.96376	-80.0442
4507750000		0.96151	-82.3037
4607700000		0.95842	-84.7417
4707650000		0.95656	-87.1074
4807600000		0.95364	-89.5477
4907550000		0.95226	-92.0549
5007500000		0.95068	-94.6201
5107450000		0.94956	-97.2273
5207400000		0.94863	-99.8743
5307350000		0.94708	-102.5878
5407300000		0.94607	-105.3436
5507250000		0.9447	-108.0603
5607200000		0.94365	-110.9234
5707150000		0.94275	-113.6268
5807100000		0.94132	-116.4579
5907050000		0.94028	-119.1931
6007000000		0.9387	-122.0667
6106950000		0.9372	-124.7678
6206900000		0.93596	-127.4872
6306850000		0.93485	-130.0792
6406800000		0.93392	-132.6848
6506750000		0.93342	-135.2127
6606700000		0.93312	-137.6785
6706650000		0.93143	-140.1237
6806600000		0.93117	-142.4855
6906550000		0.93035	-144.8379
7006500000		0.93062	-147.1262
7106450000		0.9307	-149.4338
7206400000		0.93032	-151.7044
7306350000		0.92985	-153.9858
!
!				Infineon Technologies AG
