! Infineon Technologies  Discrete & RF Semiconductors
! BAT17-07
! VCA = 0.1 V
! One-Port S-Parameters
# Hz  S  MA  R  50
!f									S11
!Hz							Mag  Ang
309850000		0.99796	-6.5816
409800000		0.99765	-8.7201
509750000		0.99684	-10.8362
609700000		0.99656	-13.0732
709650000		0.99597	-15.2585
809600000		0.99524	-17.4346
909550000		0.99461	-19.7618
1009500000		0.99349	-22.0306
1109450000		0.99191	-24.3191
1209400000		0.99098	-26.5953
1309350000		0.98908	-28.9627
1409300000		0.98693	-31.2702
1509250000		0.98429	-33.6124
1609200000		0.98253	-35.9782
1709150000		0.97805	-38.4307
1809100000		0.97274	-40.8053
1909050000		0.96732	-43.0652
2009000000		0.96134	-45.3194
2108950000		0.95364	-47.3753
2208900000		0.95002	-49.0758
2308850000		0.95462	-50.8724
2408800000		0.96222	-53.0256
2508750000		0.9675	-55.5612
2608700000		0.97026	-58.0734
2708650000		0.9719	-60.6101
2808600000		0.97332	-63.1941
2908550000		0.97434	-65.6446
3008500000		0.97437	-68.3032
3108450000		0.97426	-70.8982
3208400000		0.97361	-73.592
3308350000		0.97278	-76.2681
3408300000		0.97128	-78.9463
3508250000		0.9702	-81.6733
3608200000		0.96773	-84.489
3708150000		0.96551	-87.2841
3808100000		0.96212	-90.0716
3908050000		0.95982	-92.9089
4008000000		0.95654	-95.7864
4107950000		0.95394	-98.7418
4207900000		0.95031	-101.6436
4307850000		0.94729	-104.6243
4407800000		0.94411	-107.6434
4507750000		0.94151	-110.6329
4607700000		0.93832	-113.783
4707650000		0.93655	-116.871
4807600000		0.93423	-119.9868
4907550000		0.93311	-123.1751
5007500000		0.93201	-126.3621
5107450000		0.93107	-129.6056
5207400000		0.93043	-132.8468
5307350000		0.92917	-136.1001
5407300000		0.92838	-139.3172
5507250000		0.9272	-142.5174
5607200000		0.92648	-145.7518
5707150000		0.92588	-148.8136
5807100000		0.92463	-151.9332
5907050000		0.92344	-154.9471
6007000000		0.92213	-158.0101
6106950000		0.92059	-160.8564
6206900000		0.92043	-163.6605
6306850000		0.91919	-166.3511
6406800000		0.91888	-169.0193
6506750000		0.9185	-171.5951
6606700000		0.91851	-174.1272
6706650000		0.91756	-176.5901
6806600000		0.91737	-179.0147
6906550000		0.91697	178.5709
7006500000		0.91736	176.1467
7106450000		0.91732	173.7102
7206400000		0.91714	171.288
7306350000		0.91612	168.852
!
!				Infineon Technologies AG
