! Infineon Technologies  Discrete & RF Semiconductors
! BAT17-07
! VCA = 0.8 V
! One-Port S-Parameters
# Hz  S  MA  R  50
!f									S11
!Hz							Mag  Ang
309850000		0.99795	-5.5744
409800000		0.99776	-7.3856
509750000		0.99721	-9.2018
609700000		0.99684	-11.0752
709650000		0.99633	-12.924
809600000		0.9957	-14.7652
909550000		0.99527	-16.754
1009500000		0.99432	-18.6827
1109450000		0.99294	-20.634
1209400000		0.9922	-22.5655
1309350000		0.99049	-24.5918
1409300000		0.98863	-26.5526
1509250000		0.98615	-28.5567
1609200000		0.98461	-30.5694
1709150000		0.98034	-32.6698
1809100000		0.97519	-34.7026
1909050000		0.96976	-36.6133
2009000000		0.96377	-38.5085
2108950000		0.956	-40.1998
2208900000		0.9525	-41.5167
2308850000		0.95712	-42.9072
2408800000		0.9654	-44.7443
2508750000		0.97076	-46.8718
2608700000		0.97383	-48.9934
2708650000		0.97582	-51.1505
2808600000		0.9775	-53.3321
2908550000		0.97902	-55.4408
3008500000		0.97918	-57.6392
3108450000		0.97977	-59.8751
3208400000		0.97963	-62.1113
3308350000		0.97938	-64.3795
3408300000		0.97836	-66.6072
3508250000		0.97797	-68.97
3608200000		0.97643	-71.3522
3708150000		0.97472	-73.739
3808100000		0.97205	-76.109
3908050000		0.97027	-78.533
4008000000		0.96756	-80.9926
4107950000		0.96545	-83.5391
4207900000		0.96227	-86.0239
4307850000		0.95952	-88.5881
4407800000		0.95652	-91.2194
4507750000		0.95408	-93.8045
4607700000		0.95087	-96.5669
4707650000		0.94897	-99.2599
4807600000		0.94624	-102.0149
4907550000		0.94488	-104.8413
5007500000		0.94343	-107.7111
5107450000		0.94237	-110.6262
5207400000		0.9415	-113.5715
5307350000		0.94001	-116.5663
5407300000		0.93906	-119.5723
5507250000		0.93777	-122.5503
5607200000		0.93677	-125.6361
5707150000		0.93594	-128.549
5807100000		0.93462	-131.569
5907050000		0.93346	-134.4849
6007000000		0.9319	-137.508
6106950000		0.93036	-140.3333
6206900000		0.9295	-143.1461
6306850000		0.92829	-145.8351
6406800000		0.92764	-148.5222
6506750000		0.92714	-151.1218
6606700000		0.92697	-153.6644
6706650000		0.9256	-156.1629
6806600000		0.92538	-158.5927
6906550000		0.92474	-161.0156
7006500000		0.92512	-163.4048
7106450000		0.92517	-165.8088
7206400000		0.9249	-168.1879
7306350000		0.92422	-170.5784
!
!				Infineon Technologies AG
