! Infineon Technologies  Discrete & RF Semiconductors
! BAT17-07
! VCA = 0.7 V
! One-Port S-Parameters
# Hz  S  MA  R  50
!f									S11
!Hz							Mag  Ang
309850000		0.99799	-5.6586
409800000		0.99779	-7.4898
509750000		0.99726	-9.3339
609700000		0.99679	-11.2378
709650000		0.99629	-13.1127
809600000		0.99562	-14.9819
909550000		0.99516	-16.9962
1009500000		0.99421	-18.9543
1109450000		0.99281	-20.9318
1209400000		0.99206	-22.8904
1309350000		0.99035	-24.9442
1409300000		0.98843	-26.9368
1509250000		0.98596	-28.9662
1609200000		0.98444	-31.0073
1709150000		0.98014	-33.1335
1809100000		0.975	-35.1937
1909050000		0.96957	-37.1371
2009000000		0.96352	-39.0618
2108950000		0.95579	-40.7792
2208900000		0.95232	-42.1275
2308850000		0.95704	-43.5847
2408800000		0.96516	-45.418
2508750000		0.97059	-47.5789
2608700000		0.97358	-49.7312
2708650000		0.9755	-51.9208
2808600000		0.97706	-54.1028
2908550000		0.97878	-56.2761
3008500000		0.97883	-58.5097
3108450000		0.97938	-60.7823
3208400000		0.979	-63.0192
3308350000		0.97889	-65.3553
3408300000		0.97787	-67.6153
3508250000		0.97736	-70.0138
3608200000		0.97567	-72.4001
3708150000		0.97407	-74.8552
3808100000		0.97136	-77.2608
3908050000		0.96951	-79.7213
4008000000		0.96668	-82.2174
4107950000		0.96462	-84.8019
4207900000		0.96138	-87.3215
4307850000		0.95858	-89.9241
4407800000		0.9555	-92.5947
4507750000		0.9531	-95.2151
4607700000		0.94988	-98.0131
4707650000		0.94797	-100.7438
4807600000		0.94526	-103.5316
4907550000		0.9439	-106.3963
5007500000		0.94249	-109.2972
5107450000		0.94147	-112.246
5207400000		0.9406	-115.2231
5307350000		0.93912	-118.2472
5407300000		0.93817	-121.2785
5507250000		0.9369	-124.2813
5607200000		0.93593	-127.388
5707150000		0.93511	-130.3193
5807100000		0.93376	-133.3585
5907050000		0.93259	-136.2867
6007000000		0.93108	-139.3222
6106950000		0.92948	-142.155
6206900000		0.92876	-144.9762
6306850000		0.9275	-147.6705
6406800000		0.92687	-150.3611
6506750000		0.92641	-152.9626
6606700000		0.92626	-155.5114
6706650000		0.92493	-158.0099
6806600000		0.92469	-160.4425
6906550000		0.92407	-162.8735
7006500000		0.92449	-165.2669
7106450000		0.92449	-167.6789
7206400000		0.92423	-170.0656
7306350000		0.92356	-172.465
!
!				Infineon Technologies AG
