! Infineon Technologies  Discrete & RF Semiconductors
! BAT17-07
! VCA = 4 V
! One-Port S-Parameters
# Hz  S  MA  R  50
!f									S11
!Hz							Mag  Ang
309850000		0.9979	-4.8243
409800000		0.99772	-6.3914
509750000		0.99722	-7.9646
609700000		0.99689	-9.5909
709650000		0.99645	-11.1918
809600000		0.99591	-12.7849
909550000		0.99553	-14.518
1009500000		0.99474	-16.1983
1109450000		0.99345	-17.8962
1209400000		0.9928	-19.5709
1309350000		0.99123	-21.3413
1409300000		0.98955	-23.0457
1509250000		0.98716	-24.7911
1609200000		0.9858	-26.5386
1709150000		0.98165	-28.3738
1809100000		0.9767	-30.1459
1909050000		0.97126	-31.7996
2009000000		0.96537	-33.4297
2108950000		0.95748	-34.8508
2208900000		0.95375	-35.8517
2308850000		0.9586	-37.0268
2408800000		0.96666	-38.4914
2508750000		0.97236	-40.3693
2608700000		0.97556	-42.1913
2708650000		0.97771	-44.052
2808600000		0.97963	-45.9239
2908550000		0.98107	-47.7036
3008500000		0.98143	-49.5755
3108450000		0.98255	-51.5352
3208400000		0.98271	-53.4356
3308350000		0.98286	-55.3807
3408300000		0.98247	-57.3012
3508250000		0.98233	-59.3076
3608200000		0.9814	-61.3336
3708150000		0.98017	-63.3844
3808100000		0.978	-65.4024
3908050000		0.97655	-67.4724
4008000000		0.9744	-69.576
4107950000		0.97276	-71.7652
4207900000		0.96997	-73.8862
4307850000		0.9675	-76.0758
4407800000		0.9648	-78.3532
4507750000		0.96256	-80.5609
4607700000		0.95956	-82.9474
4707650000		0.95759	-85.2591
4807600000		0.95474	-87.6479
4907550000		0.95337	-90.103
5007500000		0.9518	-92.6193
5107450000		0.95061	-95.1726
5207400000		0.94965	-97.7676
5307350000		0.94817	-100.4328
5407300000		0.94712	-103.1463
5507250000		0.9457	-105.8146
5607200000		0.94473	-108.6338
5707150000		0.94379	-111.2977
5807100000		0.94237	-114.0915
5907050000		0.94128	-116.7882
6007000000		0.93971	-119.6338
6106950000		0.93824	-122.3066
6206900000		0.93691	-125.0025
6306850000		0.93582	-127.5713
6406800000		0.93485	-130.1572
6506750000		0.93433	-132.6686
6606700000		0.93403	-135.1138
6706650000		0.93231	-137.542
6806600000		0.93194	-139.8883
6906550000		0.93112	-142.2235
7006500000		0.93143	-144.4898
7106450000		0.93145	-146.7757
7206400000		0.93108	-149.023
7306350000		0.93066	-151.2821
!
!				Infineon Technologies AG
