! Infineon Technologies  Discrete & RF Semiconductors
! BAT17-07
! IAC = 0.1 mA
! One-Port S-Parameters
# Hz  S  MA  R  50
!f									S11
!Hz							Mag  Ang
309850000		0.77598	-8.2516
409800000		0.77724	-10.7191
509750000		0.77403	-13.3326
609700000		0.7736	-16.0657
709650000		0.77425	-18.6166
809600000		0.76684	-21.2345
909550000		0.76791	-23.9879
1009500000		0.7694	-26.6404
1109450000		0.77208	-29.3084
1209400000		0.76601	-31.9893
1309350000		0.76347	-34.9498
1409300000		0.76018	-37.7602
1509250000		0.75627	-40.7302
1609200000		0.75482	-43.6158
1709150000		0.76044	-46.3105
1809100000		0.75605	-49.3487
1909050000		0.74889	-52.2634
2009000000		0.74122	-55.372
2108950000		0.74492	-58.2081
2208900000		0.7395	-61.2108
2308850000		0.73687	-64.1761
2408800000		0.73316	-67.2846
2508750000		0.73723	-70.3275
2608700000		0.73704	-73.5349
2708650000		0.73348	-76.85
2808600000		0.7388	-80.0912
2908550000		0.73542	-83.5052
3008500000		0.73353	-87.2181
3108450000		0.73077	-90.7344
3208400000		0.73515	-94.0105
3308350000		0.73302	-97.5943
3408300000		0.72817	-101.349
3508250000		0.72665	-105.0644
3608200000		0.72749	-108.633
3708150000		0.72406	-112.5174
3808100000		0.71841	-116.4188
3908050000		0.71393	-120.4275
4008000000		0.71004	-124.4401
4107950000		0.70933	-128.3025
4207900000		0.71326	-131.7872
4307850000		0.7159	-135.4407
4407800000		0.71255	-139.5958
4507750000		0.70982	-143.6341
4607700000		0.71002	-147.6276
4707650000		0.71726	-151.0246
4807600000		0.71667	-155.0394
4907550000		0.72041	-158.8019
5007500000		0.72148	-162.7404
5107450000		0.7243	-166.5616
5207400000		0.72834	-170.2396
5307350000		0.73295	-173.7714
5407300000		0.73695	-177.2587
5507250000		0.73881	179.0782
5607200000		0.74288	175.6736
5707150000		0.74779	172.5046
5807100000		0.75215	169.333
5907050000		0.75403	166.0261
6007000000		0.75943	163.1243
6106950000		0.76406	160.3886
6206900000		0.76955	157.658
6306850000		0.77156	154.8307
6406800000		0.77541	152.1341
6506750000		0.77972	149.6222
6606700000		0.78373	147.0705
6706650000		0.78687	144.5803
6806600000		0.7911	142.22
6906550000		0.79407	139.7259
7006500000		0.79882	137.4163
7106450000		0.80208	135.0122
7206400000		0.80535	132.669
7306350000		0.80672	130.275
!
!				Infineon Technologies AG
