! Infineon Technologies  Discrete & RF Semiconductors
! BAT17-07
! IAC = 0.3 mA
! One-Port S-Parameters
# Hz  S  MA  R  50
!f									S11
!Hz							Mag  Ang
309850000		0.42842	-9.8663
409800000		0.42871	-12.2889
509750000		0.4241	-15.1976
609700000		0.4219	-18.4806
709650000		0.42253	-21.2405
809600000		0.41482	-24.1393
909550000		0.41779	-27.1844
1009500000		0.41732	-30.1224
1109450000		0.42167	-33.0158
1209400000		0.41418	-35.6062
1309350000		0.41328	-39.3378
1409300000		0.41118	-42.5492
1509250000		0.40631	-46.3164
1609200000		0.40599	-49.7228
1709150000		0.41356	-52.6337
1809100000		0.40979	-56.5256
1909050000		0.40068	-59.9879
2009000000		0.39238	-63.8135
2108950000		0.39909	-67.3011
2208900000		0.39488	-71.0467
2308850000		0.39211	-74.6062
2408800000		0.38988	-78.043
2508750000		0.39526	-81.5179
2608700000		0.39594	-85.4002
2708650000		0.39392	-89.2427
2808600000		0.40042	-93.1901
2908550000		0.39921	-97.1037
3008500000		0.39884	-101.7987
3108450000		0.39895	-105.9265
3208400000		0.40392	-109.6542
3308350000		0.40587	-113.5944
3408300000		0.40505	-117.8415
3508250000		0.40827	-122.0559
3608200000		0.41068	-126.1419
3708150000		0.41252	-130.6021
3808100000		0.41277	-134.8256
3908050000		0.41458	-139.246
4008000000		0.41631	-143.7639
4107950000		0.42084	-147.952
4207900000		0.43045	-151.4388
4307850000		0.43886	-155.1708
4407800000		0.44264	-159.6547
4507750000		0.44689	-163.704
4607700000		0.45387	-167.7266
4707650000		0.46611	-170.8836
4807600000		0.47286	-174.7436
4907550000		0.48324	-178.2142
5007500000		0.49141	178.0886
5107450000		0.49929	174.3732
5207400000		0.51047	171.1876
5307350000		0.52177	168.1493
5407300000		0.53188	165.1167
5507250000		0.53936	161.7666
5607200000		0.54936	158.8413
5707150000		0.5591	156.104
5807100000		0.56944	153.4897
5907050000		0.57675	150.6271
6007000000		0.58792	148.3274
6106950000		0.59749	146.0969
6206900000		0.60735	143.8302
6306850000		0.61421	141.4673
6406800000		0.62238	139.2091
6506750000		0.63054	137.1109
6606700000		0.63817	134.9473
6706650000		0.64515	132.8404
6806600000		0.65279	130.8696
6906550000		0.65871	128.6807
7006500000		0.66621	126.7173
7106450000		0.67246	124.6678
7206400000		0.67835	122.6245
7306350000		0.68243	120.5321
!
!				Infineon Technologies AG
