! Infineon Technologies  Discrete & RF Semiconductors
! BAT17-07
! VCA = 1 V
! One-Port S-Parameters
# Hz  S  MA  R  50
!f									S11
!Hz							Mag  Ang
309850000		0.9979	-5.4405
409800000		0.99771	-7.2092
509750000		0.99721	-8.9808
609700000		0.99677	-10.814
709650000		0.99636	-12.6183
809600000		0.99568	-14.4144
909550000		0.99525	-16.3547
1009500000		0.99437	-18.2436
1109450000		0.99297	-20.1473
1209400000		0.99225	-22.0337
1309350000		0.99058	-24.0134
1409300000		0.98873	-25.9314
1509250000		0.98634	-27.8884
1609200000		0.98484	-29.8554
1709150000		0.98057	-31.9056
1809100000		0.97548	-33.8912
1909050000		0.97004	-35.7597
2009000000		0.96402	-37.6092
2108950000		0.95628	-39.2486
2208900000		0.95283	-40.5156
2308850000		0.95751	-41.8927
2408800000		0.96565	-43.6409
2508750000		0.97113	-45.7175
2608700000		0.97419	-47.7853
2708650000		0.97617	-49.8897
2808600000		0.97779	-51.9861
2908550000		0.97954	-54.0758
3008500000		0.97966	-56.2162
3108450000		0.98031	-58.3998
3208400000		0.98004	-60.5448
3308350000		0.98006	-62.7883
3408300000		0.97923	-64.9894
3508250000		0.9788	-67.2644
3608200000		0.9774	-69.5809
3708150000		0.97578	-71.9112
3808100000		0.97319	-74.2216
3908050000		0.97144	-76.5812
4008000000		0.96885	-78.9816
4107950000		0.96688	-81.4674
4207900000		0.96375	-83.8919
4307850000		0.96103	-86.3934
4407800000		0.95804	-88.9664
4507750000		0.95566	-91.4861
4607700000		0.95247	-94.1863
4707650000		0.95054	-96.8151
4807600000		0.9478	-99.5085
4907550000		0.9464	-102.2779
5007500000		0.94493	-105.0906
5107450000		0.94387	-107.9495
5207400000		0.943	-110.8393
5307350000		0.94147	-113.7849
5407300000		0.94054	-116.7478
5507250000		0.93922	-119.6763
5607200000		0.93816	-122.7272
5707150000		0.93734	-125.6057
5807100000		0.93596	-128.5972
5907050000		0.93483	-131.4801
6007000000		0.93326	-134.4869
6106950000		0.93165	-137.2908
6206900000		0.93081	-140.0925
6306850000		0.92964	-142.7696
6406800000		0.9289	-145.4484
6506750000		0.92841	-148.0398
6606700000		0.92829	-150.5719
6706650000		0.9268	-153.065
6806600000		0.9265	-155.4881
6906550000		0.92586	-157.9026
7006500000		0.92624	-160.2757
7106450000		0.92631	-162.6666
7206400000		0.92596	-165.0293
7306350000		0.92538	-167.4019
!
!				Infineon Technologies AG
