! Infineon Technologies  Discrete & RF Semiconductors
! BAT17-07
! VCA = 0.6 V
! One-Port S-Parameters
# Hz  S  MA  R  50
!f									S11
!Hz							Mag  Ang
309850000		0.99824	-5.7829
409800000		0.99775	-7.6172
509750000		0.99721	-9.4924
609700000		0.99677	-11.424
709650000		0.99625	-13.33
809600000		0.99561	-15.2314
909550000		0.99513	-17.2775
1009500000		0.99423	-19.2662
1109450000		0.99278	-21.2766
1209400000		0.99196	-23.2676
1309350000		0.99024	-25.3547
1409300000		0.98832	-27.3773
1509250000		0.98585	-29.4387
1609200000		0.98429	-31.5143
1709150000		0.97995	-33.6756
1809100000		0.97482	-35.7689
1909050000		0.96934	-37.7426
2009000000		0.96336	-39.7026
2108950000		0.95558	-41.4548
2208900000		0.95209	-42.8356
2308850000		0.95688	-44.3282
2408800000		0.96496	-46.1992
2508750000		0.97035	-48.3953
2608700000		0.97332	-50.5862
2708650000		0.97528	-52.8126
2808600000		0.97694	-55.0655
2908550000		0.97841	-57.2423
3008500000		0.97848	-59.5172
3108450000		0.97897	-61.8264
3208400000		0.97868	-64.1362
3308350000		0.97822	-66.4458
3408300000		0.97736	-68.8173
3508250000		0.97672	-71.2217
3608200000		0.97509	-73.6804
3708150000		0.97318	-76.1148
3808100000		0.97039	-78.5603
3908050000		0.96862	-81.0933
4008000000		0.96576	-83.6343
4107950000		0.96361	-86.2583
4207900000		0.96034	-88.8232
4307850000		0.95749	-91.4671
4407800000		0.95438	-94.1772
4507750000		0.95198	-96.8397
4607700000		0.94875	-99.681
4707650000		0.94679	-102.4519
4807600000		0.94415	-105.2798
4907550000		0.94283	-108.1857
5007500000		0.94144	-111.1209
5107450000		0.94034	-114.1081
5207400000		0.93954	-117.12
5307350000		0.93811	-120.1757
5407300000		0.93717	-123.235
5507250000		0.93586	-126.2652
5607200000		0.93493	-129.3935
5707150000		0.93417	-132.3463
5807100000		0.93281	-135.4002
5907050000		0.93163	-138.3483
6007000000		0.93015	-141.3925
6106950000		0.92852	-144.2335
6206900000		0.92786	-147.0585
6306850000		0.92657	-149.758
6406800000		0.926	-152.4537
6506750000		0.92553	-155.059
6606700000		0.92545	-157.6074
6706650000		0.92407	-160.1085
6806600000		0.92386	-162.5455
6906550000		0.92331	-164.9764
7006500000		0.92373	-167.3788
7106450000		0.92372	-169.7991
7206400000		0.92348	-172.194
7306350000		0.92272	-174.5993
!
!				Infineon Technologies AG
