! Infineon Technologies  Discrete & RF Semiconductors
! BAT17-07
! VCA = 2 V
! One-Port S-Parameters
# Hz  S  MA  R  50
!f									S11
!Hz							Mag  Ang
309850000		0.99802	-5.0824
409800000		0.99781	-6.7364
509750000		0.99724	-8.3911
609700000		0.99685	-10.1042
709650000		0.99639	-11.7892
809600000		0.99581	-13.4684
909550000		0.99546	-15.2909
1009500000		0.99458	-17.056
1109450000		0.99326	-18.8413
1209400000		0.99264	-20.6061
1309350000		0.99101	-22.4633
1409300000		0.98925	-24.2571
1509250000		0.98684	-26.0902
1609200000		0.98524	-27.9007
1709150000		0.98125	-29.8584
1809100000		0.97623	-31.7199
1909050000		0.97075	-33.4654
2009000000		0.96482	-35.1851
2108950000		0.957	-36.6983
2208900000		0.95347	-37.8314
2308850000		0.95816	-39.0686
2408800000		0.96631	-40.6741
2508750000		0.97166	-42.5813
2608700000		0.975	-44.541
2708650000		0.97712	-46.5068
2808600000		0.97898	-48.4853
2908550000		0.98058	-50.404
3008500000		0.98071	-52.3532
3108450000		0.98145	-54.3858
3208400000		0.98182	-56.4386
3308350000		0.98181	-58.4988
3408300000		0.98121	-60.5344
3508250000		0.9809	-62.6557
3608200000		0.9798	-64.8059
3708150000		0.97843	-66.9763
3808100000		0.97612	-69.1179
3908050000		0.97437	-71.2817
4008000000		0.97221	-73.5438
4107950000		0.97042	-75.8628
4207900000		0.96744	-78.1128
4307850000		0.96475	-80.4047
4407800000		0.96209	-82.8401
4507750000		0.95977	-85.1837
4607700000		0.95663	-87.708
4707650000		0.95473	-90.1573
4807600000		0.95185	-92.6817
4907550000		0.9505	-95.2736
5007500000		0.94895	-97.9197
5107450000		0.94784	-100.6103
5207400000		0.94688	-103.3371
5307350000		0.94538	-106.1281
5407300000		0.94439	-108.9579
5507250000		0.94304	-111.7467
5607200000		0.94201	-114.6736
5707150000		0.94109	-117.4374
5807100000		0.93969	-120.3265
5907050000		0.9386	-123.1153
6007000000		0.93702	-126.0371
6106950000		0.9355	-128.7774
6206900000		0.93435	-131.5303
6306850000		0.93321	-134.1547
6406800000		0.93242	-136.7884
6506750000		0.93191	-139.3433
6606700000		0.93162	-141.836
6706650000		0.93001	-144.3004
6806600000		0.92974	-146.6866
6906550000		0.92895	-149.0633
7006500000		0.92928	-151.3831
7106450000		0.92933	-153.7222
7206400000		0.92903	-156.0275
7306350000		0.92847	-158.3421
!
!				Infineon Technologies AG
