! Infineon Technologies  Discrete & RF Semiconductors
! BAT17-07
! IAC = 2 mA
! One-Port S-Parameters
# Hz  S  MA  R  50
!f									S11
!Hz							Mag  Ang
309850000		0.4964	174.3932
409800000		0.49711	172.5591
509750000		0.49854	170.8411
609700000		0.49965	169.0824
709650000		0.49989	167.4293
809600000		0.49961	165.6648
909550000		0.50061	164.0156
1009500000		0.50211	162.3426
1109450000		0.50317	160.7196
1209400000		0.50429	159.0352
1309350000		0.50483	157.4851
1409300000		0.50606	155.8045
1509250000		0.5082	154.3185
1609200000		0.51052	152.6749
1709150000		0.51359	151.1291
1809100000		0.51592	149.5802
1909050000		0.51877	148.0447
2009000000		0.52149	146.4874
2108950000		0.5243	144.9081
2208900000		0.52642	143.4017
2308850000		0.529	141.9276
2408800000		0.53194	140.3157
2508750000		0.53424	138.8419
2608700000		0.53729	137.2753
2708650000		0.53942	135.7983
2808600000		0.5431	134.3524
2908550000		0.54521	132.7814
3008500000		0.54975	131.3751
3108450000		0.55226	129.9823
3208400000		0.55661	128.4401
3308350000		0.55887	127.0834
3408300000		0.56231	125.718
3508250000		0.56536	124.3933
3608200000		0.57065	122.9012
3708150000		0.57416	121.6446
3808100000		0.57791	120.2867
3908050000		0.58172	119.0525
4008000000		0.58711	117.7084
4107950000		0.59156	116.4709
4207900000		0.5962	115.1406
4307850000		0.6009	113.9022
4407800000		0.60629	112.6932
4507750000		0.6107	111.4177
4607700000		0.61618	110.2097
4707650000		0.62038	109.0106
4807600000		0.6253	107.8706
4907550000		0.62978	106.7455
5007500000		0.63408	105.6604
5107450000		0.63898	104.4402
5207400000		0.6424	103.4005
5307350000		0.646	102.3928
5407300000		0.64953	101.4038
5507250000		0.65364	100.2883
5607200000		0.65747	99.4231
5707150000		0.66037	98.3674
5807100000		0.66362	97.4913
5907050000		0.66654	96.4745
6007000000		0.66949	95.6775
6106950000		0.672	94.825
6206900000		0.67532	93.9506
6306850000		0.6774	93.0159
6406800000		0.68045	92.131
6506750000		0.68246	91.2053
6606700000		0.68449	90.1883
6706650000		0.68698	89.2624
6806600000		0.68827	88.2523
6906550000		0.69036	87.1783
7006500000		0.69132	86.0439
7106450000		0.69221	84.907
7206400000		0.69314	83.7266
7306350000		0.69319	82.509
!
!				Infineon Technologies AG
