! Infineon Technologies  Discrete & RF Semiconductors
! BAT17-07
! VCA = 0.2 V
! One-Port S-Parameters
# Hz  S  MA  R  50
!f									S11
!Hz							Mag  Ang
309850000		0.99821	-6.3687
409800000		0.99776	-8.3968
509750000		0.99711	-10.466
609700000		0.99665	-12.5924
709650000		0.99612	-14.6977
809600000		0.9954	-16.7895
909550000		0.99487	-19.0369
1009500000		0.99372	-21.2245
1109450000		0.99216	-23.435
1209400000		0.99135	-25.6277
1309350000		0.98943	-27.9135
1409300000		0.98732	-30.1359
1509250000		0.98472	-32.3972
1609200000		0.98305	-34.6793
1709150000		0.97864	-37.0472
1809100000		0.97337	-39.3425
1909050000		0.96786	-41.5178
2009000000		0.96184	-43.6815
2108950000		0.95415	-45.6452
2208900000		0.9507	-47.2471
2308850000		0.95547	-48.9619
2408800000		0.96334	-51.0673
2508750000		0.96852	-53.4851
2608700000		0.97127	-55.9045
2708650000		0.97288	-58.3166
2808600000		0.97431	-60.8102
2908550000		0.97576	-63.241
3008500000		0.9757	-65.7619
3108450000		0.97587	-68.3008
3208400000		0.97518	-70.8625
3308350000		0.97454	-73.4453
3408300000		0.97314	-76.0241
3508250000		0.97216	-78.6629
3608200000		0.96997	-81.3804
3708150000		0.96788	-84.0857
3808100000		0.96462	-86.7777
3908050000		0.9623	-89.489
4008000000		0.95932	-92.3084
4107950000		0.95682	-95.1761
4207900000		0.95327	-97.9868
4307850000		0.95013	-100.8476
4407800000		0.94713	-103.817
4507750000		0.94456	-106.719
4607700000		0.94134	-109.7908
4707650000		0.93955	-112.7967
4807600000		0.93708	-115.8414
4907550000		0.93589	-118.9563
5007500000		0.93467	-122.0846
5107450000		0.9337	-125.2679
5207400000		0.93301	-128.4563
5307350000		0.93168	-131.6638
5407300000		0.93081	-134.8493
5507250000		0.92963	-138.0155
5607200000		0.9288	-141.2314
5707150000		0.9281	-144.274
5807100000		0.92689	-147.3895
5907050000		0.92569	-150.3976
6007000000		0.92428	-153.467
6106950000		0.92271	-156.3229
6206900000		0.92239	-159.1423
6306850000		0.92112	-161.8458
6406800000		0.92081	-164.528
6506750000		0.92038	-167.1196
6606700000		0.92035	-169.6679
6706650000		0.91924	-172.1472
6806600000		0.91912	-174.579
6906550000		0.91867	-177.0093
7006500000		0.91906	-179.4351
7106450000		0.91902	178.1301
7206400000		0.91883	175.7071
7306350000		0.91792	173.2698
!
!				Infineon Technologies AG
