! Infineon Technologies  Discrete & RF Semiconductors
! BAT17-07
! IAC = 4 mA
! One-Port S-Parameters
# Hz  S  MA  R  50
!f									S11
!Hz							Mag  Ang
309850000		0.68198	174.0054
409800000		0.68183	172.1241
509750000		0.68168	170.347
609700000		0.68177	168.5121
709650000		0.68154	166.7263
809600000		0.68109	164.9105
909550000		0.68153	163.2285
1009500000		0.68167	161.4849
1109450000		0.68207	159.7836
1209400000		0.68258	158.0526
1309350000		0.68309	156.3761
1409300000		0.6836	154.624
1509250000		0.6848	153.0163
1609200000		0.68634	151.288
1709150000		0.68813	149.6463
1809100000		0.68925	147.9974
1909050000		0.69058	146.4331
2009000000		0.6929	144.7078
2108950000		0.69436	143.0535
2208900000		0.69576	141.4073
2308850000		0.69702	139.8678
2408800000		0.69967	138.1377
2508750000		0.70087	136.5667
2608700000		0.70245	134.9184
2708650000		0.70331	133.3571
2808600000		0.70513	131.7939
2908550000		0.70622	130.1691
3008500000		0.70846	128.651
3108450000		0.70948	127.1579
3208400000		0.7115	125.616
3308350000		0.71258	124.1535
3408300000		0.71444	122.7857
3508250000		0.71644	121.3097
3608200000		0.71899	119.8601
3708150000		0.72091	118.5276
3808100000		0.72325	117.1209
3908050000		0.72569	115.8079
4008000000		0.72924	114.4455
4107950000		0.73175	113.1621
4207900000		0.73485	111.7921
4307850000		0.73788	110.4975
4407800000		0.74163	109.2424
4507750000		0.74441	107.9216
4607700000		0.74804	106.6773
4707650000		0.75048	105.4148
4807600000		0.75388	104.2126
4907550000		0.75665	103.0232
5007500000		0.75915	101.8825
5107450000		0.76157	100.6582
5207400000		0.76331	99.5484
5307350000		0.76524	98.4823
5407300000		0.76701	97.4403
5507250000		0.76888	96.3235
5607200000		0.77065	95.4263
5707150000		0.77174	94.3361
5807100000		0.77324	93.4099
5907050000		0.77428	92.3776
6007000000		0.77571	91.5236
6106950000		0.77669	90.6297
6206900000		0.77848	89.7112
6306850000		0.77909	88.7348
6406800000		0.78067	87.805
6506750000		0.78119	86.8369
6606700000		0.78179	85.7758
6706650000		0.78295	84.8065
6806600000		0.7829	83.7344
6906550000		0.78343	82.6389
7006500000		0.78294	81.4475
7106450000		0.78241	80.2581
7206400000		0.78174	79.0426
7306350000		0.78021	77.8046
!
!				Infineon Technologies AG
