! Infineon Technologies  Discrete & RF Semiconductors
! BAT17-07
! VCA = 0.9 V
! One-Port S-Parameters
# Hz  S  MA  R  50
!f									S11
!Hz							Mag  Ang
309850000		0.99799	-5.503
409800000		0.99775	-7.2903
509750000		0.9972	-9.0843
609700000		0.99673	-10.9378
709650000		0.99634	-12.761
809600000		0.99568	-14.5782
909550000		0.99523	-16.54
1009500000		0.99437	-18.45
1109450000		0.99295	-20.3762
1209400000		0.99207	-22.2515
1309350000		0.99054	-24.2853
1409300000		0.98867	-26.2242
1509250000		0.98622	-28.2013
1609200000		0.98468	-30.1888
1709150000		0.98047	-32.2628
1809100000		0.97535	-34.2707
1909050000		0.96987	-36.1597
2009000000		0.96387	-38.03
2108950000		0.95614	-39.6941
2208900000		0.95265	-40.9835
2308850000		0.95732	-42.3829
2408800000		0.96547	-44.1574
2508750000		0.97098	-46.2597
2608700000		0.97405	-48.3492
2708650000		0.97597	-50.4801
2808600000		0.97777	-52.6334
2908550000		0.97932	-54.7159
3008500000		0.97939	-56.8828
3108450000		0.98003	-59.0908
3208400000		0.97993	-61.2932
3308350000		0.97974	-63.5322
3408300000		0.97875	-65.7276
3508250000		0.97836	-68.061
3608200000		0.97692	-70.4088
3708150000		0.97529	-72.767
3808100000		0.97267	-75.1069
3908050000		0.97093	-77.4953
4008000000		0.96823	-79.922
4107950000		0.9662	-82.4388
4207900000		0.96309	-84.8883
4307850000		0.96031	-87.4191
4407800000		0.95734	-90.0217
4507750000		0.95491	-92.5711
4607700000		0.95172	-95.3029
4707650000		0.94981	-97.9616
4807600000		0.94709	-100.6838
4907550000		0.94568	-103.4823
5007500000		0.94427	-106.3181
5107450000		0.94318	-109.2054
5207400000		0.9423	-112.1218
5307350000		0.9408	-115.0909
5407300000		0.93984	-118.0736
5507250000		0.93858	-121.0288
5607200000		0.93752	-124.0933
5707150000		0.9367	-126.9895
5807100000		0.93535	-129.9942
5907050000		0.93422	-132.893
6007000000		0.93265	-135.9078
6106950000		0.93103	-138.7219
6206900000		0.93023	-141.532
6306850000		0.929	-144.2142
6406800000		0.92834	-146.8953
6506750000		0.92781	-149.4911
6606700000		0.92767	-152.03
6706650000		0.92623	-154.5244
6806600000		0.92595	-156.9514
6906550000		0.92535	-159.3728
7006500000		0.92571	-161.7521
7106450000		0.92572	-164.1495
7206400000		0.92546	-166.5208
7306350000		0.9248	-168.9017
!
!				Infineon Technologies AG
