! Infineon Technologies  Discrete & RF Semiconductors
! BAT17-07
! IAC = 0.4 mA
! One-Port S-Parameters
# Hz  S  MA  R  50
!f									S11
!Hz							Mag  Ang
309850000		0.29219	-11.1088
409800000		0.29169	-13.5923
509750000		0.28694	-16.7843
609700000		0.28433	-20.5338
709650000		0.28475	-23.51
809600000		0.27896	-26.6753
909550000		0.2821	-30.0084
1009500000		0.28047	-33.2718
1109450000		0.28453	-36.438
1209400000		0.27805	-39.1573
1309350000		0.27863	-43.4922
1409300000		0.27742	-47.0379
1509250000		0.27348	-51.5285
1609200000		0.27383	-55.3882
1709150000		0.27987	-58.5399
1809100000		0.27758	-63.2011
1909050000		0.26987	-67.3089
2009000000		0.26409	-71.8949
2108950000		0.27076	-75.7932
2208900000		0.26897	-80.2006
2308850000		0.26784	-84.3492
2408800000		0.26763	-88.1096
2508750000		0.27359	-91.8852
2608700000		0.27576	-96.2973
2708650000		0.27615	-100.575
2808600000		0.28314	-104.9564
2908550000		0.28474	-109.2115
3008500000		0.28742	-114.5995
3108450000		0.29022	-119.0603
3208400000		0.29562	-123.1152
3308350000		0.30056	-127.2248
3408300000		0.30328	-131.6416
3508250000		0.30966	-136.0053
3608200000		0.31356	-140.419
3708150000		0.31944	-144.9852
3808100000		0.32353	-149.2377
3908050000		0.32962	-153.6327
4008000000		0.33523	-158.1971
4107950000		0.34279	-162.3182
4207900000		0.35373	-165.5658
4307850000		0.36409	-169.0433
4407800000		0.37192	-173.3152
4507750000		0.37958	-177.0806
4607700000		0.38938	179.1869
4707650000		0.40225	176.3719
4807600000		0.41191	172.9196
4907550000		0.42405	169.8791
5007500000		0.43479	166.5942
5107450000		0.44466	163.1522
5207400000		0.45737	160.4591
5307350000		0.46991	157.8754
5407300000		0.4814	155.2496
5507250000		0.49072	152.2216
5607200000		0.50203	149.6827
5707150000		0.51257	147.276
5807100000		0.52392	145.052
5907050000		0.53267	142.5195
6007000000		0.54447	140.5958
6106950000		0.5546	138.6819
6206900000		0.56502	136.708
6306850000		0.57306	134.6365
6406800000		0.58208	132.654
6506750000		0.59078	130.8028
6606700000		0.599	128.8756
6706650000		0.6068	126.9998
6806600000		0.61485	125.2488
6906550000		0.62151	123.2469
7006500000		0.62919	121.4704
7106450000		0.63595	119.6146
7206400000		0.64216	117.734
7306350000		0.64677	115.8025
!
!				Infineon Technologies AG
