! Infineon Technologies  Discrete & RF Semiconductors
! BAT17-07
! IAC = 0.9 mA
! One-Port S-Parameters
# Hz  S  MA  R  50
!f									S11
!Hz							Mag  Ang
309850000		0.14562	179.1906
409800000		0.14789	177.6975
509750000		0.15252	176.6792
609700000		0.15627	176.2076
709650000		0.15752	175.221
809600000		0.15873	174.188
909550000		0.1596	173.6098
1009500000		0.16441	172.5127
1109450000		0.16578	171.8408
1209400000		0.16908	170.2641
1309350000		0.17085	170.3348
1409300000		0.17386	169.4127
1509250000		0.18006	168.9084
1609200000		0.18434	168.0111
1709150000		0.18899	167.0839
1809100000		0.19548	166.2652
1909050000		0.20292	164.8231
2009000000		0.20942	163.6445
2108950000		0.21435	162.9068
2208900000		0.22008	161.9055
2308850000		0.22626	160.736
2408800000		0.23071	159.4977
2508750000		0.2356	158.6464
2608700000		0.24244	157.3559
2708650000		0.24832	156.1051
2808600000		0.25648	154.9357
2908550000		0.26196	153.6966
3008500000		0.27279	152.3094
3108450000		0.27979	150.9713
3208400000		0.28853	149.2285
3308350000		0.29479	148.0646
3408300000		0.30235	146.7257
3508250000		0.31003	145.5313
3608200000		0.32025	143.4459
3708150000		0.32899	142.1872
3808100000		0.33681	140.6857
3908050000		0.34551	139.4051
4008000000		0.3556	137.6784
4107950000		0.36531	136.1867
4207900000		0.37378	134.8348
4307850000		0.38293	133.5251
4407800000		0.3935	132.0039
4507750000		0.40252	130.4825
4607700000		0.41276	129.0315
4707650000		0.42153	127.7811
4807600000		0.43125	126.4457
4907550000		0.44059	125.2382
5007500000		0.45013	123.9517
5107450000		0.4604	122.2713
5207400000		0.46894	121.2128
5307350000		0.47753	120.14
5407300000		0.48612	119.0049
5507250000		0.49514	117.4824
5607200000		0.50413	116.3688
5707150000		0.51184	115.1262
5807100000		0.51982	114.1261
5907050000		0.5273	112.8315
6007000000		0.53491	111.9638
6106950000		0.54174	110.9948
6206900000		0.54936	109.9625
6306850000		0.55556	108.8668
6406800000		0.56261	107.7998
6506750000		0.56873	106.7394
6606700000		0.57468	105.5886
6706650000		0.58092	104.4988
6806600000		0.58614	103.4244
6906550000		0.59182	102.1176
7006500000		0.59673	100.9105
7106450000		0.60145	99.673
7206400000		0.60588	98.3418
7306350000		0.60933	96.9604
!
!				Infineon Technologies AG
