! Infineon Technologies  Discrete & RF Semiconductors
! BAT15-099R
! IAC = 0.1 mA
! One-Port S-Parameters
# Hz  S  MA  R  50
!f									S11
!Hz							Mag  Ang
309850000		0.77864	-3.5134
409800000		0.7797	-4.5123
509750000		0.77857	-5.8098
609700000		0.77951	-6.8419
709650000		0.78158	-8.1595
809600000		0.77569	-9.3585
909550000		0.7753	-10.6517
1009500000		0.77714	-11.9671
1109450000		0.78069	-13.0898
1209400000		0.77526	-14.4002
1309350000		0.77355	-15.6006
1409300000		0.77199	-16.8721
1509250000		0.77006	-18.0961
1609200000		0.76789	-19.3421
1709150000		0.77254	-20.3986
1809100000		0.77058	-21.7307
1909050000		0.76696	-22.9528
2009000000		0.75983	-24.2823
2108950000		0.76422	-25.4479
2208900000		0.75917	-26.823
2308850000		0.75511	-28.1028
2408800000		0.74668	-29.3577
2508750000		0.75376	-30.5831
2608700000		0.7531	-31.9859
2708650000		0.75144	-33.2171
2808600000		0.75185	-34.7396
2908550000		0.74983	-36.0112
3008500000		0.75075	-37.1198
3108450000		0.74766	-38.5639
3208400000		0.75149	-40.0952
3308350000		0.74701	-41.729
3408300000		0.73926	-43.3296
3508250000		0.73724	-44.9684
3608200000		0.74117	-46.4892
3708150000		0.73983	-48.2671
3808100000		0.73249	-49.9538
3908050000		0.72478	-51.7705
4008000000		0.72365	-53.4061
4107950000		0.72314	-55.3042
4207900000		0.72533	-56.9867
4307850000		0.72063	-58.7933
4407800000		0.72123	-60.7893
4507750000		0.71507	-62.5996
4607700000		0.71018	-64.5756
4707650000		0.70535	-66.5184
4807600000		0.69456	-68.5892
4907550000		0.69	-70.6995
5007500000		0.6861	-72.7477
5107450000		0.68999	-74.877
5207400000		0.68736	-76.927
5307350000		0.68311	-79.2069
5407300000		0.67756	-81.5662
5507250000		0.68053	-83.8185
5607200000		0.68123	-86.284
5707150000		0.67898	-88.789
5807100000		0.67282	-91.183
5907050000		0.67122	-93.6099
6007000000		0.66756	-95.9553
6106950000		0.66301	-98.5213
6206900000		0.65922	-101.0482
6306850000		0.65995	-103.6857
6406800000		0.65531	-106.3172
6506750000		0.65565	-108.9167
6606700000		0.65182	-111.5269
6706650000		0.64797	-114.1613
6806600000		0.6433	-116.8605
6906550000		0.6446	-119.3582
7006500000		0.64565	-121.9672
7106450000		0.63954	-124.6935
7206400000		0.63451	-127.4755
7306350000		0.63677	-129.9649
7406300000		0.63897	-132.5295
7506250000		0.63624	-135.1555
7606200000		0.63287	-138.035
7706150000		0.63025	-140.68
7806100000		0.63296	-143.2016
7906050000		0.62795	-145.9569
8006000000		0.63001	-148.337
!
!				Infineon Technologies AG
