! Infineon Technologies  Discrete & RF Semiconductors
! BAT15-099R
! IAC = 0.08 mA
! One-Port S-Parameters
# Hz  S  MA  R  50
!f									S11
!Hz							Mag  Ang
309850000		0.81975	-3.5363
409800000		0.82068	-4.5509
509750000		0.81979	-5.8549
609700000		0.82058	-6.8791
709650000		0.8224	-8.1808
809600000		0.81714	-9.3755
909550000		0.81675	-10.652
1009500000		0.81844	-11.9626
1109450000		0.8216	-13.0894
1209400000		0.81686	-14.4251
1309350000		0.81525	-15.6017
1409300000		0.81378	-16.8837
1509250000		0.81208	-18.0842
1609200000		0.80994	-19.3405
1709150000		0.81405	-20.4173
1809100000		0.81203	-21.7366
1909050000		0.80894	-22.9541
2009000000		0.80253	-24.2635
2108950000		0.80609	-25.4246
2208900000		0.80141	-26.7838
2308850000		0.79801	-28.0822
2408800000		0.79047	-29.3628
2508750000		0.79657	-30.5301
2608700000		0.79596	-31.9115
2708650000		0.79457	-33.1508
2808600000		0.79496	-34.6287
2908550000		0.793	-35.8756
3008500000		0.79415	-37.0557
3108450000		0.79152	-38.5125
3208400000		0.79514	-39.9948
3308350000		0.79098	-41.5716
3408300000		0.78464	-43.2271
3508250000		0.78275	-44.821
3608200000		0.78643	-46.3397
3708150000		0.78512	-48.0742
3808100000		0.77873	-49.7662
3908050000		0.7718	-51.5703
4008000000		0.77073	-53.2103
4107950000		0.77031	-55.0508
4207900000		0.772	-56.7208
4307850000		0.76765	-58.517
4407800000		0.76805	-60.4517
4507750000		0.76242	-62.2603
4607700000		0.75801	-64.203
4707650000		0.75351	-66.1346
4807600000		0.74405	-68.1808
4907550000		0.73991	-70.2577
5007500000		0.73636	-72.2705
5107450000		0.74004	-74.3255
5207400000		0.73744	-76.354
5307350000		0.73349	-78.6027
5407300000		0.72857	-80.914
5507250000		0.73137	-83.1119
5607200000		0.73214	-85.5085
5707150000		0.73016	-87.9471
5807100000		0.7246	-90.3125
5907050000		0.72318	-92.7072
6007000000		0.71976	-95.0502
6106950000		0.71546	-97.6006
6206900000		0.712	-100.0957
6306850000		0.7125	-102.6703
6406800000		0.70822	-105.2662
6506750000		0.70832	-107.822
6606700000		0.70462	-110.4165
6706650000		0.70106	-112.9909
6806600000		0.6964	-115.6696
6906550000		0.69761	-118.1148
7006500000		0.69807	-120.6752
7106450000		0.69228	-123.3668
7206400000		0.6874	-126.1084
7306350000		0.68936	-128.5789
7406300000		0.69137	-131.1035
7506250000		0.68837	-133.7133
7606200000		0.68491	-136.5525
7706150000		0.68237	-139.1651
7806100000		0.68437	-141.6714
7906050000		0.67945	-144.4167
8006000000		0.68094	-146.7817
!
!				Infineon Technologies AG
