! Infineon Technologies  Discrete & RF Semiconductors
! BAT15-099R
! IAC = 0.2 mA
! One-Port S-Parameters
# Hz  S  MA  R  50
!f									S11
!Hz							Mag  Ang
309850000		0.5929	-3.3455
409800000		0.5937	-4.2758
509750000		0.59238	-5.5253
609700000		0.59334	-6.5534
709650000		0.59579	-7.9154
809600000		0.5889	-9.1071
909550000		0.58863	-10.4534
1009500000		0.59004	-11.7799
1109450000		0.59443	-12.8565
1209400000		0.58697	-13.9957
1309350000		0.58534	-15.3091
1409300000		0.58399	-16.5251
1509250000		0.58099	-17.8544
1609200000		0.57887	-19.0208
1709150000		0.58423	-19.9411
1809100000		0.58253	-21.3543
1909050000		0.57699	-22.5669
2009000000		0.56814	-23.9734
2108950000		0.5744	-25.1785
2208900000		0.56879	-26.6654
2308850000		0.56332	-27.993
2408800000		0.55326	-29.132
2508750000		0.56167	-30.3909
2608700000		0.56059	-31.887
2708650000		0.55789	-33.006
2808600000		0.55815	-34.7846
2908550000		0.55533	-35.919
3008500000		0.55507	-36.8942
3108450000		0.55092	-38.2794
3208400000		0.55382	-40.0537
3308350000		0.54812	-41.7319
3408300000		0.5375	-43.4853
3508250000		0.53457	-45.1217
3608200000		0.53717	-46.6317
3708150000		0.53559	-48.6271
3808100000		0.52594	-50.2593
3908050000		0.51634	-52.1835
4008000000		0.51438	-53.7519
4107950000		0.51274	-56.0068
4207900000		0.51566	-57.7345
4307850000		0.50974	-59.5999
4407800000		0.51013	-61.9432
4507750000		0.50256	-63.7649
4607700000		0.49557	-65.921
4707650000		0.4897	-67.9581
4807600000		0.47547	-70.1924
4907550000		0.47024	-72.5242
5007500000		0.46522	-74.7929
5107450000		0.46716	-77.3616
5207400000		0.46542	-79.5611
5307350000		0.46112	-82.0393
5407300000		0.45424	-84.7336
5507250000		0.45563	-87.3353
5607200000		0.45538	-90.2586
5707150000		0.45242	-93.2408
5807100000		0.44539	-95.838
5907050000		0.44223	-98.5205
6007000000		0.43874	-100.9732
6106950000		0.43418	-103.7467
6206900000		0.42962	-106.6171
6306850000		0.43089	-109.709
6406800000		0.42556	-112.6593
6506750000		0.42661	-115.5879
6606700000		0.42333	-118.377
6706650000		0.41926	-121.5044
6806600000		0.41612	-124.4479
6906550000		0.41667	-127.3624
7006500000		0.42031	-130.2834
7106450000		0.41528	-133.3254
7206400000		0.41125	-136.4614
7306350000		0.41407	-139.112
7406300000		0.41563	-142.0051
7506250000		0.4155	-144.7578
7606200000		0.41412	-147.9351
7706150000		0.4123	-150.8393
7806100000		0.41705	-153.4145
7906050000		0.41416	-156.3079
8006000000		0.41702	-158.8106
!
!				Infineon Technologies AG
