! Infineon Technologies  Discrete & RF Semiconductors
! BAT15-099R
! IAC = 0.7 mA
! One-Port S-Parameters
# Hz  S  MA  R  50
!f									S11
!Hz							Mag  Ang
309850000		0.01532	34.4808
409800000		0.01698	49.2914
509750000		0.01726	52.9117
609700000		0.01964	55.5936
709650000		0.0205	51.3791
809600000		0.02161	53.0663
909550000		0.02103	56.0622
1009500000		0.02117	60.3774
1109450000		0.02357	61.0456
1209400000		0.02535	69.8807
1309350000		0.02596	67.94
1409300000		0.02746	68.9533
1509250000		0.02817	74.922
1609200000		0.03023	77.3569
1709150000		0.03424	77.0781
1809100000		0.03449	79.877
1909050000		0.03731	85.0746
2009000000		0.03897	90.2856
2108950000		0.03985	87.8161
2208900000		0.04057	90.4675
2308850000		0.04298	93.4189
2408800000		0.04677	95.0085
2508750000		0.04651	92.0538
2608700000		0.04753	94.3162
2708650000		0.05098	94.3154
2808600000		0.05229	97.9716
2908550000		0.05503	97.0347
3008500000		0.06254	97.7231
3108450000		0.0651	98.1525
3208400000		0.0686	100.9467
3308350000		0.06992	102.3931
3408300000		0.07592	105.0215
3508250000		0.07801	105.5761
3608200000		0.08555	106.4239
3708150000		0.08675	107.6038
3808100000		0.09195	108.1817
3908050000		0.09603	109.1568
4008000000		0.10204	109.1523
4107950000		0.10626	110.5103
4207900000		0.10916	110.4861
4307850000		0.11447	110.5998
4407800000		0.11919	111.7184
4507750000		0.12431	111.6061
4607700000		0.13254	112.0633
4707650000		0.13736	112.0897
4807600000		0.14588	112.2347
4907550000		0.14948	112.6147
5007500000		0.1552	112.4169
5107450000		0.1635	112.5155
5207400000		0.16547	112.2961
5307350000		0.16967	112.384
5407300000		0.17565	112.3989
5507250000		0.18426	112.1159
5607200000		0.19078	112.3309
5707150000		0.19674	112.2896
5807100000		0.20166	111.8671
5907050000		0.2096	111.2264
6007000000		0.2134	110.7977
6106950000		0.21939	110.4575
6206900000		0.2261	109.8947
6306850000		0.2317	109.991
6406800000		0.23808	109.4578
6506750000		0.24423	108.9809
6606700000		0.24882	108.3998
6706650000		0.25558	107.6975
6806600000		0.25986	107.3736
6906550000		0.26753	106.315
7006500000		0.27071	106.2052
7106450000		0.27588	105.5126
7206400000		0.28194	104.6346
7306350000		0.28693	103.6762
7406300000		0.29433	102.529
7506250000		0.2967	101.838
7606200000		0.30147	101.0376
7706150000		0.30556	99.7514
7806100000		0.30817	98.8918
7906050000		0.30981	98.0689
8006000000		0.3129	96.7676
!
!				Infineon Technologies AG
