! Infineon Technologies  Discrete & RF Semiconductors
! BAT15-099R
! IAC = 0.5 mA
! One-Port S-Parameters
# Hz  S  MA  R  50
!f									S11
!Hz							Mag  Ang
309850000		0.18981	-1.5237
409800000		0.18837	-1.4501
509750000		0.18733	-2.4731
609700000		0.18765	-3.0808
709650000		0.18956	-4.5339
809600000		0.18695	-5.4173
909550000		0.18593	-6.8127
1009500000		0.1846	-7.9502
1109450000		0.18648	-8.5403
1209400000		0.18082	-8.7318
1309350000		0.1807	-10.1683
1409300000		0.17997	-10.9582
1509250000		0.17603	-12.2246
1609200000		0.17431	-12.8433
1709150000		0.17582	-12.8236
1809100000		0.17365	-14.3444
1909050000		0.16797	-14.946
2009000000		0.16129	-16.1512
2108950000		0.16446	-17.4257
2208900000		0.16048	-18.9519
2308850000		0.15562	-20.0334
2408800000		0.14973	-20.0495
2508750000		0.1537	-21.5951
2608700000		0.15115	-23.4057
2708650000		0.14828	-23.6948
2808600000		0.14492	-26.1793
2908550000		0.14277	-26.5802
3008500000		0.13823	-25.812
3108450000		0.13463	-26.6363
3208400000		0.13035	-28.9464
3308350000		0.12602	-31.033
3408300000		0.11593	-32.1646
3508250000		0.11254	-34.0468
3608200000		0.10684	-34.6728
3708150000		0.1038	-38.0469
3808100000		0.0959	-39.0202
3908050000		0.08845	-41.2083
4008000000		0.08297	-42.2416
4107950000		0.07719	-46.7041
4207900000		0.07557	-49.6592
4307850000		0.06906	-52.245
4407800000		0.06452	-58.4485
4507750000		0.05784	-61.6839
4607700000		0.04872	-67.744
4707650000		0.04342	-74.1536
4807600000		0.03305	-85.4348
4907550000		0.03128	-98.6476
5007500000		0.02894	-113.3473
5107450000		0.02964	-133.0807
5207400000		0.03288	-139.8185
5307350000		0.03667	-150.2259
5407300000		0.0416	-162.6603
5507250000		0.04767	-173.0901
5607200000		0.05619	-179.2773
5707150000		0.06431	175.4276
5807100000		0.07066	170.6371
5907050000		0.0779	164.8082
6007000000		0.08338	162.4636
6106950000		0.09081	159.1458
6206900000		0.09879	155.4893
6306850000		0.10815	154.4649
6406800000		0.11648	151.4086
6506750000		0.12439	149.6442
6606700000		0.13067	147.6274
6706650000		0.1396	145.061
6806600000		0.14665	143.7465
6906550000		0.15496	141.0207
7006500000		0.16234	141.0187
7106450000		0.16969	139.0171
7206400000		0.17725	136.8133
7306350000		0.18337	135.1725
7406300000		0.19147	132.7966
7506250000		0.19652	131.898
7606200000		0.20353	130.3147
7706150000		0.20883	128.221
7806100000		0.21369	127.2982
7906050000		0.21791	125.9425
8006000000		0.22217	124.1806
!
!				Infineon Technologies AG
