! Infineon Technologies  Discrete & RF Semiconductors
! BAT15-099R
! VCA = 3 V
! One-Port S-Parameters
# Hz  S  MA  R  50
!f									S11
!Hz							Mag  Ang
309850000		0.9994	-2.8614
409800000		0.99937	-3.6571
509750000		0.99982	-4.7294
609700000		0.99962	-5.5317
709650000		0.99973	-6.4796
809600000		0.99954	-7.3907
909550000		0.99974	-8.3458
1009500000		0.99943	-9.3915
1109450000		0.99958	-10.2769
1209400000		0.99906	-11.3836
1309350000		0.99898	-12.2519
1409300000		0.9981	-13.2715
1509250000		0.99771	-14.1554
1609200000		0.99659	-15.1777
1709150000		0.99607	-16.0735
1809100000		0.99448	-17.0955
1909050000		0.99361	-18.0048
2009000000		0.99191	-18.964
2108950000		0.99089	-19.85
2208900000		0.98936	-20.8559
2308850000		0.9888	-21.7963
2408800000		0.98768	-22.72
2508750000		0.98767	-23.6374
2608700000		0.98694	-24.592
2708650000		0.98723	-25.5621
2808600000		0.98725	-26.5383
2908550000		0.9875	-27.5681
3008500000		0.98792	-28.5529
3108450000		0.98858	-29.6568
3208400000		0.98895	-30.6499
3308350000		0.98943	-31.832
3408300000		0.98952	-32.9828
3508250000		0.99005	-34.1737
3608200000		0.9897	-35.3644
3708150000		0.98973	-36.6213
3808100000		0.98917	-37.8505
3908050000		0.98846	-39.1634
4008000000		0.98724	-40.3948
4107950000		0.98645	-41.7384
4207900000		0.98521	-43.0172
4307850000		0.98349	-44.3404
4407800000		0.98183	-45.7236
4507750000		0.97965	-47.0684
4607700000		0.97758	-48.4379
4707650000		0.97587	-49.856
4807600000		0.97425	-51.2263
4907550000		0.97292	-52.7126
5007500000		0.97184	-54.1077
5107450000		0.97114	-55.5993
5207400000		0.97052	-57.0112
5307350000		0.96963	-58.5924
5407300000		0.96918	-60.1757
5507250000		0.96814	-61.8081
5607200000		0.96775	-63.5629
5707150000		0.96725	-65.3074
5807100000		0.96712	-66.961
5907050000		0.96619	-68.7614
6007000000		0.96616	-70.4894
6106950000		0.96483	-72.406
6206900000		0.96388	-74.2546
6306850000		0.96246	-76.2078
6406800000		0.96105	-78.174
6506750000		0.95926	-80.1356
6606700000		0.95796	-82.1751
6706650000		0.95595	-84.0399
6806600000		0.95418	-86.1005
6906550000		0.95208	-88.0174
7006500000		0.95017	-90.0231
7106450000		0.94852	-91.9553
7206400000		0.94628	-94.0144
7306350000		0.94522	-95.9979
7406300000		0.94328	-98.0665
7506250000		0.94199	-100.0402
7606200000		0.93999	-102.1779
7706150000		0.93901	-104.201
7806100000		0.93679	-106.2588
7906050000		0.93627	-108.3606
8006000000		0.93397	-110.3552
!
!				Infineon Technologies AG
