! Infineon Technologies  Discrete & RF Semiconductors
! BAT15-099R
! VCA = 1 V
! One-Port S-Parameters
# Hz  S  MA  R  50
!f									S11
!Hz							Mag  Ang
309850000		0.99995	-3.0355
409800000		0.99993	-3.8874
509750000		1.0003	-5.0168
609700000		0.99988	-5.845
709650000		1.0002	-6.8841
809600000		1	-7.8493
909550000		1.0002	-8.8654
1009500000		0.99988	-9.964
1109450000		0.99998	-10.9115
1209400000		0.9994	-12.0784
1309350000		0.99928	-13.0023
1409300000		0.99848	-14.0803
1509250000		0.99806	-15.0261
1609200000		0.99691	-16.1088
1709150000		0.99632	-17.0664
1809100000		0.99465	-18.1487
1909050000		0.99385	-19.1191
2009000000		0.99214	-20.1439
2108950000		0.99107	-21.0981
2208900000		0.98943	-22.1682
2308850000		0.98892	-23.171
2408800000		0.98811	-24.2095
2508750000		0.98776	-25.1519
2608700000		0.98729	-26.2083
2708650000		0.98746	-27.2169
2808600000		0.98757	-28.3044
2908550000		0.98748	-29.3321
3008500000		0.9878	-30.406
3108450000		0.98869	-31.6227
3208400000		0.98906	-32.6978
3308350000		0.98943	-33.9619
3408300000		0.98934	-35.1666
3508250000		0.98996	-36.4767
3608200000		0.98946	-37.7599
3708150000		0.98942	-39.1033
3808100000		0.98879	-40.4269
3908050000		0.98799	-41.831
4008000000		0.98676	-43.193
4107950000		0.98574	-44.5963
4207900000		0.98438	-45.9711
4307850000		0.98255	-47.3974
4407800000		0.98079	-48.8882
4507750000		0.97857	-50.3282
4607700000		0.97641	-51.8132
4707650000		0.97469	-53.3338
4807600000		0.97295	-54.8237
4907550000		0.97167	-56.4163
5007500000		0.97053	-57.9283
5107450000		0.96971	-59.5373
5207400000		0.96911	-61.0768
5307350000		0.96819	-62.7877
5407300000		0.96771	-64.5015
5507250000		0.96655	-66.2664
5607200000		0.96611	-68.156
5707150000		0.96569	-70.0276
5807100000		0.96536	-71.8215
5907050000		0.96425	-73.7592
6007000000		0.96416	-75.6305
6106950000		0.9626	-77.6929
6206900000		0.96152	-79.6785
6306850000		0.95988	-81.7768
6406800000		0.95836	-83.8748
6506750000		0.95638	-85.981
6606700000		0.95501	-88.1392
6706650000		0.95287	-90.1467
6806600000		0.95092	-92.3353
6906550000		0.94883	-94.3843
7006500000		0.94684	-96.5209
7106450000		0.94514	-98.5928
7206400000		0.94287	-100.7912
7306350000		0.94175	-102.9103
7406300000		0.93997	-105.1092
7506250000		0.93858	-107.2229
7606200000		0.93655	-109.5082
7706150000		0.93535	-111.655
7806100000		0.93321	-113.8512
7906050000		0.93258	-116.1015
8006000000		0.92983	-118.2408
!
!				Infineon Technologies AG
