! Infineon Technologies  Discrete & RF Semiconductors
! BAT15-099R
! IAC = 6 mA
! One-Port S-Parameters
# Hz  S  MA  R  50
!f									S11
!Hz							Mag  Ang
309850000		0.70623	174.5312
409800000		0.70592	172.6884
509750000		0.70513	171.2044
609700000		0.70403	169.4636
709650000		0.70411	167.8779
809600000		0.70344	166.2288
909550000		0.70391	164.6778
1009500000		0.70337	163.165
1109450000		0.70387	161.5333
1209400000		0.70387	160.1017
1309350000		0.70409	158.4384
1409300000		0.70468	156.9284
1509250000		0.70539	155.2966
1609200000		0.70657	153.7927
1709150000		0.70741	152.1916
1809100000		0.70874	150.7337
1909050000		0.70983	149.1094
2009000000		0.71133	147.6125
2108950000		0.71289	146.0005
2208900000		0.71476	144.5404
2308850000		0.71561	143.0247
2408800000		0.71751	141.5435
2508750000		0.7183	140.0036
2608700000		0.72011	138.5261
2708650000		0.72091	136.9606
2808600000		0.72252	135.6042
2908550000		0.72334	134.0772
3008500000		0.7253	132.6757
3108450000		0.72588	131.2864
3208400000		0.72758	129.9178
3308350000		0.72869	128.5989
3408300000		0.7306	127.306
3508250000		0.73152	126.0298
3608200000		0.73406	124.7165
3708150000		0.73529	123.5138
3808100000		0.73749	122.2646
3908050000		0.73916	121.1226
4008000000		0.74168	119.8464
4107950000		0.74392	118.663
4207900000		0.74646	117.4425
4307850000		0.74911	116.2418
4407800000		0.75169	115.1212
4507750000		0.75393	113.9059
4607700000		0.7567	112.8091
4707650000		0.7588	111.661
4807600000		0.76147	110.5097
4907550000		0.76326	109.4241
5007500000		0.76515	108.2367
5107450000		0.76677	107.1273
5207400000		0.76832	105.9655
5307350000		0.77008	104.9451
5407300000		0.7713	103.9015
5507250000		0.77287	102.8947
5607200000		0.77389	101.9592
5707150000		0.77432	100.9855
5807100000		0.77497	99.9016
5907050000		0.77602	98.9707
6007000000		0.77666	97.9663
6106950000		0.77829	97.1089
6206900000		0.77952	96.1372
6306850000		0.78116	95.3162
6406800000		0.78223	94.3704
6506750000		0.78393	93.4577
6606700000		0.78445	92.5813
6706650000		0.78584	91.5119
6806600000		0.7869	90.6479
6906550000		0.78843	89.5722
7006500000		0.78946	88.5906
7106450000		0.79094	87.472
7206400000		0.79199	86.4859
7306350000		0.79276	85.3348
7406300000		0.79328	84.3105
7506250000		0.79332	83.0741
7606200000		0.7931	81.9951
7706150000		0.79162	80.7427
7806100000		0.78977	79.5263
7906050000		0.78561	78.4069
8006000000		0.78194	77.1873
!
!				Infineon Technologies AG
