! Infineon Technologies  Discrete & RF Semiconductors
! BAT15-099R
! IAC = 20 mA
! One-Port S-Parameters
# Hz  S  MA  R  50
!f									S11
!Hz							Mag  Ang
309850000		0.80233	174.5494
409800000		0.8016	172.7563
509750000		0.80032	171.3073
609700000		0.79921	169.5498
709650000		0.79891	167.978
809600000		0.79807	166.337
909550000		0.79797	164.7923
1009500000		0.79728	163.289
1109450000		0.79722	161.6736
1209400000		0.79713	160.2482
1309350000		0.79705	158.5998
1409300000		0.7974	157.0999
1509250000		0.79772	155.4801
1609200000		0.79858	153.9852
1709150000		0.79902	152.4004
1809100000		0.80017	150.9109
1909050000		0.80077	149.3299
2009000000		0.80216	147.803
2108950000		0.80304	146.225
2208900000		0.8044	144.7922
2308850000		0.80516	143.2152
2408800000		0.80624	141.7969
2508750000		0.80683	140.1901
2608700000		0.80782	138.7432
2708650000		0.80797	137.2089
2808600000		0.80902	135.7766
2908550000		0.80902	134.3211
3008500000		0.81003	132.9305
3108450000		0.81018	131.5039
3208400000		0.81114	130.0955
3308350000		0.81143	128.8108
3408300000		0.81256	127.5156
3508250000		0.81289	126.2404
3608200000		0.81447	124.9648
3708150000		0.81526	123.7259
3808100000		0.81684	122.4765
3908050000		0.81807	121.3032
4008000000		0.81985	120.0571
4107950000		0.8216	118.8679
4207900000		0.82358	117.6442
4307850000		0.82562	116.4417
4407800000		0.82761	115.3099
4507750000		0.82948	114.0878
4607700000		0.83149	112.9782
4707650000		0.83315	111.821
4807600000		0.83517	110.6565
4907550000		0.83645	109.5532
5007500000		0.83773	108.3579
5107450000		0.83864	107.2335
5207400000		0.83947	106.0642
5307350000		0.84062	105.03
5407300000		0.84119	103.9805
5507250000		0.84207	102.9564
5607200000		0.8424	102.011
5707150000		0.84222	101.0271
5807100000		0.84226	99.9381
5907050000		0.8427	99.0001
6007000000		0.84267	97.9903
6106950000		0.84373	97.1259
6206900000		0.84454	96.1437
6306850000		0.84564	95.3202
6406800000		0.84633	94.3666
6506750000		0.84749	93.4446
6606700000		0.84779	92.559
6706650000		0.84864	91.4864
6806600000		0.8495	90.612
6906550000		0.85058	89.5256
7006500000		0.85141	88.5383
7106450000		0.85243	87.4082
7206400000		0.85309	86.4151
7306350000		0.85348	85.2511
7406300000		0.85363	84.2187
7506250000		0.85324	82.975
7606200000		0.85255	81.8861
7706150000		0.85062	80.6291
7806100000		0.84815	79.4062
7906050000		0.84335	78.2822
8006000000		0.83898	77.061
!
!				Infineon Technologies AG
