! Infineon Technologies  Discrete & RF Semiconductors
! BAT15-099R
! IAC = 40 mA
! One-Port S-Parameters
# Hz  S  MA  R  50
!f									S11
!Hz							Mag  Ang
309850000		0.81555	174.5571
409800000		0.81457	172.7993
509750000		0.81361	171.2807
609700000		0.81234	169.5596
709650000		0.81195	167.9897
809600000		0.81111	166.3496
909550000		0.81096	164.8055
1009500000		0.81025	163.3027
1109450000		0.81016	161.6876
1209400000		0.81003	160.2634
1309350000		0.80991	158.6157
1409300000		0.81019	157.1189
1509250000		0.81043	155.5035
1609200000		0.81128	154.0064
1709150000		0.81163	152.4218
1809100000		0.81278	150.9339
1909050000		0.81334	149.3545
2009000000		0.8147	147.8264
2108950000		0.81555	146.2479
2208900000		0.8166	144.846
2308850000		0.8175	143.2382
2408800000		0.81874	141.7853
2508750000		0.81905	140.2105
2608700000		0.81992	138.764
2708650000		0.82016	137.1955
2808600000		0.82092	135.7971
2908550000		0.82099	134.3091
3008500000		0.82168	132.9504
3108450000		0.82177	131.5248
3208400000		0.82262	130.1147
3308350000		0.8228	128.8312
3408300000		0.82384	127.5383
3508250000		0.82406	126.2606
3608200000		0.82579	124.9538
3708150000		0.82607	123.783
3808100000		0.82769	122.4998
3908050000		0.82892	121.3257
4008000000		0.83054	120.0797
4107950000		0.83224	118.8896
4207900000		0.8341	117.6664
4307850000		0.83608	116.463
4407800000		0.83795	115.3282
4507750000		0.83981	114.1056
4607700000		0.84173	112.9938
4707650000		0.8433	111.8367
4807600000		0.84522	110.6728
4907550000		0.84643	109.5681
5007500000		0.84763	108.3675
5107450000		0.84844	107.2446
5207400000		0.8492	106.0739
5307350000		0.85024	105.0375
5407300000		0.8507	103.9848
5507250000		0.85148	102.9608
5607200000		0.85172	102.0141
5707150000		0.85147	101.0311
5807100000		0.85141	99.94
5907050000		0.85176	98.9991
6007000000		0.8516	97.9892
6106950000		0.85265	97.1258
6206900000		0.85334	96.143
6306850000		0.85437	95.3196
6406800000		0.85502	94.3617
6506750000		0.85612	93.4404
6606700000		0.85635	92.5575
6706650000		0.85717	91.4828
6806600000		0.85794	90.6054
6906550000		0.85902	89.5198
7006500000		0.85977	88.5286
7106450000		0.86074	87.4023
7206400000		0.86138	86.4065
7306350000		0.86172	85.2402
7406300000		0.86179	84.2065
7506250000		0.86132	82.9623
7606200000		0.86059	81.8715
7706150000		0.85859	80.6134
7806100000		0.85598	79.3905
7906050000		0.85113	78.2654
8006000000		0.84668	77.045
!
!				Infineon Technologies AG
