! Infineon Technologies  Discrete & RF Semiconductors
! BAT68-04W
! IAC = 0.05 mA
! One-Port S-Parameters
# Hz  S  MA  R  50
!f									S11
!Hz							Mag  Ang
309850000		0.88142	-11.3704
409800000		0.8807	-15.0357
509750000		0.87973	-18.725
609700000		0.87903	-22.4282
709650000		0.88004	-26.1505
809600000		0.87513	-29.9724
909550000		0.87533	-33.7715
1009500000		0.87646	-37.4314
1109450000		0.87692	-41.2255
1209400000		0.87252	-45.0607
1309350000		0.8709	-49.0223
1409300000		0.86854	-52.9274
1509250000		0.86611	-56.9472
1609200000		0.86503	-60.8041
1709150000		0.86988	-64.4129
1809100000		0.86758	-68.4728
1909050000		0.86357	-72.6627
2009000000		0.85971	-76.806
2108950000		0.86175	-80.6981
2208900000		0.86006	-84.7107
2308850000		0.85895	-88.7683
2408800000		0.85829	-92.7242
2508750000		0.85697	-96.766
2608700000		0.85693	-100.7361
2708650000		0.85491	-104.8292
2808600000		0.85769	-108.5379
2908550000		0.85558	-112.5863
3008500000		0.85298	-116.6467
3108450000		0.85308	-120.4865
3208400000		0.85485	-124.1562
3308350000		0.856	-127.8652
3408300000		0.85597	-131.6689
3508250000		0.85648	-135.3869
3608200000		0.85619	-139.1061
3708150000		0.85636	-142.7576
3808100000		0.85679	-146.3761
3908050000		0.85743	-149.8907
4008000000		0.85705	-153.5344
4107950000		0.85784	-156.9212
4207900000		0.86004	-160.1623
4307850000		0.86226	-163.3142
4407800000		0.86236	-166.6931
4507750000		0.86333	-169.949
4607700000		0.86494	-173.1372
4707650000		0.86802	-176.0229
4807600000		0.86966	-179.139
4907550000		0.87199	177.9074
5007500000		0.873	174.833
5107450000		0.87393	171.8367
5207400000		0.87548	168.9501
5307350000		0.87748	166.1824
5407300000		0.87855	163.3806
5507250000		0.87903	160.5708
5607200000		0.87967	157.7865
5707150000		0.88087	155.2175
5807100000		0.88173	152.6243
5907050000		0.88259	150.1033
6007000000		0.88336	147.6901
6106950000		0.88438	145.2894
6206900000		0.88503	142.9793
6306850000		0.88557	140.6428
6406800000		0.88655	138.4294
6506750000		0.88724	136.2193
6606700000		0.88853	134.0855
6706650000		0.88981	132.0163
6806600000		0.89123	129.9165
!
!				Infineon Technologies AG
