! Infineon Technologies  Discrete & RF Semiconductors
! BAT68-04W
! IAC = 0.1 mA
! One-Port S-Parameters
# Hz  S  MA  R  50
!f									S11
!Hz							Mag  Ang
309850000		0.77413	-11.7591
409800000		0.77358	-15.5493
509750000		0.77299	-19.3864
609700000		0.77246	-23.2458
709650000		0.77505	-27.1429
809600000		0.76834	-31.1001
909550000		0.76995	-35.1507
1009500000		0.77235	-38.937
1109450000		0.77434	-42.8832
1209400000		0.76882	-46.8105
1309350000		0.7673	-50.9576
1409300000		0.76485	-55.0276
1509250000		0.76209	-59.2036
1609200000		0.76192	-63.2073
1709150000		0.77113	-66.88
1809100000		0.76884	-71.1209
1909050000		0.76424	-75.4167
2009000000		0.76013	-79.6788
2108950000		0.76515	-83.696
2208900000		0.76455	-87.8062
2308850000		0.76484	-91.956
2408800000		0.76642	-95.9718
2508750000		0.76631	-100.0911
2608700000		0.76812	-104.1405
2708650000		0.76717	-108.3318
2808600000		0.7731	-112.0734
2908550000		0.77197	-116.1676
3008500000		0.76999	-120.2421
3108450000		0.7722	-124.1121
3208400000		0.7764	-127.8111
3308350000		0.77998	-131.5302
3408300000		0.78175	-135.3325
3508250000		0.78426	-139.0437
3608200000		0.78539	-142.7695
3708150000		0.78734	-146.3988
3808100000		0.7898	-149.9833
3908050000		0.79236	-153.4548
4008000000		0.79306	-157.0387
4107950000		0.79588	-160.4194
4207900000		0.80038	-163.6251
4307850000		0.8049	-166.7226
4407800000		0.80619	-170.0557
4507750000		0.80875	-173.251
4607700000		0.81211	-176.3817
4707650000		0.81736	-179.2161
4807600000		0.82068	177.7361
4907550000		0.82475	174.8471
5007500000		0.82726	171.8416
5107450000		0.82931	168.9038
5207400000		0.83253	166.089
5307350000		0.83622	163.3883
5407300000		0.83892	160.6574
5507250000		0.84045	157.9153
5607200000		0.84238	155.2001
5707150000		0.84501	152.6978
5807100000		0.8474	150.1721
5907050000		0.84934	147.7206
6007000000		0.85149	145.3735
6106950000		0.85385	143.0352
6206900000		0.85572	140.7879
6306850000		0.85737	138.5154
6406800000		0.85934	136.3658
6506750000		0.8611	134.2094
6606700000		0.86336	132.1358
6706650000		0.86559	130.124
6806600000		0.86803	128.0773
!
!				Infineon Technologies AG
