! Infineon Technologies  Discrete & RF Semiconductors
! BAT68-04W
! IAC = 3 mA
! One-Port S-Parameters
# Hz  S  MA  R  50
!f									S11
!Hz							Mag  Ang
309850000		0.61639	174.9941
409800000		0.61642	173.5115
509750000		0.6162	172.0367
609700000		0.61658	170.5566
709650000		0.61644	169.1521
809600000		0.61676	167.6762
909550000		0.61762	166.3383
1009500000		0.61916	164.8172
1109450000		0.62029	163.4572
1209400000		0.62136	161.9821
1309350000		0.62255	160.6624
1409300000		0.62385	159.222
1509250000		0.62553	157.8804
1609200000		0.62691	156.4778
1709150000		0.62923	155.1382
1809100000		0.63114	153.8022
1909050000		0.63276	152.519
2009000000		0.63473	151.1738
2108950000		0.63692	149.9584
2208900000		0.63877	148.6893
2308850000		0.64105	147.4598
2408800000		0.64251	146.2651
2508750000		0.64518	144.997
2608700000		0.6475	143.8502
2708650000		0.64995	142.5453
2808600000		0.65274	141.399
2908550000		0.65489	140.1858
3008500000		0.65761	138.9895
3108450000		0.65998	137.8165
3208400000		0.66303	136.5816
3308350000		0.66543	135.4302
3408300000		0.66804	134.2383
3508250000		0.67069	133.0935
3608200000		0.67368	131.9114
3708150000		0.67627	130.7926
3808100000		0.6788	129.6048
3908050000		0.68126	128.5214
4008000000		0.68432	127.3159
4107950000		0.68693	126.2334
4207900000		0.68994	125.0344
4307850000		0.69264	123.9421
4407800000		0.69556	122.782
4507750000		0.69827	121.6094
4607700000		0.70171	120.4689
4707650000		0.70417	119.282
4807600000		0.70704	118.1118
4907550000		0.70975	116.9763
5007500000		0.7127	115.8349
5107450000		0.71558	114.681
5207400000		0.71816	113.5066
5307350000		0.72082	112.3956
5407300000		0.72331	111.2619
5507250000		0.72574	110.1464
5607200000		0.72863	109.0205
5707150000		0.73132	107.9934
5807100000		0.7342	106.8885
5907050000		0.73719	105.8801
6007000000		0.73946	104.8161
6106950000		0.74252	103.7493
6206900000		0.74518	102.7679
6306850000		0.74801	101.7128
6406800000		0.75079	100.7668
6506750000		0.75377	99.7198
6606700000		0.75712	98.7776
6706650000		0.7602	97.7859
6806600000		0.76355	96.7676
!
!				Infineon Technologies AG
