! Infineon Technologies  Discrete & RF Semiconductors
! BAT68-04W
! VCA = 0 V
! One-Port S-Parameters
# Hz  S  MA  R  50
!f									S11
!Hz							Mag  Ang
309850000		0.99901	-9.3317
409800000		0.99796	-12.3088
509750000		0.99694	-15.2779
609700000		0.99623	-18.3241
709650000		0.99538	-21.361
809600000		0.99395	-24.3421
909550000		0.99317	-27.4668
1009500000		0.9921	-30.5202
1109450000		0.99096	-33.6877
1209400000		0.98971	-36.7565
1309350000		0.98861	-39.9866
1409300000		0.98758	-43.1404
1509250000		0.98622	-46.4218
1609200000		0.98481	-49.6146
1709150000		0.98357	-52.9634
1809100000		0.9821	-56.2811
1909050000		0.98044	-59.6797
2009000000		0.97851	-63.0469
2108950000		0.97685	-66.5357
2208900000		0.97476	-69.8948
2308850000		0.97287	-73.3977
2408800000		0.97108	-76.8746
2508750000		0.96909	-80.3519
2608700000		0.96753	-83.9149
2708650000		0.96619	-87.4416
2808600000		0.96385	-91.0091
2908550000		0.9618	-94.4673
3008500000		0.95983	-98.0918
3108450000		0.95811	-101.6014
3208400000		0.95641	-105.1616
3308350000		0.95478	-108.6902
3408300000		0.95329	-112.2412
3508250000		0.9517	-115.7922
3608200000		0.94989	-119.2889
3708150000		0.94846	-122.7644
3808100000		0.94696	-126.2619
3908050000		0.94552	-129.721
4008000000		0.94417	-133.1673
4107950000		0.94273	-136.5673
4207900000		0.94159	-139.9544
4307850000		0.94053	-143.3167
4407800000		0.93963	-146.6087
4507750000		0.93883	-149.9079
4607700000		0.93818	-153.2232
4707650000		0.93788	-156.4376
4807600000		0.93743	-159.7255
4907550000		0.93731	-162.9422
5007500000		0.93669	-166.1791
5107450000		0.93641	-169.3047
5207400000		0.93562	-172.4825
5307350000		0.93532	-175.5801
5407300000		0.93436	-178.6944
5507250000		0.93372	178.3099
5607200000		0.93261	175.2323
5707150000		0.93202	172.3203
5807100000		0.93065	169.3603
5907050000		0.92994	166.5424
6007000000		0.92859	163.7436
6106950000		0.92759	160.9707
6206900000		0.92647	158.3036
6306850000		0.92523	155.6519
6406800000		0.92459	153.0933
6506750000		0.92366	150.5592
6606700000		0.92332	148.0778
6706650000		0.92313	145.6999
6806600000		0.92283	143.2472
!
!				Infineon Technologies AG
