! Infineon Technologies  Discrete & RF Semiconductors
! BAT68-04W
! VCA = 5 V
! One-Port S-Parameters
# Hz  S  MA  R  50
!f									S11
!Hz							Mag  Ang
309850000		0.99901	-6.0291
409800000		0.99846	-7.9869
509750000		0.998	-9.9357
609700000		0.99743	-11.8839
709650000		0.9969	-13.8551
809600000		0.99594	-15.7957
909550000		0.99511	-17.7815
1009500000		0.99466	-19.7784
1109450000		0.9941	-21.8561
1209400000		0.99325	-23.8231
1309350000		0.99276	-25.9455
1409300000		0.99233	-27.9901
1509250000		0.99159	-30.1562
1609200000		0.9909	-32.2316
1709150000		0.99058	-34.4351
1809100000		0.98985	-36.6382
1909050000		0.98904	-38.9087
2009000000		0.9878	-41.1529
2108950000		0.98722	-43.5238
2208900000		0.98618	-45.8135
2308850000		0.98498	-48.208
2408800000		0.98388	-50.578
2508750000		0.98293	-52.9933
2608700000		0.98192	-55.4781
2708650000		0.98144	-57.9498
2808600000		0.97993	-60.5084
2908550000		0.97872	-63.0191
3008500000		0.97767	-65.6257
3108450000		0.9765	-68.2188
3208400000		0.97542	-70.858
3308350000		0.9742	-73.5209
3408300000		0.97322	-76.2092
3508250000		0.97218	-78.9679
3608200000		0.97082	-81.6954
3708150000		0.96955	-84.4755
3808100000		0.96844	-87.2707
3908050000		0.96716	-90.1325
4008000000		0.96586	-92.9663
4107950000		0.96449	-95.8757
4207900000		0.96316	-98.7368
4307850000		0.9621	-101.6878
4407800000		0.96078	-104.5854
4507750000		0.95985	-107.5127
4607700000		0.95874	-110.5332
4707650000		0.95823	-113.4881
4807600000		0.95725	-116.544
4907550000		0.95684	-119.6042
5007500000		0.95587	-122.7367
5107450000		0.95529	-125.8168
5207400000		0.95446	-128.9644
5307350000		0.95387	-132.1231
5407300000		0.95287	-135.3463
5507250000		0.95214	-138.5115
5607200000		0.95078	-141.7941
5707150000		0.94997	-145.0185
5807100000		0.94835	-148.3008
5907050000		0.94697	-151.5499
6007000000		0.94537	-154.7741
6106950000		0.94341	-158.0153
6206900000		0.94162	-161.2421
6306850000		0.93935	-164.4268
6406800000		0.93778	-167.6059
6506750000		0.93554	-170.7232
6606700000		0.93382	-173.8866
6706650000		0.93225	-176.8972
6806600000		0.93067	179.9802
!
!				Infineon Technologies AG
