! Infineon Technologies  Discrete & RF Semiconductors
! BAT68-04W
! VCA = 3 V
! One-Port S-Parameters
# Hz  S  MA  R  50
!f									S11
!Hz							Mag  Ang
309850000		0.99938	-6.2668
409800000		0.99854	-8.2529
509750000		0.99801	-10.2651
609700000		0.99734	-12.2788
709650000		0.99678	-14.3181
809600000		0.99591	-16.3261
909550000		0.99528	-18.4057
1009500000		0.99461	-20.4377
1109450000		0.994	-22.5861
1209400000		0.99317	-24.6225
1309350000		0.99266	-26.8138
1409300000		0.99218	-28.9289
1509250000		0.99142	-31.1654
1609200000		0.99071	-33.3134
1709150000		0.9903	-35.5914
1809100000		0.98955	-37.8685
1909050000		0.98874	-40.2118
2009000000		0.98745	-42.5335
2108950000		0.98681	-44.9786
2208900000		0.98555	-47.3125
2308850000		0.98452	-49.8206
2408800000		0.98333	-52.2637
2508750000		0.98238	-54.7569
2608700000		0.98144	-57.3201
2708650000		0.98085	-59.8727
2808600000		0.9793	-62.5072
2908550000		0.97786	-65.0581
3008500000		0.97692	-67.781
3108450000		0.97545	-70.4166
3208400000		0.97459	-73.1679
3308350000		0.97337	-75.9059
3408300000		0.97233	-78.6718
3508250000		0.97119	-81.5058
3608200000		0.96976	-84.3059
3708150000		0.96851	-87.1587
3808100000		0.96737	-90.0263
3908050000		0.96601	-92.9563
4008000000		0.9647	-95.8619
4107950000		0.96337	-98.8308
4207900000		0.96205	-101.7591
4307850000		0.96089	-104.7717
4407800000		0.95962	-107.7274
4507750000		0.95868	-110.7146
4607700000		0.95754	-113.7899
4707650000		0.957	-116.7967
4807600000		0.95612	-119.9043
4907550000		0.95567	-123.0122
5007500000		0.95474	-126.1898
5107450000		0.9542	-129.3052
5207400000		0.95338	-132.4942
5307350000		0.95279	-135.6867
5407300000		0.95176	-138.9352
5507250000		0.95097	-142.1233
5607200000		0.94965	-145.428
5707150000		0.94885	-148.6626
5807100000		0.94719	-151.9539
5907050000		0.94583	-155.201
6007000000		0.94422	-158.4213
6106950000		0.94232	-161.6531
6206900000		0.94053	-164.8604
6306850000		0.93834	-168.0265
6406800000		0.93682	-171.1796
6506750000		0.93472	-174.2729
6606700000		0.93315	-177.3964
6706650000		0.93167	179.6273
6806600000		0.93014	176.5418
!
!				Infineon Technologies AG
