! Infineon Technologies  Discrete & RF Semiconductors
! BAT68-04W
! IAC = 5 mA
! One-Port S-Parameters
# Hz  S  MA  R  50
!f									S11
!Hz							Mag  Ang
309850000		0.72084	174.7832
409800000		0.72035	173.2264
509750000		0.71965	171.7034
609700000		0.71968	170.1507
709650000		0.71957	168.623
809600000		0.71976	167.0616
909550000		0.72022	165.5956
1009500000		0.72098	164.0385
1109450000		0.72156	162.5975
1209400000		0.72208	161.0498
1309350000		0.72288	159.6465
1409300000		0.72368	158.1318
1509250000		0.7245	156.7168
1609200000		0.7253	155.2458
1709150000		0.72669	153.8495
1809100000		0.72778	152.4419
1909050000		0.72876	151.0589
2009000000		0.72999	149.6712
2108950000		0.73111	148.4212
2208900000		0.73255	147.0464
2308850000		0.73396	145.7461
2408800000		0.73505	144.4459
2508750000		0.73666	143.149
2608700000		0.73825	141.9035
2708650000		0.7397	140.5676
2808600000		0.74123	139.4044
2908550000		0.74268	138.1243
3008500000		0.74458	136.843
3108450000		0.74611	135.6092
3208400000		0.7478	134.368
3308350000		0.7494	133.1507
3408300000		0.75081	131.9416
3508250000		0.75269	130.7105
3608200000		0.75439	129.5048
3708150000		0.75606	128.3339
3808100000		0.75767	127.0963
3908050000		0.75927	125.9673
4008000000		0.76118	124.7356
4107950000		0.76271	123.6149
4207900000		0.76466	122.3869
4307850000		0.76631	121.2634
4407800000		0.76812	120.0757
4507750000		0.76979	118.8694
4607700000		0.77219	117.7082
4707650000		0.77364	116.4951
4807600000		0.77533	115.2994
4907550000		0.77697	114.1377
5007500000		0.7787	112.9776
5107450000		0.78036	111.8239
5207400000		0.78179	110.629
5307350000		0.78329	109.4977
5407300000		0.78458	108.3542
5507250000		0.78572	107.2427
5607200000		0.78729	106.1269
5707150000		0.78882	105.097
5807100000		0.79054	103.9942
5907050000		0.79235	102.9896
6007000000		0.7936	101.9265
6106950000		0.79552	100.8676
6206900000		0.79698	99.894
6306850000		0.79884	98.8465
6406800000		0.80051	97.9085
6506750000		0.80241	96.8749
6606700000		0.80467	95.9468
6706650000		0.80686	94.9608
6806600000		0.80918	93.9549
!
!				Infineon Technologies AG
