! Infineon Technologies  Discrete & RF Semiconductors
! BAT68-04W
! IAC = 0.06 mA
! One-Port S-Parameters
# Hz  S  MA  R  50
!f									S11
!Hz							Mag  Ang
309850000		0.85921	-11.4564
409800000		0.85859	-15.1531
509750000		0.85763	-18.8745
609700000		0.85696	-22.6124
709650000		0.85835	-26.3727
809600000		0.85301	-30.2343
909550000		0.8535	-34.077
1009500000		0.85487	-37.7671
1109450000		0.85574	-41.5943
1209400000		0.85107	-45.4549
1309350000		0.84939	-49.455
1409300000		0.84698	-53.395
1509250000		0.84444	-57.451
1609200000		0.84354	-61.3398
1709150000		0.84945	-64.9666
1809100000		0.8471	-69.0658
1909050000		0.84287	-73.2794
2009000000		0.83887	-77.4523
2108950000		0.8416	-81.3702
2208900000		0.84015	-85.4056
2308850000		0.83926	-89.4864
2408800000		0.83908	-93.4562
2508750000		0.83797	-97.519
2608700000		0.83832	-101.5081
2708650000		0.83662	-105.6514
2808600000		0.83998	-109.339
2908550000		0.838	-113.4033
3008500000		0.8353	-117.4345
3108450000		0.83606	-121.3128
3208400000		0.83831	-124.9945
3308350000		0.83998	-128.7091
3408300000		0.84033	-132.5139
3508250000		0.84125	-136.2302
3608200000		0.84121	-139.9533
3708150000		0.84174	-143.6004
3808100000		0.84258	-147.2125
3908050000		0.84361	-150.7189
4008000000		0.84346	-154.3597
4107950000		0.84465	-157.7371
4207900000		0.84735	-160.9746
4307850000		0.85009	-164.114
4407800000		0.85045	-167.4857
4507750000		0.85167	-170.7256
4607700000		0.85371	-173.9023
4707650000		0.85729	-176.7803
4807600000		0.85923	-179.8816
4907550000		0.86193	177.1795
5007500000		0.86327	174.12
5107450000		0.86441	171.1354
5207400000		0.86632	168.2649
5307350000		0.86869	165.5128
5407300000		0.8702	162.7266
5507250000		0.87083	159.9331
5607200000		0.87173	157.1637
5707150000		0.87328	154.6111
5807100000		0.87445	152.0307
5907050000		0.87552	149.5273
6007000000		0.87659	147.1277
6106950000		0.87791	144.7426
6206900000		0.87879	142.4468
6306850000		0.87957	140.1235
6406800000		0.8808	137.9269
6506750000		0.88167	135.7287
6606700000		0.88318	133.6074
6706650000		0.88472	131.5527
6806600000		0.88637	129.4672
!
!				Infineon Technologies AG
