! Infineon Technologies  Discrete & RF Semiconductors
! BAT68-04W
! IAC = 0.02 mA
! One-Port S-Parameters
# Hz  S  MA  R  50
!f									S11
!Hz							Mag  Ang
309850000		0.95044	-11.0006
409800000		0.94956	-14.5303
509750000		0.9485	-18.0857
609700000		0.94758	-21.6514
709650000		0.94735	-25.2183
809600000		0.94426	-28.8895
909550000		0.94363	-32.5223
1009500000		0.94343	-36.0585
1109450000		0.94285	-39.7146
1209400000		0.93986	-43.4308
1309350000		0.9383	-47.2369
1409300000		0.93635	-51.0018
1509250000		0.93422	-54.8764
1609200000		0.93256	-58.6037
1709150000		0.93393	-62.1382
1809100000		0.93179	-66.0501
1909050000		0.92869	-70.1167
2009000000		0.92542	-74.1397
2108950000		0.92525	-77.9209
2208900000		0.92311	-81.8344
2308850000		0.92125	-85.8005
2408800000		0.91937	-89.6838
2508750000		0.91754	-93.6336
2608700000		0.91632	-97.5229
2708650000		0.9143	-101.572
2808600000		0.91426	-105.1868
2908550000		0.9119	-109.1759
3008500000		0.90917	-113.1894
3108450000		0.90808	-116.9889
3208400000		0.90799	-120.6181
3308350000		0.90745	-124.3059
3408300000		0.90645	-128.0945
3508250000		0.90571	-131.8035
3608200000		0.90457	-135.4971
3708150000		0.90373	-139.1513
3808100000		0.90302	-142.7889
3908050000		0.90235	-146.3264
4008000000		0.90128	-149.9773
4107950000		0.90089	-153.3895
4207900000		0.90149	-156.6548
4307850000		0.90198	-159.8435
4407800000		0.90148	-163.2574
4507750000		0.90143	-166.555
4607700000		0.90191	-169.7868
4707650000		0.90329	-172.7144
4807600000		0.90381	-175.885
4907550000		0.90484	-178.8969
5007500000		0.90495	177.9734
5107450000		0.90525	174.9246
5207400000		0.90554	171.9792
5307350000		0.90635	169.1483
5407300000		0.90636	166.2863
5507250000		0.9062	163.4145
5607200000		0.90589	160.5663
5707150000		0.90618	157.9326
5807100000		0.90597	155.2758
5907050000		0.90604	152.6865
6007000000		0.90571	150.2115
6106950000		0.90584	147.7476
6206900000		0.90564	145.3742
6306850000		0.90535	142.9739
6406800000		0.90555	140.6981
6506750000		0.90555	138.431
6606700000		0.90611	136.2361
6706650000		0.90674	134.1122
6806600000		0.90744	131.9566
!
!				Infineon Technologies AG
