! Infineon Technologies  Discrete & RF Semiconductors
! BAT68-04W
! IAC = 0.01 mA
! One-Port S-Parameters
# Hz  S  MA  R  50
!f									S11
!Hz							Mag  Ang
309850000		0.97432	-10.7593
409800000		0.97337	-14.2011
509750000		0.97233	-17.677
609700000		0.9713	-21.1532
709650000		0.97075	-24.6342
809600000		0.96835	-28.2101
909550000		0.96744	-31.7497
1009500000		0.96671	-35.2053
1109450000		0.96573	-38.7807
1209400000		0.96338	-42.4108
1309350000		0.96189	-46.1292
1409300000		0.9602	-49.8039
1509250000		0.95832	-53.5938
1609200000		0.95654	-57.2427
1709150000		0.95654	-60.7275
1809100000		0.9545	-64.5515
1909050000		0.95185	-68.5319
2009000000		0.94898	-72.4745
2108950000		0.94797	-76.1976
2208900000		0.94573	-80.046
2308850000		0.94348	-83.9126
2408800000		0.94149	-87.7846
2508750000		0.93954	-91.671
2608700000		0.93794	-95.5063
2708650000		0.93605	-99.5002
2808600000		0.93475	-103.0508
2908550000		0.93262	-107.0263
3008500000		0.92975	-110.9686
3108450000		0.9285	-114.7678
3208400000		0.92759	-118.3743
3308350000		0.92657	-122.0441
3408300000		0.92519	-125.8174
3508250000		0.92406	-129.5152
3608200000		0.92264	-133.1896
3708150000		0.92143	-136.8381
3808100000		0.9203	-140.4768
3908050000		0.91924	-144.0267
4008000000		0.91804	-147.6772
4107950000		0.9172	-151.1016
4207900000		0.91707	-154.3775
4307850000		0.91698	-157.5841
4407800000		0.91629	-161.0118
4507750000		0.91586	-164.3352
4607700000		0.91596	-167.5901
4707650000		0.91671	-170.5422
4807600000		0.91678	-173.7463
4907550000		0.9173	-176.7881
5007500000		0.91713	-179.952
5107450000		0.91721	176.9707
5207400000		0.91704	173.9882
5307350000		0.91735	171.1223
5407300000		0.917	168.2189
5507250000		0.91663	165.3119
5607200000		0.91596	162.4219
5707150000		0.91587	159.7512
5807100000		0.91529	157.0516
5907050000		0.91507	154.4187
6007000000		0.91432	151.9043
6106950000		0.91404	149.4025
6206900000		0.91353	146.9854
6306850000		0.91297	144.5475
6406800000		0.91289	142.2292
6506750000		0.91256	139.9239
6606700000		0.91284	137.6894
6706650000		0.91323	135.532
6806600000		0.91362	133.3384
!
!				Infineon Technologies AG
