! Infineon Technologies  Discrete & RF Semiconductors
! BAT68-04W
! IAC = 0.7 mA
! One-Port S-Parameters
# Hz  S  MA  R  50
!f									S11
!Hz							Mag  Ang
309850000		0.03532	-124.1477
409800000		0.04541	-124.238
509750000		0.05627	-122.2679
609700000		0.06772	-123.5447
709650000		0.07933	-121.3347
809600000		0.09139	-123.0817
909550000		0.10575	-124.0788
1009500000		0.11671	-127.2283
1109450000		0.12923	-128.7055
1209400000		0.13878	-131.8229
1309350000		0.15299	-133.8114
1409300000		0.16531	-136.2702
1509250000		0.17854	-139.6818
1609200000		0.19089	-142.0166
1709150000		0.20177	-143.5268
1809100000		0.21587	-146.5499
1909050000		0.22774	-149.6049
2009000000		0.24039	-152.2788
2108950000		0.25462	-154.1617
2208900000		0.2674	-156.2538
2308850000		0.28052	-158.5737
2408800000		0.29316	-160.0467
2508750000		0.30579	-162.3747
2608700000		0.31932	-164.6104
2708650000		0.33166	-166.9547
2808600000		0.34547	-169.1152
2908550000		0.35776	-171.3098
3008500000		0.36778	-174.032
3108450000		0.38056	-176.036
3208400000		0.39265	-178.2838
3308350000		0.4057	179.8636
3408300000		0.41759	177.7718
3508250000		0.42991	175.678
3608200000		0.44065	173.2637
3708150000		0.45239	171.253
3808100000		0.46373	169.3499
3908050000		0.47507	167.4725
4008000000		0.48571	165.1891
4107950000		0.49653	163.2341
4207900000		0.50769	161.3124
4307850000		0.5185	159.5272
4407800000		0.52856	157.4231
4507750000		0.5387	155.4943
4607700000		0.54911	153.523
4707650000		0.55908	151.7635
4807600000		0.56906	149.8733
4907550000		0.57906	148.083
5007500000		0.58867	146.1455
5107450000		0.59711	144.1221
5207400000		0.60651	142.3191
5307350000		0.61588	140.575
5407300000		0.62454	138.7529
5507250000		0.63219	136.8555
5607200000		0.64039	134.9777
5707150000		0.64848	133.277
5807100000		0.65661	131.5395
5907050000		0.66433	129.8432
6007000000		0.67174	128.2166
6106950000		0.67935	126.5577
6206900000		0.68638	124.9731
6306850000		0.69329	123.3335
6406800000		0.70024	121.8027
6506750000		0.70681	120.1992
6606700000		0.71387	118.6884
6706650000		0.72038	117.1873
6806600000		0.72728	115.6564
!
!				Infineon Technologies AG
