! Infineon Technologies  Discrete & RF Semiconductors
! BAT68-04W
! VCA = 2 V
! One-Port S-Parameters
# Hz  S  MA  R  50
!f									S11
!Hz							Mag  Ang
309850000		0.9991	-6.4327
409800000		0.99856	-8.5144
509750000		0.99802	-10.5881
609700000		0.99739	-12.6681
709650000		0.9968	-14.7721
809600000		0.99584	-16.8439
909550000		0.99515	-18.9891
1009500000		0.99453	-21.0885
1109450000		0.99386	-23.3022
1209400000		0.99303	-25.4065
1309350000		0.99249	-27.6673
1409300000		0.99194	-29.8517
1509250000		0.99121	-32.1585
1609200000		0.9904	-34.3771
1709150000		0.99005	-36.7278
1809100000		0.98929	-39.0742
1909050000		0.98838	-41.4945
2009000000		0.98702	-43.8868
2108950000		0.98639	-46.4054
2208900000		0.98523	-48.8465
2308850000		0.98398	-51.3946
2408800000		0.98264	-53.8786
2508750000		0.9818	-56.486
2608700000		0.98054	-59.0877
2708650000		0.98009	-61.7492
2808600000		0.97852	-64.4589
2908550000		0.97705	-67.0873
3008500000		0.97605	-69.8847
3108450000		0.97481	-72.6287
3208400000		0.97346	-75.3866
3308350000		0.97242	-78.2275
3408300000		0.97127	-81.0677
3508250000		0.97014	-83.9721
3608200000		0.96869	-86.8411
3708150000		0.96741	-89.7613
3808100000		0.96627	-92.6988
3908050000		0.96488	-95.688
4008000000		0.9635	-98.6558
4107950000		0.96215	-101.6861
4207900000		0.96083	-104.6746
4307850000		0.95965	-107.74
4407800000		0.95842	-110.7485
4507750000		0.95743	-113.7878
4607700000		0.95631	-116.9133
4707650000		0.9558	-119.9618
4807600000		0.95494	-123.1135
4907550000		0.95446	-126.262
5007500000		0.95355	-129.4752
5107450000		0.95309	-132.624
5207400000		0.95217	-135.8443
5307350000		0.95156	-139.0594
5407300000		0.95057	-142.3305
5507250000		0.94983	-145.532
5607200000		0.94841	-148.8517
5707150000		0.94762	-152.0872
5807100000		0.94599	-155.3816
5907050000		0.94467	-158.6205
6007000000		0.94302	-161.8313
6106950000		0.94122	-165.0511
6206900000		0.93952	-168.2328
6306850000		0.93736	-171.3786
6406800000		0.9359	-174.5003
6506750000		0.9339	-177.5611
6606700000		0.93242	179.3519
6706650000		0.93105	176.4157
6806600000		0.92962	173.3722
!
!				Infineon Technologies AG
