! Infineon Technologies  Discrete & RF Semiconductors
! BAT68-04W
! IAC = 0.08 mA
! One-Port S-Parameters
# Hz  S  MA  R  50
!f									S11
!Hz							Mag  Ang
309850000		0.81595	-11.6127
409800000		0.81555	-15.3927
509750000		0.81456	-19.1404
609700000		0.81407	-22.9403
709650000		0.81604	-26.7715
809600000		0.81	-30.7022
909550000		0.81095	-34.6325
1009500000		0.81294	-38.3727
1109450000		0.81441	-42.2603
1209400000		0.80916	-46.1593
1309350000		0.80757	-50.2339
1409300000		0.80509	-54.2423
1509250000		0.80244	-58.3589
1609200000		0.80188	-62.306
1709150000		0.80959	-65.9607
1809100000		0.80722	-70.1307
1909050000		0.80277	-74.3895
2009000000		0.79863	-78.6083
2108950000		0.80257	-82.5788
2208900000		0.80149	-86.6526
2308850000		0.80125	-90.7715
2408800000		0.8019	-94.765
2508750000		0.80132	-98.8588
2608700000		0.80226	-102.8493
2708650000		0.801	-107.0504
2808600000		0.80571	-110.7687
2908550000		0.80392	-114.8151
3008500000		0.8017	-118.8873
3108450000		0.80329	-122.7804
3208400000		0.80636	-126.4401
3308350000		0.80917	-130.1914
3408300000		0.81013	-133.9642
3508250000		0.81197	-137.7144
3608200000		0.81249	-141.4411
3708150000		0.81376	-145.0796
3808100000		0.81536	-148.6788
3908050000		0.81721	-152.1671
4008000000		0.81756	-155.7978
4107950000		0.8195	-159.1595
4207900000		0.8231	-162.3851
4307850000		0.82683	-165.5012
4407800000		0.8276	-168.855
4507750000		0.82957	-172.0724
4607700000		0.83224	-175.2241
4707650000		0.83669	-178.0802
4807600000		0.83937	178.8445
4907550000		0.84281	175.9326
5007500000		0.84469	172.9005
5107450000		0.84632	169.9381
5207400000		0.8489	167.0975
5307350000		0.85194	164.373
5407300000		0.85402	161.6147
5507250000		0.85511	158.8481
5607200000		0.85657	156.1065
5707150000		0.85864	153.5804
5807100000		0.86047	151.0282
5907050000		0.86203	148.5523
6007000000		0.86365	146.1811
6106950000		0.86549	143.8201
6206900000		0.86688	141.5495
6306850000		0.8681	139.2539
6406800000		0.8697	137.0814
6506750000		0.871	134.9056
6606700000		0.87294	132.8102
6706650000		0.87485	130.7791
6806600000		0.87692	128.7136
!
!				Infineon Technologies AG
