! Infineon Technologies  Discrete & RF Semiconductors
! BAT68-04W
! IAC = 0.5 mA
! One-Port S-Parameters
# Hz  S  MA  R  50
!f									S11
!Hz							Mag  Ang
309850000		0.17162	-19.9751
409800000		0.1714	-26.2093
509750000		0.17492	-32.8401
609700000		0.17686	-39.5789
709650000		0.18563	-45.7888
809600000		0.18825	-52.5425
909550000		0.19732	-59.2201
1009500000		0.202	-64.8838
1109450000		0.21111	-70.427
1209400000		0.21357	-75.7989
1309350000		0.22265	-81.8454
1409300000		0.23037	-87.347
1509250000		0.23655	-93.3418
1609200000		0.24601	-98.2857
1709150000		0.25873	-101.6693
1809100000		0.2679	-107.1553
1909050000		0.27466	-112.2017
2009000000		0.28334	-117.0166
2108950000		0.29786	-120.9091
2208900000		0.3093	-124.8812
2308850000		0.32087	-128.8798
2408800000		0.33456	-131.9987
2508750000		0.34587	-135.7879
2608700000		0.35861	-139.4256
2708650000		0.36968	-143.0898
2808600000		0.38371	-146.3239
2908550000		0.39496	-149.6998
3008500000		0.40289	-153.3647
3108450000		0.41559	-156.3817
3208400000		0.42752	-159.3895
3308350000		0.44128	-162.2507
3408300000		0.45285	-165.1899
3508250000		0.46503	-168.0897
3608200000		0.47463	-171.1572
3708150000		0.48611	-173.9153
3808100000		0.4977	-176.5468
3908050000		0.50913	-179.0868
4008000000		0.51886	178.0149
4107950000		0.52949	175.4911
4207900000		0.54111	173.0657
4307850000		0.55248	170.7967
4407800000		0.5617	168.1816
4507750000		0.57165	165.7728
4607700000		0.58184	163.3587
4707650000		0.59253	161.2316
4807600000		0.60244	158.9263
4907550000		0.61263	156.756
5007500000		0.62187	154.4288
5107450000		0.62966	152.065
5207400000		0.63907	149.9195
5307350000		0.64849	147.8504
5407300000		0.65696	145.7197
5507250000		0.66397	143.5266
5607200000		0.67167	141.3611
5707150000		0.6795	139.391
5807100000		0.68736	137.3918
5907050000		0.69454	135.4412
6007000000		0.70176	133.5817
6106950000		0.70903	131.699
6206900000		0.71562	129.8972
6306850000		0.72207	128.0493
6406800000		0.72859	126.314
6506750000		0.73459	124.531
6606700000		0.74117	122.8338
6706650000		0.74729	121.1642
6806600000		0.75375	119.4692
!
!				Infineon Technologies AG
