! Infineon Technologies  Discrete & RF Semiconductors
! BAT68-04W
! IAC = 10 mA
! One-Port S-Parameters
# Hz  S  MA  R  50
!f									S11
!Hz							Mag  Ang
309850000		0.8047	174.6951
409800000		0.804	173.1071
509750000		0.80302	171.548
609700000		0.80266	170.003
709650000		0.80257	168.4044
809600000		0.80258	166.809
909550000		0.80269	165.3034
1009500000		0.80304	163.7171
1109450000		0.80327	162.2398
1209400000		0.80344	160.6608
1309350000		0.80384	159.2229
1409300000		0.80426	157.6757
1509250000		0.80453	156.229
1609200000		0.80485	154.7323
1709150000		0.80559	153.306
1809100000		0.80624	151.867
1909050000		0.80666	150.4507
2009000000		0.80745	149.0332
2108950000		0.80791	147.7557
2208900000		0.8089	146.3474
2308850000		0.8096	145.0512
2408800000		0.81044	143.6821
2508750000		0.81146	142.3552
2608700000		0.81236	141.11
2708650000		0.81342	139.7116
2808600000		0.81427	138.5201
2908550000		0.81539	137.1818
3008500000		0.81646	135.9178
3108450000		0.81744	134.6528
3208400000		0.81852	133.3867
3308350000		0.81949	132.1386
3408300000		0.82048	130.8707
3508250000		0.82152	129.6477
3608200000		0.82233	128.456
3708150000		0.82358	127.2252
3808100000		0.82463	125.963
3908050000		0.82566	124.8069
4008000000		0.82688	123.5512
4107950000		0.82773	122.41
4207900000		0.82903	121.1597
4307850000		0.83002	120.0159
4407800000		0.83121	118.8049
4507750000		0.83226	117.5787
4607700000		0.83396	116.4019
4707650000		0.83474	115.166
4807600000		0.83575	113.9512
4907550000		0.83664	112.7697
5007500000		0.83762	111.595
5107450000		0.83845	110.4275
5207400000		0.83912	109.2179
5307350000		0.83993	108.072
5407300000		0.84037	106.9162
5507250000		0.84067	105.794
5607200000		0.84141	104.6711
5707150000		0.84207	103.6348
5807100000		0.84306	102.5274
5907050000		0.84412	101.5181
6007000000		0.84454	100.449
6106950000		0.84573	99.3851
6206900000		0.84643	98.4119
6306850000		0.84758	97.3583
6406800000		0.84853	96.4135
6506750000		0.84977	95.3793
6606700000		0.85132	94.4507
6706650000		0.8529	93.4618
6806600000		0.85452	92.4552
!
!				Infineon Technologies AG
