! Infineon Technologies  Discrete & RF Semiconductors
! BAT68-04W
! IAC = 8 mA
! One-Port S-Parameters
# Hz  S  MA  R  50
!f									S11
!Hz							Mag  Ang
309850000		0.78352	174.7115
409800000		0.78265	173.1642
509750000		0.78197	171.5785
609700000		0.78177	170.0031
709650000		0.78162	168.4461
809600000		0.78169	166.8561
909550000		0.78179	165.3607
1009500000		0.78225	163.7779
1109450000		0.78256	162.3059
1209400000		0.78283	160.7353
1309350000		0.78333	159.3033
1409300000		0.78385	157.7634
1509250000		0.78432	156.3215
1609200000		0.78471	154.8255
1709150000		0.78561	153.4095
1809100000		0.78637	151.9753
1909050000		0.78694	150.5671
2009000000		0.7878	149.1539
2108950000		0.7886	147.8471
2208900000		0.78957	146.4806
2308850000		0.79056	145.1561
2408800000		0.79115	143.8583
2508750000		0.79251	142.505
2608700000		0.79355	141.2651
2708650000		0.79475	139.8765
2808600000		0.79588	138.6555
2908550000		0.79679	137.3881
3008500000		0.79819	136.0953
3108450000		0.79932	134.8361
3208400000		0.80049	133.5752
3308350000		0.80151	132.365
3408300000		0.80276	131.069
3508250000		0.80393	129.8515
3608200000		0.80511	128.6297
3708150000		0.80633	127.4388
3808100000		0.80752	126.1828
3908050000		0.80868	125.0297
4008000000		0.81007	123.7835
4107950000		0.81108	122.6443
4207900000		0.81256	121.4005
4307850000		0.81368	120.2596
4407800000		0.815	119.0537
4507750000		0.81619	117.8315
4607700000		0.81804	116.6599
4707650000		0.81898	115.4291
4807600000		0.82014	114.2162
4907550000		0.82121	113.0396
5007500000		0.8224	111.8675
5107450000		0.82335	110.7039
5207400000		0.82425	109.4979
5307350000		0.8252	108.3545
5407300000		0.82586	107.2044
5507250000		0.82637	106.0841
5607200000		0.82732	104.964
5707150000		0.82818	103.9278
5807100000		0.82932	102.8223
5907050000		0.83058	101.8162
6007000000		0.8312	100.7447
6106950000		0.83256	99.6838
6206900000		0.83344	98.7092
6306850000		0.83477	97.6591
6406800000		0.83587	96.7182
6506750000		0.83725	95.6831
6606700000		0.83899	94.755
6706650000		0.84068	93.7654
6806600000		0.84251	92.7587
!
!				Infineon Technologies AG
