! Infineon Technologies  Discrete & RF Semiconductors
! BAT68-04W
! IAC = 0.4 mA
! One-Port S-Parameters
# Hz  S  MA  R  50
!f									S11
!Hz							Mag  Ang
309850000		0.28688	-15.7123
409800000		0.28601	-20.6226
509750000		0.28817	-25.8852
609700000		0.2884	-31.2185
709650000		0.29547	-36.4717
809600000		0.29402	-42.0243
909550000		0.30068	-47.7536
1009500000		0.30393	-52.6024
1109450000		0.31093	-57.6584
1209400000		0.30986	-62.4143
1309350000		0.31488	-68.0251
1409300000		0.319	-73.2378
1509250000		0.32101	-78.7506
1609200000		0.32759	-83.6702
1709150000		0.34079	-87.3203
1809100000		0.34577	-92.7658
1909050000		0.3484	-97.789
2009000000		0.3529	-102.7094
2108950000		0.36601	-107.0666
2208900000		0.37459	-111.3927
2308850000		0.38372	-115.7793
2408800000		0.39596	-119.5183
2508750000		0.40483	-123.6584
2608700000		0.41553	-127.7001
2708650000		0.42417	-131.7821
2808600000		0.43739	-135.3776
2908550000		0.44645	-139.2294
3008500000		0.45201	-143.1404
3108450000		0.46341	-146.6271
3208400000		0.47443	-149.955
3308350000		0.48698	-153.1761
3408300000		0.49732	-156.5148
3508250000		0.50823	-159.7469
3608200000		0.51656	-163.1294
3708150000		0.52673	-166.2369
3808100000		0.53739	-169.2159
3908050000		0.54787	-172.086
4008000000		0.55609	-175.2318
4107950000		0.56599	-178.0748
4207900000		0.5771	179.2408
4307850000		0.58795	176.7094
4407800000		0.59601	173.8467
4507750000		0.60521	171.1906
4607700000		0.61464	168.5521
4707650000		0.62511	166.2206
4807600000		0.63437	163.6951
4907550000		0.64405	161.3161
5007500000		0.65248	158.7894
5107450000		0.65946	156.2549
5207400000		0.66829	153.9211
5307350000		0.67722	151.676
5407300000		0.68509	149.3796
5507250000		0.6913	147.0333
5607200000		0.69828	144.7149
5707150000		0.70554	142.6011
5807100000		0.71283	140.4649
5907050000		0.71932	138.3796
6007000000		0.72596	136.3905
6106950000		0.7327	134.3902
6206900000		0.73873	132.4716
6306850000		0.74451	130.5125
6406800000		0.75043	128.673
6506750000		0.75588	126.7904
6606700000		0.76193	124.9968
6706650000		0.76749	123.2413
6806600000		0.77342	121.455
!
!				Infineon Technologies AG
