! Infineon Technologies  Discrete & RF Semiconductors
! BAT68-04W
! IAC = 0.04 mA
! One-Port S-Parameters
# Hz  S  MA  R  50
!f									S11
!Hz							Mag  Ang
309850000		0.90401	-11.2716
409800000		0.90326	-14.9033
509750000		0.90223	-18.5579
609700000		0.90147	-22.2176
709650000		0.90212	-25.8988
809600000		0.89771	-29.6808
909550000		0.89765	-33.4302
1009500000		0.89833	-37.0571
1109450000		0.8985	-40.8151
1209400000		0.89448	-44.6215
1309350000		0.89289	-48.5363
1409300000		0.89061	-52.4059
1509250000		0.88826	-56.3859
1609200000		0.88699	-60.2059
1709150000		0.8908	-63.7971
1809100000		0.88849	-67.8158
1909050000		0.88467	-71.9726
2009000000		0.88097	-76.0833
2108950000		0.88232	-79.9455
2208900000		0.88027	-83.8988
2308850000		0.87916	-87.9674
2408800000		0.87801	-91.9032
2508750000		0.87649	-95.9202
2608700000		0.87605	-99.8702
2708650000		0.87397	-103.9429
2808600000		0.87592	-107.6372
2908550000		0.87351	-111.6369
3008500000		0.87102	-115.7202
3108450000		0.87079	-119.5482
3208400000		0.87188	-123.2103
3308350000		0.87253	-126.9135
3408300000		0.87218	-130.7146
3508250000		0.87212	-134.4018
3608200000		0.87165	-138.1478
3708150000		0.8715	-141.8004
3808100000		0.87154	-145.4226
3908050000		0.87172	-148.9467
4008000000		0.8711	-152.5939
4107950000		0.87156	-155.991
4207900000		0.87322	-159.2406
4307850000		0.87491	-162.398
4407800000		0.87481	-165.7894
4507750000		0.87545	-169.0568
4607700000		0.8767	-172.2563
4707650000		0.87923	-175.1573
4807600000		0.8805	-178.2865
4907550000		0.8824	178.7424
5007500000		0.88312	175.6538
5107450000		0.88384	172.6413
5207400000		0.88499	169.7387
5307350000		0.88663	166.9538
5407300000		0.88739	164.1348
5507250000		0.88764	161.3076
5607200000		0.888	158.5073
5707150000		0.88891	155.9206
5807100000		0.88942	153.3092
5907050000		0.89006	150.7688
6007000000		0.89048	148.341
6106950000		0.89118	145.9228
6206900000		0.89156	143.5963
6306850000		0.89183	141.2432
6406800000		0.89255	139.0141
6506750000		0.89307	136.7869
6606700000		0.89409	134.6387
6706650000		0.89516	132.5568
6806600000		0.89641	130.44
!
!				Infineon Technologies AG
