! Infineon Technologies  Discrete & RF Semiconductors
! BAT68-04W
! IAC = 0.03 mA
! One-Port S-Parameters
# Hz  S  MA  R  50
!f									S11
!Hz							Mag  Ang
309850000		0.92669	-11.1181
409800000		0.92618	-14.7425
509750000		0.92511	-18.3525
609700000		0.92427	-21.9724
709650000		0.92454	-25.6018
809600000		0.92074	-29.3341
909550000		0.92035	-33.0314
1009500000		0.92066	-36.6201
1109450000		0.92044	-40.3309
1209400000		0.91692	-44.1011
1309350000		0.91526	-47.968
1409300000		0.91309	-51.788
1509250000		0.9109	-55.7246
1609200000		0.90941	-59.5032
1709150000		0.91205	-63.0691
1809100000		0.90987	-67.0397
1909050000		0.90639	-71.159
2009000000		0.90287	-75.2325
2108950000		0.9035	-79.0581
2208900000		0.90143	-83.0127
2308850000		0.89977	-87.0168
2408800000		0.89815	-90.8953
2508750000		0.89665	-94.9225
2608700000		0.89583	-98.8455
2708650000		0.89363	-102.8928
2808600000		0.89471	-106.5679
2908550000		0.89242	-110.584
3008500000		0.88964	-114.6191
3108450000		0.889	-118.4318
3208400000		0.8896	-122.0816
3308350000		0.88966	-125.7768
3408300000		0.88891	-129.5742
3508250000		0.88863	-133.2891
3608200000		0.88776	-136.9953
3708150000		0.88724	-140.6499
3808100000		0.88689	-144.2799
3908050000		0.88667	-147.811
4008000000		0.88577	-151.4589
4107950000		0.88585	-154.864
4207900000		0.88693	-158.1224
4307850000		0.88809	-161.2919
4407800000		0.88778	-164.6951
4507750000		0.88801	-167.9766
4607700000		0.88893	-171.1911
4707650000		0.89097	-174.1021
4807600000		0.89187	-177.252
4907550000		0.8933	179.7607
5007500000		0.89376	176.6531
5107450000		0.89428	173.6237
5207400000		0.89494	170.7028
5307350000		0.89617	167.8984
5407300000		0.89665	165.0601
5507250000		0.89665	162.2141
5607200000		0.89661	159.3901
5707150000		0.89727	156.7839
5807100000		0.89747	154.1528
5907050000		0.89781	151.5916
6007000000		0.89784	149.1425
6106950000		0.89829	146.7047
6206900000		0.8984	144.3591
6306850000		0.89841	141.9853
6406800000		0.89885	139.736
6506750000		0.89912	137.4908
6606700000		0.89995	135.3218
6706650000		0.9008	133.2211
6806600000		0.90178	131.0899
!
!				Infineon Technologies AG
