! Infineon Technologies  Discrete & RF Semiconductors
! BAT68-04W
! VCA = 4 V
! One-Port S-Parameters
# Hz  S  MA  R  50
!f									S11
!Hz							Mag  Ang
309850000		0.99904	-6.1148
409800000		0.99851	-8.0973
509750000		0.99803	-10.0715
609700000		0.99736	-12.0488
709650000		0.99686	-14.047
809600000		0.99596	-16.0171
909550000		0.99529	-18.0571
1009500000		0.99464	-20.0509
1109450000		0.99401	-22.1561
1209400000		0.99323	-24.1533
1309350000		0.99272	-26.3045
1409300000		0.99228	-28.3798
1509250000		0.99153	-30.5733
1609200000		0.99081	-32.6777
1709150000		0.99049	-34.9138
1809100000		0.98973	-37.1481
1909050000		0.98891	-39.4481
2009000000		0.98764	-41.7233
2108950000		0.98707	-44.1251
2208900000		0.98592	-46.4481
2308850000		0.98475	-48.874
2408800000		0.98359	-51.2758
2508750000		0.98265	-53.7248
2608700000		0.98168	-56.2405
2708650000		0.98123	-58.7432
2808600000		0.97965	-61.3355
2908550000		0.97849	-63.8798
3008500000		0.97737	-66.5174
3108450000		0.97622	-69.1436
3208400000		0.97507	-71.816
3308350000		0.97386	-74.511
3408300000		0.97271	-77.1955
3508250000		0.9718	-80.0223
3608200000		0.97041	-82.7788
3708150000		0.96915	-85.5892
3808100000		0.96795	-88.414
3908050000		0.96664	-91.3048
4008000000		0.9654	-94.1696
4107950000		0.96404	-97.104
4207900000		0.96271	-99.9951
4307850000		0.96159	-102.9703
4407800000		0.96028	-105.8917
4507750000		0.95936	-108.8446
4607700000		0.9582	-111.8918
4707650000		0.95773	-114.8677
4807600000		0.95681	-117.9465
4907550000		0.95639	-121.0245
5007500000		0.95537	-124.1753
5107450000		0.95486	-127.2745
5207400000		0.95402	-130.4383
5307350000		0.95338	-133.6107
5407300000		0.95239	-136.8461
5507250000		0.95168	-140.0216
5607200000		0.95028	-143.3152
5707150000		0.9495	-146.5445
5807100000		0.94786	-149.8308
5907050000		0.9465	-153.0813
6007000000		0.9449	-156.3051
6106950000		0.94295	-159.5412
6206900000		0.94112	-162.7609
6306850000		0.93888	-165.9399
6406800000		0.93738	-169.1089
6506750000		0.93518	-172.2168
6606700000		0.93352	-175.363
6706650000		0.93202	-178.3612
6806600000		0.93043	178.5331
!
!				Infineon Technologies AG
