! Infineon Technologies  Discrete & RF Semiconductors
! BAT68-04W
! IAC = 0.9 mA
! One-Port S-Parameters
# Hz  S  MA  R  50
!f									S11
!Hz							Mag  Ang
309850000		0.15303	-176.7943
409800000		0.1573	-176.033
509750000		0.16048	-174.822
609700000		0.16561	-174.0582
709650000		0.16812	-172.503
809600000		0.17326	-171.6502
909550000		0.18037	-170.5308
1009500000		0.18844	-170.938
1109450000		0.19562	-170.6064
1209400000		0.20269	-171.3008
1309350000		0.21138	-171.0909
1409300000		0.21983	-171.5592
1509250000		0.2306	-172.4824
1609200000		0.23957	-173.2328
1709150000		0.24763	-174.0176
1809100000		0.25885	-175.0574
1909050000		0.26907	-176.4051
2009000000		0.27932	-177.5389
2108950000		0.29007	-178.3703
2208900000		0.29994	-179.337
2308850000		0.31069	179.4673
2408800000		0.31962	178.7924
2508750000		0.33031	177.4209
2608700000		0.34153	176.1729
2708650000		0.35199	174.7059
2808600000		0.36369	173.3047
2908550000		0.37393	171.961
3008500000		0.38365	169.98
3108450000		0.39429	168.657
3208400000		0.40501	167.0072
3308350000		0.41586	165.7498
3408300000		0.42631	164.2187
3508250000		0.43694	162.7352
3608200000		0.44707	160.8748
3708150000		0.45739	159.3965
3808100000		0.46717	157.9611
3908050000		0.47711	156.5465
4008000000		0.48705	154.7491
4107950000		0.49683	153.2161
4207900000		0.50671	151.6516
4307850000		0.51624	150.2077
4407800000		0.52566	148.5114
4507750000		0.53485	146.9322
4607700000		0.5445	145.2977
4707650000		0.55327	143.8017
4807600000		0.5624	142.2195
4907550000		0.57141	140.7091
5007500000		0.58043	139.0785
5107450000		0.58859	137.3388
5207400000		0.59717	135.7935
5307350000		0.60579	134.2944
5407300000		0.61387	132.7146
5507250000		0.62128	131.0638
5607200000		0.62923	129.4212
5707150000		0.63694	127.9355
5807100000		0.64463	126.4045
5907050000		0.6522	124.9188
6007000000		0.65914	123.4768
6106950000		0.6665	121.9985
6206900000		0.67333	120.5893
6306850000		0.68015	119.1245
6406800000		0.68692	117.7621
6506750000		0.69339	116.312
6606700000		0.7004	114.9546
6706650000		0.70685	113.5949
6806600000		0.71363	112.2042
!
!				Infineon Technologies AG
