! Infineon Technologies  Discrete & RF Semiconductors
! BAT68-04W
! IAC = 6 mA
! One-Port S-Parameters
# Hz  S  MA  R  50
!f									S11
!Hz							Mag  Ang
309850000		0.74837	174.7469
409800000		0.7478	173.1776
509750000		0.74717	171.6079
609700000		0.74694	170.0801
709650000		0.74669	168.5686
809600000		0.747	166.9571
909550000		0.7473	165.4779
1009500000		0.74793	163.9092
1109450000		0.74834	162.4523
1209400000		0.74879	160.891
1309350000		0.74947	159.4745
1409300000		0.75012	157.9466
1509250000		0.75081	156.5199
1609200000		0.75135	155.0367
1709150000		0.75252	153.6299
1809100000		0.75349	152.2108
1909050000		0.75432	150.8123
2009000000		0.75518	149.4449
2108950000		0.75641	148.1183
2208900000		0.75756	146.764
2308850000		0.7588	145.4516
2408800000		0.75969	144.1386
2508750000		0.76111	142.8294
2608700000		0.76259	141.569
2708650000		0.76383	140.2253
2808600000		0.76509	139.0508
2908550000		0.76652	137.7271
3008500000		0.76812	136.473
3108450000		0.76942	135.2272
3208400000		0.77088	133.9763
3308350000		0.77229	132.744
3408300000		0.77367	131.4924
3508250000		0.77508	130.2874
3608200000		0.77657	129.0735
3708150000		0.77802	127.8938
3808100000		0.77945	126.6477
3908050000		0.78082	125.5052
4008000000		0.78251	124.2656
4107950000		0.78379	123.1413
4207900000		0.78553	121.9017
4307850000		0.78673	120.8009
4407800000		0.78849	119.5717
4507750000		0.79002	118.3602
4607700000		0.79216	117.1923
4707650000		0.79329	115.9721
4807600000		0.7948	114.7679
4907550000		0.79616	113.5978
5007500000		0.79765	112.4358
5107450000		0.79893	111.2793
5207400000		0.80019	110.0762
5307350000		0.80144	108.9399
5407300000		0.80237	107.7944
5507250000		0.80325	106.6777
5607200000		0.80459	105.559
5707150000		0.80574	104.5289
5807100000		0.80721	103.4253
5907050000		0.80876	102.4197
6007000000		0.80974	101.354
6106950000		0.81141	100.2935
6206900000		0.81259	99.3227
6306850000		0.8142	98.2725
6406800000		0.81559	97.331
6506750000		0.81736	96.2994
6606700000		0.81937	95.372
6706650000		0.8213	94.3832
6806600000		0.82338	93.3775
!
!				Infineon Technologies AG
