! Infineon Technologies  Discrete & RF Semiconductors
! BAT68-04W
! IAC = 0.8 mA
! One-Port S-Parameters
# Hz  S  MA  R  50
!f									S11
!Hz							Mag  Ang
309850000		0.09308	-168.843
409800000		0.09895	-166.5148
509750000		0.10414	-163.4891
609700000		0.11155	-161.6686
709650000		0.11681	-158.4873
809600000		0.12498	-157.0761
909550000		0.13511	-155.4447
1009500000		0.14494	-156.1636
1109450000		0.15459	-155.7846
1209400000		0.16334	-156.9852
1309350000		0.17485	-157.0139
1409300000		0.18547	-157.8847
1509250000		0.198	-159.5226
1609200000		0.20883	-160.6716
1709150000		0.21822	-161.6134
1809100000		0.23125	-163.2651
1909050000		0.24271	-165.2162
2009000000		0.2545	-166.8722
2108950000		0.26702	-168.0284
2208900000		0.27851	-169.3775
2308850000		0.29066	-170.9811
2408800000		0.30144	-171.9252
2508750000		0.31326	-173.6478
2608700000		0.32584	-175.2978
2708650000		0.3374	-177.0928
2808600000		0.35022	-178.8002
2908550000		0.36162	179.5254
3008500000		0.37174	177.2084
3108450000		0.38346	175.6422
3208400000		0.39505	173.7015
3308350000		0.40709	172.2008
3408300000		0.41831	170.4561
3508250000		0.42987	168.7184
3608200000		0.44052	166.577
3708150000		0.4515	164.9403
3808100000		0.46239	163.2019
3908050000		0.4731	161.5912
4008000000		0.48344	159.6097
4107950000		0.49376	157.8924
4207900000		0.50438	156.1659
4307850000		0.51462	154.574
4407800000		0.52444	152.6922
4507750000		0.53416	150.9563
4607700000		0.54426	149.1698
4707650000		0.55365	147.5554
4807600000		0.56328	145.8367
4907550000		0.57286	144.2011
5007500000		0.58225	142.4302
5107450000		0.59061	140.5561
5207400000		0.59967	138.8948
5307350000		0.6087	137.2848
5407300000		0.61714	135.5926
5507250000		0.62472	133.829
5607200000		0.63285	132.0768
5707150000		0.64079	130.4882
5807100000		0.64876	128.8614
5907050000		0.65649	127.2792
6007000000		0.66376	125.7527
6106950000		0.67125	124.1893
6206900000		0.6782	122.6976
6306850000		0.68516	121.1526
6406800000		0.6921	119.7091
6506750000		0.69867	118.1865
6606700000		0.70573	116.7564
6706650000		0.71227	115.3312
6806600000		0.71916	113.8727
!
!				Infineon Technologies AG
