! Infineon Technologies  Discrete & RF Semiconductors
! BAT68-04W
! IAC = 0.6 mA
! One-Port S-Parameters
# Hz  S  MA  R  50
!f									S11
!Hz							Mag  Ang
309850000		0.07649	-33.8301
409800000		0.07909	-43.9335
509750000		0.0861	-53.3354
609700000		0.09235	-62.602
709650000		0.10436	-69.0475
809600000		0.11277	-76.736
909550000		0.1258	-83.3185
1009500000		0.13388	-89.3809
1109450000		0.1459	-94.2974
1209400000		0.15274	-99.6475
1309350000		0.166	-104.7785
1409300000		0.17726	-109.512
1509250000		0.18806	-114.9863
1609200000		0.2	-119.0386
1709150000		0.21212	-121.6193
1809100000		0.22491	-126.2627
1909050000		0.23523	-130.6226
2009000000		0.24695	-134.5869
2108950000		0.262	-137.5463
2208900000		0.2749	-140.6256
2308850000		0.28802	-143.8918
2408800000		0.30185	-146.1873
2508750000		0.31441	-149.279
2608700000		0.32814	-152.2459
2708650000		0.34035	-155.2371
2808600000		0.35466	-157.9826
2908550000		0.36696	-160.7583
3008500000		0.37642	-163.9969
3108450000		0.3895	-166.4842
3208400000		0.40187	-169.1617
3308350000		0.4156	-171.4643
3408300000		0.42775	-174.0077
3508250000		0.44021	-176.4616
3608200000		0.45067	-179.1842
3708150000		0.46269	178.4062
3808100000		0.47436	176.1724
3908050000		0.48603	173.9774
4008000000		0.49648	171.3881
4107950000		0.50753	169.1303
4207900000		0.51901	167.0016
4307850000		0.53027	164.9852
4407800000		0.54014	162.6322
4507750000		0.5504	160.4727
4607700000		0.56085	158.2894
4707650000		0.57129	156.3555
4807600000		0.58148	154.2682
4907550000		0.5917	152.2983
5007500000		0.60127	150.1721
5107450000		0.60948	147.9827
5207400000		0.61908	146.0171
5307350000		0.62863	144.1181
5407300000		0.63729	142.1473
5507250000		0.64475	140.1044
5607200000		0.65287	138.0904
5707150000		0.66092	136.259
5807100000		0.66902	134.3958
5907050000		0.67663	132.576
6007000000		0.68409	130.84
6106950000		0.69163	129.0738
6206900000		0.69852	127.381
6306850000		0.70534	125.6408
6406800000		0.71214	124.0142
6506750000		0.71852	122.3207
6606700000		0.72542	120.721
6706650000		0.73182	119.1388
6806600000		0.73861	117.527
!
!				Infineon Technologies AG
