! Infineon Technologies  Discrete & RF Semiconductors
! BAT68-04W
! VCA = 1 V
! One-Port S-Parameters
# Hz  S  MA  R  50
!f									S11
!Hz							Mag  Ang
309850000		0.99895	-6.9184
409800000		0.99845	-9.1566
509750000		0.99789	-11.3878
609700000		0.99716	-13.6277
709650000		0.99657	-15.8899
809600000		0.99556	-18.1244
909550000		0.99496	-20.4317
1009500000		0.99423	-22.6958
1109450000		0.9935	-25.0736
1209400000		0.99262	-27.3456
1309350000		0.992	-29.7744
1409300000		0.99138	-32.1269
1509250000		0.99053	-34.6058
1609200000		0.98968	-36.9977
1709150000		0.98923	-39.5251
1809100000		0.98836	-42.0486
1909050000		0.98737	-44.6449
2009000000		0.98591	-47.215
2108950000		0.98519	-49.9178
2208900000		0.98388	-52.5375
2308850000		0.98246	-55.2658
2408800000		0.98102	-57.9263
2508750000		0.98005	-60.7186
2608700000		0.97892	-63.5329
2708650000		0.97825	-66.341
2808600000		0.97651	-69.2298
2908550000		0.97513	-72.0688
3008500000		0.97376	-75.0058
3108450000		0.97234	-77.9178
3208400000		0.97114	-80.8799
3308350000		0.9698	-83.8563
3408300000		0.96855	-86.8618
3508250000		0.9673	-89.925
3608200000		0.96578	-92.957
3708150000		0.96443	-96.0209
3808100000		0.96317	-99.1104
3908050000		0.96171	-102.2375
4008000000		0.96034	-105.3444
4107950000		0.95894	-108.4968
4207900000		0.95757	-111.6144
4307850000		0.9564	-114.7887
4407800000		0.95516	-117.906
4507750000		0.95418	-121.0517
4607700000		0.95312	-124.2705
4707650000		0.95262	-127.4108
4807600000		0.95184	-130.6475
4907550000		0.95142	-133.8681
5007500000		0.9505	-137.1443
5107450000		0.95006	-140.3478
5207400000		0.94913	-143.6171
5307350000		0.94857	-146.8661
5407300000		0.94752	-150.1642
5507250000		0.94681	-153.3769
5607200000		0.94539	-156.7022
5707150000		0.94459	-159.924
5807100000		0.94296	-163.1961
5907050000		0.94172	-166.3919
6007000000		0.94011	-169.5613
6106950000		0.93842	-172.7272
6206900000		0.93682	-175.8383
6306850000		0.93483	-178.912
6406800000		0.93352	178.0556
6506750000		0.93171	175.0767
6606700000		0.93053	172.0942
6706650000		0.92945	169.2607
6806600000		0.92827	166.3219
!
!				Infineon Technologies AG
