! Infineon Technologies  Discrete & RF Semiconductors
! BAT68-04W
! IAC = 0.2 mA
! One-Port S-Parameters
# Hz  S  MA  R  50
!f									S11
!Hz							Mag  Ang
309850000		0.58452	-12.5509
409800000		0.58392	-16.5738
509750000		0.58418	-20.6753
609700000		0.58375	-24.8756
709650000		0.58819	-29.0627
809600000		0.58154	-33.3973
909550000		0.585	-37.8567
1009500000		0.58822	-41.8626
1109450000		0.59225	-46.0901
1209400000		0.58674	-50.1624
1309350000		0.58649	-54.7014
1409300000		0.58532	-59.0875
1509250000		0.58282	-63.5802
1609200000		0.58466	-67.8738
1709150000		0.59775	-71.6044
1809100000		0.59659	-76.2044
1909050000		0.59293	-80.6898
2009000000		0.59035	-85.1715
2108950000		0.59908	-89.3951
2208900000		0.60132	-93.6532
2308850000		0.60457	-97.9438
2408800000		0.61042	-102.0116
2508750000		0.61321	-106.2242
2608700000		0.61832	-110.3791
2708650000		0.62029	-114.6373
2808600000		0.6301	-118.4384
2908550000		0.63223	-122.5683
3008500000		0.63248	-126.6483
3108450000		0.63824	-130.4791
3208400000		0.64594	-134.1889
3308350000		0.65353	-137.8584
3408300000		0.6588	-141.605
3508250000		0.66479	-145.2505
3608200000		0.66866	-148.9381
3708150000		0.67388	-152.4489
3808100000		0.68	-155.9442
3908050000		0.68603	-159.2879
4008000000		0.68968	-162.8303
4107950000		0.6955	-166.0568
4207900000		0.7033	-169.1492
4307850000		0.7111	-172.1094
4407800000		0.71499	-175.334
4507750000		0.72045	-178.3961
4607700000		0.7265	178.5993
4707650000		0.7346	175.8967
4807600000		0.74068	172.9926
4907550000		0.74752	170.2443
5007500000		0.75255	167.37
5107450000		0.7566	164.5459
5207400000		0.76255	161.8675
5307350000		0.76879	159.2999
5407300000		0.77385	156.6976
5507250000		0.77732	154.0759
5607200000		0.78154	151.4814
5707150000		0.78627	149.1005
5807100000		0.79089	146.6928
5907050000		0.79484	144.3562
6007000000		0.79917	142.1222
6106950000		0.8035	139.8926
6206900000		0.80721	137.7517
6306850000		0.81065	135.5786
6406800000		0.81439	133.5299
6506750000		0.81777	131.4629
6606700000		0.82171	129.4816
6706650000		0.82541	127.5541
6806600000		0.82938	125.5963
!
!				Infineon Technologies AG
