! Infineon Technologies  Discrete & RF Semiconductors
! BAT68-04W
! IAC = 4 mA
! One-Port S-Parameters
# Hz  S  MA  R  50
!f									S11
!Hz							Mag  Ang
309850000		0.68061	174.8494
409800000		0.68034	173.3127
509750000		0.67989	171.7845
609700000		0.67984	170.2887
709650000		0.67983	168.7851
809600000		0.68012	167.2494
909550000		0.68075	165.8177
1009500000		0.68174	164.2804
1109450000		0.68253	162.8647
1209400000		0.68323	161.3428
1309350000		0.68416	159.9626
1409300000		0.68516	158.4712
1509250000		0.68629	157.0779
1609200000		0.68729	155.631
1709150000		0.68887	154.2854
1809100000		0.69041	152.8679
1909050000		0.69169	151.5014
2009000000		0.69298	150.1753
2108950000		0.69474	148.882
2208900000		0.6962	147.5623
2308850000		0.6979	146.2867
2408800000		0.69917	145.0112
2508750000		0.70111	143.7351
2608700000		0.70297	142.5072
2708650000		0.70477	141.1963
2808600000		0.70687	140.0126
2908550000		0.70852	138.7577
3008500000		0.7107	137.5157
3108450000		0.71251	136.3037
3208400000		0.71464	135.0761
3308350000		0.71648	133.881
3408300000		0.71846	132.6559
3508250000		0.72048	131.48
3608200000		0.72267	130.2828
3708150000		0.72459	129.1292
3808100000		0.72658	127.9085
3908050000		0.72844	126.7952
4008000000		0.73062	125.6058
4107950000		0.73268	124.4706
4207900000		0.73499	123.2491
4307850000		0.73701	122.139
4407800000		0.73917	120.9622
4507750000		0.74127	119.7687
4607700000		0.74401	118.6181
4707650000		0.74581	117.416
4807600000		0.74794	116.2304
4907550000		0.74991	115.079
5007500000		0.75213	113.9304
5107450000		0.75418	112.7763
5207400000		0.75594	111.5906
5307350000		0.75791	110.4687
5407300000		0.75971	109.3307
5507250000		0.76129	108.2186
5607200000		0.76336	107.1014
5707150000		0.76528	106.0798
5807100000		0.76746	104.9762
5907050000		0.76971	103.9724
6007000000		0.77127	102.9112
6106950000		0.7736	101.8522
6206900000		0.77556	100.8794
6306850000		0.77772	99.8309
6406800000		0.77982	98.8917
6506750000		0.78214	97.854
6606700000		0.78482	96.9243
6706650000		0.78732	95.9385
6806600000		0.78998	94.9325
!
!				Infineon Technologies AG
