! Infineon Technologies  Discrete & RF Semiconductors
! BAT68-04W
! IAC = 0.09 mA
! One-Port S-Parameters
# Hz  S  MA  R  50
!f									S11
!Hz							Mag  Ang
309850000		0.79487	-11.6854
409800000		0.79427	-15.4588
509750000		0.79362	-19.2668
609700000		0.79308	-23.0948
709650000		0.79538	-26.9593
809600000		0.78887	-30.8878
909550000		0.79022	-34.8963
1009500000		0.79247	-38.6578
1109450000		0.7942	-42.5764
1209400000		0.78879	-46.4893
1309350000		0.78729	-50.6006
1409300000		0.78481	-54.6413
1509250000		0.78209	-58.7865
1609200000		0.78173	-62.7627
1709150000		0.79017	-66.4275
1809100000		0.78783	-70.6309
1909050000		0.78331	-74.9113
2009000000		0.77916	-79.1534
2108950000		0.78366	-83.1446
2208900000		0.78283	-87.2355
2308850000		0.78283	-91.373
2408800000		0.78394	-95.3767
2508750000		0.78346	-99.4475
2608700000		0.78503	-103.5232
2708650000		0.78387	-107.7048
2808600000		0.7892	-111.4303
2908550000		0.78783	-115.5185
3008500000		0.7857	-119.5947
3108450000		0.78732	-123.4236
3208400000		0.79127	-127.1522
3308350000		0.79437	-130.873
3408300000		0.79584	-134.6759
3508250000		0.79792	-138.3912
3608200000		0.79875	-142.1211
3708150000		0.8004	-145.7543
3808100000		0.80242	-149.3431
3908050000		0.80459	-152.8235
4008000000		0.80518	-156.4485
4107950000		0.80751	-159.8023
4207900000		0.81157	-163.0174
4307850000		0.81567	-166.1262
4407800000		0.81675	-169.4711
4507750000		0.81905	-172.6773
4607700000		0.82202	-175.8189
4707650000		0.82687	-178.6646
4807600000		0.82984	178.2761
4907550000		0.83363	175.3747
5007500000		0.83581	172.3564
5107450000		0.83763	169.4072
5207400000		0.8406	166.5769
5307350000		0.84395	163.8655
5407300000		0.84634	161.1208
5507250000		0.84763	158.3678
5607200000		0.84936	155.6386
5707150000		0.85171	153.1266
5807100000		0.85379	150.5873
5907050000		0.85555	148.1224
6007000000		0.85744	145.7635
6106950000		0.85956	143.4143
6206900000		0.86117	141.1581
6306850000		0.86262	138.872
6406800000		0.86442	136.7105
6506750000		0.86599	134.5463
6606700000		0.86812	132.4618
6706650000		0.87012	130.4389
6806600000		0.87243	128.3836
!
!				Infineon Technologies AG
