! Infineon Technologies  Discrete & RF Semiconductors
! BAT68-04W
! IAC = 0.07 mA
! One-Port S-Parameters
# Hz  S  MA  R  50
!f									S11
!Hz							Mag  Ang
309850000		0.83741	-11.5377
409800000		0.83672	-15.2627
509750000		0.8359	-19.0163
609700000		0.83531	-22.7818
709650000		0.837	-26.5787
809600000		0.83128	-30.4747
909550000		0.83203	-34.3629
1009500000		0.83371	-38.0787
1109450000		0.8349	-41.9373
1209400000		0.82989	-45.8181
1309350000		0.82826	-49.8554
1409300000		0.82581	-53.8313
1509250000		0.82324	-57.9177
1609200000		0.8225	-61.8349
1709150000		0.82932	-65.4774
1809100000		0.82697	-69.6124
1909050000		0.8226	-73.8515
2009000000		0.81851	-78.0454
2108950000		0.82186	-81.9917
2208900000		0.82062	-86.048
2308850000		0.82009	-90.147
2408800000		0.82012	-94.0959
2508750000		0.81943	-98.2092
2608700000		0.82014	-102.2164
2708650000		0.81858	-106.3728
2808600000		0.82263	-110.0765
2908550000		0.82083	-114.1491
3008500000		0.81843	-118.2166
3108450000		0.81943	-122.0707
3208400000		0.82218	-125.7584
3308350000		0.82436	-129.4763
3408300000		0.82508	-133.2803
3508250000		0.82644	-136.9984
3608200000		0.82669	-140.7245
3708150000		0.82742	-144.3366
3808100000		0.82878	-147.9731
3908050000		0.8302	-151.4706
4008000000		0.83033	-155.1063
4107950000		0.83185	-158.4758
4207900000		0.83506	-161.7067
4307850000		0.83834	-164.8364
4407800000		0.83882	-168.1985
4507750000		0.84045	-171.4271
4607700000		0.84281	-174.5917
4707650000		0.8468	-177.4579
4807600000		0.84916	179.4537
4907550000		0.85219	176.5265
5007500000		0.85385	173.482
5107450000		0.85521	170.5092
5207400000		0.85746	167.6541
5307350000		0.86019	164.9152
5407300000		0.86195	162.143
5507250000		0.86283	159.3645
5607200000		0.864	156.6097
5707150000		0.86581	154.0695
5807100000		0.86734	151.5059
5907050000		0.86866	149.0148
6007000000		0.87002	146.6303
6106950000		0.87158	144.2585
6206900000		0.87276	141.976
6306850000		0.87371	139.668
6406800000		0.87511	137.4836
6506750000		0.87626	135.2972
6606700000		0.87799	133.1896
6706650000		0.87968	131.1443
6806600000		0.88155	129.0718
!
!				Infineon Technologies AG
