! Infineon Technologies  Discrete & RF Semiconductors
! BAT68-04W
! VCA = 6 V
! One-Port S-Parameters
# Hz  S  MA  R  50
!f									S11
!Hz							Mag  Ang
309850000		0.99908	-5.9603
409800000		0.9985	-7.9011
509750000		0.99803	-9.8286
609700000		0.99747	-11.7586
709650000		0.9969	-13.7073
809600000		0.99591	-15.6291
909550000		0.9953	-17.6227
1009500000		0.99472	-19.5673
1109450000		0.99414	-21.6228
1209400000		0.99329	-23.567
1309350000		0.99277	-25.6679
1409300000		0.99234	-27.6918
1509250000		0.99145	-29.8022
1609200000		0.99097	-31.888
1709150000		0.99066	-34.0662
1809100000		0.98994	-36.2465
1909050000		0.98914	-38.4938
2009000000		0.98791	-40.7145
2108950000		0.98738	-43.0583
2208900000		0.98635	-45.3257
2308850000		0.98494	-47.663
2408800000		0.984	-50.04
2508750000		0.98308	-52.4307
2608700000		0.98215	-54.8893
2708650000		0.98161	-57.3379
2808600000		0.98014	-59.8704
2908550000		0.97903	-62.3574
3008500000		0.97791	-64.9385
3108450000		0.97654	-67.4707
3208400000		0.9757	-70.1197
3308350000		0.97455	-72.7575
3408300000		0.97352	-75.4216
3508250000		0.97253	-78.1583
3608200000		0.97099	-80.8269
3708150000		0.96992	-83.6157
3808100000		0.9688	-86.386
3908050000		0.96751	-89.2276
4008000000		0.96618	-92.0378
4107950000		0.96489	-94.9246
4207900000		0.96363	-97.7647
4307850000		0.96249	-100.6938
4407800000		0.96116	-103.5731
4507750000		0.96028	-106.4825
4607700000		0.95913	-109.4851
4707650000		0.9586	-112.4204
4807600000		0.95765	-115.457
4907550000		0.95722	-118.5032
5007500000		0.95629	-121.6178
5107450000		0.95573	-124.6847
5207400000		0.95485	-127.8201
5307350000		0.95429	-130.9681
5407300000		0.95328	-134.1778
5507250000		0.95254	-137.3344
5607200000		0.95115	-140.6096
5707150000		0.95035	-143.8293
5807100000		0.94876	-147.1065
5907050000		0.94736	-150.3557
6007000000		0.94572	-153.5799
6106950000		0.94374	-156.8236
6206900000		0.942	-160.0526
6306850000		0.93969	-163.2413
6406800000		0.9381	-166.4286
6506750000		0.93591	-169.5539
6606700000		0.93413	-172.7277
6706650000		0.9325	-175.7498
6806600000		0.93086	-178.8842
!
!				Infineon Technologies AG
