! Infineon Technologies  Discrete & RF Semiconductors
! BAT68-04W
! VCA = 8 V
! One-Port S-Parameters
# Hz  S  MA  R  50
!f									S11
!Hz							Mag  Ang
309850000		0.99898	-5.852
409800000		0.99834	-7.7703
509750000		0.99802	-9.674
609700000		0.99748	-11.5697
709650000		0.99694	-13.4869
809600000		0.99591	-15.3739
909550000		0.99535	-17.3382
1009500000		0.99472	-19.2527
1109450000		0.99425	-21.2776
1209400000		0.99339	-23.1872
1309350000		0.99285	-25.2538
1409300000		0.99235	-27.2473
1509250000		0.99171	-29.3577
1609200000		0.99103	-31.3739
1709150000		0.99077	-33.5166
1809100000		0.99006	-35.6624
1909050000		0.98926	-37.875
2009000000		0.988	-40.0599
2108950000		0.9876	-42.367
2208900000		0.98634	-44.5644
2308850000		0.98529	-46.9325
2408800000		0.98422	-49.24
2508750000		0.98337	-51.5941
2608700000		0.9824	-54.0154
2708650000		0.98168	-56.3881
2808600000		0.98046	-58.9214
2908550000		0.97934	-61.3723
3008500000		0.9783	-63.911
3108450000		0.97715	-66.4427
3208400000		0.97612	-69.0179
3308350000		0.97497	-71.62
3408300000		0.97398	-74.2462
3508250000		0.97298	-76.9439
3608200000		0.97168	-79.608
3708150000		0.97041	-82.3294
3808100000		0.96927	-85.0644
3908050000		0.96803	-87.8691
4008000000		0.9668	-90.6453
4107950000		0.96552	-93.5
4207900000		0.96421	-96.3064
4307850000		0.96308	-99.2053
4407800000		0.9617	-102.0505
4507750000		0.96084	-104.9317
4607700000		0.95971	-107.9056
4707650000		0.9592	-110.8135
4807600000		0.95824	-113.8233
4907550000		0.95773	-116.8408
5007500000		0.95676	-119.9326
5107450000		0.95625	-122.9781
5207400000		0.95542	-126.0901
5307350000		0.95478	-129.2195
5407300000		0.9538	-132.4124
5507250000		0.95309	-135.5553
5607200000		0.95171	-138.8179
5707150000		0.9509	-142.0289
5807100000		0.94936	-145.2967
5907050000		0.94797	-148.5411
6007000000		0.94632	-151.7643
6106950000		0.94431	-155.008
6206900000		0.94254	-158.246
6306850000		0.94018	-161.4401
6406800000		0.93856	-164.6341
6506750000		0.9363	-167.7708
6606700000		0.93451	-170.9603
6706650000		0.93281	-173.9978
6806600000		0.93105	-177.1475
!
!				Infineon Technologies AG
