! Infineon Technologies  Discrete & RF Semiconductors
! BAT68-04W
! IAC = 0.3 mA
! One-Port S-Parameters
# Hz  S  MA  R  50
!f									S11
!Hz							Mag  Ang
309850000		0.42346	-13.7092
409800000		0.42255	-18.0292
509750000		0.42385	-22.5874
609700000		0.42344	-27.1938
709650000		0.42929	-31.8228
809600000		0.42458	-36.5943
909550000		0.4297	-41.6325
1009500000		0.43268	-45.9229
1109450000		0.43822	-50.5026
1209400000		0.4345	-54.823
1309350000		0.43639	-59.8454
1409300000		0.43751	-64.6111
1509250000		0.43662	-69.546
1609200000		0.44065	-74.1586
1709150000		0.45437	-77.8997
1809100000		0.45584	-82.9474
1909050000		0.4548	-87.6943
2009000000		0.45543	-92.4435
2108950000		0.46653	-96.7982
2208900000		0.47185	-101.1474
2308850000		0.4781	-105.5706
2408800000		0.48759	-109.576
2508750000		0.49353	-113.8271
2608700000		0.50146	-117.9712
2708650000		0.50687	-122.2224
2808600000		0.5189	-126.0241
2908550000		0.52458	-130.0707
3008500000		0.52748	-134.112
3108450000		0.53651	-137.868
3208400000		0.54625	-141.4349
3308350000		0.55679	-144.9493
3408300000		0.56496	-148.5476
3508250000		0.57378	-152.0446
3608200000		0.58015	-155.6209
3708150000		0.58827	-158.9953
3808100000		0.59708	-162.257
3908050000		0.60574	-165.4051
4008000000		0.61187	-168.7659
4107950000		0.62018	-171.8505
4207900000		0.63009	-174.766
4307850000		0.63986	-177.5343
4407800000		0.64609	179.3984
4507750000		0.65377	176.5135
4607700000		0.66185	173.6739
4707650000		0.67154	171.145
4807600000		0.67962	168.4146
4907550000		0.68823	165.8381
5007500000		0.69529	163.1243
5107450000		0.70103	160.4339
5207400000		0.70875	157.916
5307350000		0.71662	155.5031
5407300000		0.7234	153.0478
5507250000		0.72848	150.5547
5607200000		0.73432	148.0924
5707150000		0.74055	145.8405
5807100000		0.74679	143.5631
5907050000		0.75223	141.3476
6007000000		0.75792	139.2331
6106950000		0.76376	137.1131
6206900000		0.76885	135.0817
6306850000		0.77365	133.0142
6406800000		0.77862	131.0665
6506750000		0.78325	129.0905
6606700000		0.78841	127.2019
6706650000		0.79316	125.3578
6806600000		0.7983	123.4835
!
!				Infineon Technologies AG
