! Infineon Technologies  Discrete & RF Semiconductors
! BAT68-04W
! IAC = 7 mA
! One-Port S-Parameters
# Hz  S  MA  R  50
!f									S11
!Hz							Mag  Ang
309850000		0.76841	174.7238
409800000		0.7678	173.1452
509750000		0.76695	171.6045
609700000		0.76679	170.0338
709650000		0.76664	168.4822
809600000		0.76679	166.8957
909550000		0.76697	165.4055
1009500000		0.76752	163.8302
1109450000		0.76785	162.3639
1209400000		0.7682	160.7961
1309350000		0.76878	159.3723
1409300000		0.76936	157.8337
1509250000		0.76987	156.3996
1609200000		0.77036	154.9104
1709150000		0.7714	153.4972
1809100000		0.7722	152.0697
1909050000		0.77284	150.6628
2009000000		0.77385	149.257
2108950000		0.77474	147.9573
2208900000		0.77576	146.5931
2308850000		0.77665	145.3075
2408800000		0.77771	143.9523
2508750000		0.779	142.6339
2608700000		0.78011	141.3994
2708650000		0.78142	140.0143
2808600000		0.78255	138.8335
2908550000		0.78368	137.5356
3008500000		0.78525	136.2454
3108450000		0.78642	134.9938
3208400000		0.78777	133.737
3308350000		0.78898	132.497
3408300000		0.79004	131.2712
3508250000		0.79156	130.0249
3608200000		0.79285	128.806
3708150000		0.7941	127.6227
3808100000		0.79541	126.3699
3908050000		0.79663	125.2234
4008000000		0.79815	123.9769
4107950000		0.79926	122.8417
4207900000		0.80083	121.6015
4307850000		0.8021	120.466
4407800000		0.80352	119.2647
4507750000		0.80488	118.0454
4607700000		0.80685	116.8737
4707650000		0.80785	115.6475
4807600000		0.80917	114.4396
4907550000		0.81035	113.2663
5007500000		0.81166	112.0974
5107450000		0.81275	110.9379
5207400000		0.81377	109.7318
5307350000		0.81485	108.5938
5407300000		0.81568	107.4426
5507250000		0.81635	106.3234
5607200000		0.8174	105.2064
5707150000		0.81843	104.1726
5807100000		0.81976	103.067
5907050000		0.82108	102.062
6007000000		0.82184	100.9933
6106950000		0.82331	99.933
6206900000		0.82437	98.9597
6306850000		0.82581	97.9085
6406800000		0.82705	96.969
6506750000		0.82854	95.9338
6606700000		0.83036	95.0059
6706650000		0.83216	94.0194
6806600000		0.83415	93.0122
!
!				Infineon Technologies AG
