! Infineon Technologies  Discrete & RF Semiconductors
! BAT68-04W
! IAC = 1 mA
! One-Port S-Parameters
# Hz  S  MA  R  50
!f									S11
!Hz							Mag  Ang
309850000		0.20607	-179.8424
409800000		0.2095	-179.8374
509750000		0.21175	-179.5359
609700000		0.2157	-179.4708
709650000		0.21702	-178.885
809600000		0.22046	-178.6471
909550000		0.22587	-178.1792
1009500000		0.23267	-178.7255
1109450000		0.2383	-178.7365
1209400000		0.24412	-179.4643
1309350000		0.25071	-179.4256
1409300000		0.25749	-179.9315
1509250000		0.26657	179.3238
1609200000		0.27403	178.6165
1709150000		0.28113	177.8043
1809100000		0.29058	176.9648
1909050000		0.29946	175.873
2009000000		0.30822	174.9472
2108950000		0.31743	174.2083
2208900000		0.32578	173.3849
2308850000		0.33522	172.383
2408800000		0.34259	171.7731
2508750000		0.35208	170.6013
2608700000		0.36203	169.5242
2708650000		0.37127	168.2902
2808600000		0.38184	167.0748
2908550000		0.39099	165.8908
3008500000		0.39997	164.1878
3108450000		0.4094	163.063
3208400000		0.4194	161.5566
3308350000		0.42898	160.4801
3408300000		0.43858	159.0877
3508250000		0.44819	157.8049
3608200000		0.45782	156.1025
3708150000		0.46728	154.7861
3808100000		0.47616	153.4896
3908050000		0.48536	152.1909
4008000000		0.49466	150.5934
4107950000		0.50372	149.1987
4207900000		0.51289	147.7545
4307850000		0.52168	146.4248
4407800000		0.53062	144.8708
4507750000		0.53918	143.4122
4607700000		0.54833	141.9025
4707650000		0.55646	140.4929
4807600000		0.56501	139.0207
4907550000		0.57344	137.6127
5007500000		0.58202	136.0975
5107450000		0.58989	134.4648
5207400000		0.59795	133.0136
5307350000		0.60607	131.6073
5407300000		0.61375	130.1201
5507250000		0.62093	128.566
5607200000		0.62853	127.017
5707150000		0.63593	125.6161
5807100000		0.64334	124.1655
5907050000		0.65061	122.7625
6007000000		0.65729	121.3942
6106950000		0.66437	119.9873
6206900000		0.67097	118.6487
6306850000		0.67757	117.2552
6406800000		0.6842	115.9606
6506750000		0.69052	114.572
6606700000		0.6974	113.2811
6706650000		0.7037	111.9828
6806600000		0.71034	110.6471
!
!				Infineon Technologies AG
