! Infineon Technologies  Discrete & RF Semiconductors
! BAT68-04W
! VCA = 7 V
! One-Port S-Parameters
# Hz  S  MA  R  50
!f									S11
!Hz							Mag  Ang
309850000		0.999	-5.9032
409800000		0.99845	-7.8298
509750000		0.99808	-9.7464
609700000		0.99753	-11.6541
709650000		0.997	-13.5868
809600000		0.99597	-15.4904
909550000		0.99535	-17.4678
1009500000		0.99474	-19.3973
1109450000		0.99422	-21.4361
1209400000		0.9934	-23.3605
1309350000		0.99287	-25.442
1409300000		0.9924	-27.4501
1509250000		0.99172	-29.5752
1609200000		0.99101	-31.6089
1709150000		0.99076	-33.7678
1809100000		0.99008	-35.9287
1909050000		0.98922	-38.1563
2009000000		0.98797	-40.3608
2108950000		0.98749	-42.6836
2208900000		0.98646	-44.9324
2308850000		0.98522	-47.2808
2408800000		0.98404	-49.5667
2508750000		0.98314	-51.9429
2608700000		0.98233	-54.4171
2708650000		0.98162	-56.8062
2808600000		0.98033	-59.3566
2908550000		0.97922	-61.8222
3008500000		0.9782	-64.3818
3108450000		0.97701	-66.9268
3208400000		0.97596	-69.5213
3308350000		0.97481	-72.141
3408300000		0.97385	-74.783
3508250000		0.97282	-77.4975
3608200000		0.97153	-80.1792
3708150000		0.9702	-82.9186
3808100000		0.96908	-85.6687
3908050000		0.96778	-88.4893
4008000000		0.96631	-91.2482
4107950000		0.96525	-94.1536
4207900000		0.96394	-96.9757
4307850000		0.9628	-99.8878
4407800000		0.96149	-102.7476
4507750000		0.96055	-105.6424
4607700000		0.95942	-108.6297
4707650000		0.95898	-111.5518
4807600000		0.95798	-114.573
4907550000		0.95749	-117.6029
5007500000		0.95652	-120.7053
5107450000		0.95604	-123.7628
5207400000		0.95515	-126.8836
5307350000		0.95455	-130.0202
5407300000		0.95356	-133.2226
5507250000		0.95282	-136.3715
5607200000		0.95145	-139.641
5707150000		0.95068	-142.855
5807100000		0.94908	-146.1297
5907050000		0.94767	-149.3759
6007000000		0.94604	-152.5981
6106950000		0.94407	-155.8427
6206900000		0.94229	-159.076
6306850000		0.93997	-162.2693
6406800000		0.93839	-165.4594
6506750000		0.93609	-168.5911
6606700000		0.93427	-171.7737
6706650000		0.93266	-174.8048
6806600000		0.931	-177.9467
!
!				Infineon Technologies AG
