! Infineon Technologies  Discrete & RF Semiconductors
! BAT17-05W
! IAC = 5 mA
! One-Port S-Parameters
# Hz  S  MA  R  50
!f									S11
!Hz							Mag  Ang
309850000		0.723	174.8456
409800000		0.72252	173.3129
509750000		0.72205	171.7808
609700000		0.72193	170.2577
709650000		0.72176	168.7716
809600000		0.72171	167.2688
909550000		0.72221	165.7722
1009500000		0.72275	164.271
1109450000		0.72328	162.7953
1209400000		0.724	161.3263
1309350000		0.72453	159.8756
1409300000		0.72518	158.426
1509250000		0.72589	157.0207
1609200000		0.72698	155.6139
1709150000		0.7279	154.197
1809100000		0.72853	152.8121
1909050000		0.72919	151.4786
2009000000		0.73068	150.1064
2108950000		0.73157	148.792
2208900000		0.73256	147.4651
2308850000		0.73352	146.1965
2408800000		0.73496	144.9109
2508750000		0.73626	143.6437
2608700000		0.73772	142.3703
2708650000		0.73872	141.1115
2808600000		0.74029	139.9031
2908550000		0.74166	138.6989
3008500000		0.74346	137.4231
3108450000		0.74475	136.1948
3208400000		0.74626	134.9915
3308350000		0.74736	133.8023
3408300000		0.74899	132.5873
3508250000		0.75058	131.375
3608200000		0.75207	130.2023
3708150000		0.75341	129.0092
3808100000		0.75463	127.838
3908050000		0.75599	126.674
4008000000		0.7577	125.494
4107950000		0.75909	124.3226
4207900000		0.76048	123.1393
4307850000		0.76201	121.9756
4407800000		0.76378	120.8106
4507750000		0.76546	119.6526
4607700000		0.76727	118.4809
4707650000		0.76875	117.2814
4807600000		0.77007	116.1132
4907550000		0.77163	114.9627
5007500000		0.77297	113.8056
5107450000		0.77453	112.6534
5207400000		0.77566	111.4751
5307350000		0.77686	110.3528
5407300000		0.77796	109.2002
5507250000		0.77881	108.1344
5607200000		0.77985	107.043
5707150000		0.78112	106.0196
5807100000		0.78294	104.9391
5907050000		0.78439	103.9346
6007000000		0.7857	102.8807
6106950000		0.78712	101.8645
6206900000		0.78875	100.8634
6306850000		0.7903	99.8761
6406800000		0.79202	98.9099
6506750000		0.79381	97.9477
6606700000		0.79569	96.9768
6706650000		0.79804	96.0279
6806600000		0.80015	95.0609
6906550000		0.8023	94.1142
7006500000		0.8045	93.1249
7106450000		0.80657	92.1373
7206400000		0.80888	91.1505
7306350000		0.81052	90.1241
!
!				Infineon Technologies AG
