! Infineon Technologies  Discrete & RF Semiconductors
! BAT17-05W
! IAC = 7 mA
! One-Port S-Parameters
# Hz  S  MA  R  50
!f									S11
!Hz							Mag  Ang
309850000		0.771	174.8628
409800000		0.77024	173.3156
509750000		0.76974	171.7736
609700000		0.76947	170.2417
709650000		0.76924	168.7447
809600000		0.76928	167.1951
909550000		0.76961	165.6864
1009500000		0.7699	164.1769
1109450000		0.77022	162.6914
1209400000		0.7708	161.2095
1309350000		0.77124	159.7517
1409300000		0.77165	158.2905
1509250000		0.77207	156.8744
1609200000		0.77288	155.4574
1709150000		0.7735	154.0317
1809100000		0.77391	152.6353
1909050000		0.7743	151.2921
2009000000		0.77557	149.909
2108950000		0.77618	148.5836
2208900000		0.77695	147.2429
2308850000		0.77764	145.9653
2408800000		0.77889	144.6667
2508750000		0.77993	143.3872
2608700000		0.78109	142.1033
2708650000		0.78187	140.8324
2808600000		0.78311	139.6135
2908550000		0.78442	138.3663
3008500000		0.7857	137.1186
3108450000		0.78677	135.8796
3208400000		0.78789	134.665
3308350000		0.78892	133.4296
3408300000		0.79015	132.2339
3508250000		0.79145	131.0103
3608200000		0.79257	129.8323
3708150000		0.79363	128.6257
3808100000		0.79461	127.4404
3908050000		0.79572	126.2668
4008000000		0.7971	125.0764
4107950000		0.79819	123.8978
4207900000		0.79932	122.7035
4307850000		0.80026	121.5586
4407800000		0.80193	120.3552
4507750000		0.80341	119.1854
4607700000		0.80482	118.0043
4707650000		0.806	116.7954
4807600000		0.80698	115.6186
4907550000		0.80826	114.4541
5007500000		0.80924	113.2903
5107450000		0.81037	112.1321
5207400000		0.81114	110.9437
5307350000		0.81201	109.8124
5407300000		0.8127	108.6529
5507250000		0.81311	107.5781
5607200000		0.81373	106.4837
5707150000		0.81456	105.4583
5807100000		0.816	104.3729
5907050000		0.81708	103.3623
6007000000		0.81802	102.3026
6106950000		0.81902	101.2858
6206900000		0.82032	100.2804
6306850000		0.82148	99.2886
6406800000		0.82285	98.318
6506750000		0.82436	97.3565
6606700000		0.82586	96.3813
6706650000		0.82787	95.4275
6806600000		0.82968	94.456
6906550000		0.83149	93.5087
7006500000		0.83331	92.5163
7106450000		0.83511	91.5223
7206400000		0.83711	90.5359
7306350000		0.83846	89.5078
!
!				Infineon Technologies AG
