! Infineon Technologies  Discrete & RF Semiconductors
! BAT17-05W
! IAC = 4 mA
! One-Port S-Parameters
# Hz  S  MA  R  50
!f									S11
!Hz							Mag  Ang
309850000		0.68232	174.8695
409800000		0.68195	173.3429
509750000		0.68167	171.8283
609700000		0.6815	170.3445
709650000		0.68148	168.8406
809600000		0.68148	167.3506
909550000		0.68217	165.8722
1009500000		0.6829	164.382
1109450000		0.6836	162.916
1209400000		0.68448	161.4607
1309350000		0.68513	160.0233
1409300000		0.68594	158.586
1509250000		0.68688	157.1911
1609200000		0.68815	155.7996
1709150000		0.68929	154.3901
1809100000		0.69019	153.0164
1909050000		0.6911	151.6984
2009000000		0.69273	150.3384
2108950000		0.69385	149.0357
2208900000		0.69503	147.7213
2308850000		0.69626	146.4691
2408800000		0.69778	145.194
2508750000		0.69929	143.9426
2608700000		0.70095	142.6834
2708650000		0.70207	141.4706
2808600000		0.70409	140.2364
2908550000		0.70578	139.0189
3008500000		0.70771	137.7745
3108450000		0.70907	136.59
3208400000		0.71108	135.3671
3308350000		0.71252	134.1647
3408300000		0.71423	132.9943
3508250000		0.71608	131.791
3608200000		0.71791	130.6309
3708150000		0.71948	129.4508
3808100000		0.72089	128.29
3908050000		0.72251	127.1394
4008000000		0.72449	125.9712
4107950000		0.72614	124.8094
4207900000		0.72789	123.6364
4307850000		0.72961	122.4812
4407800000		0.7317	121.3273
4507750000		0.73363	120.1792
4607700000		0.73571	119.0176
4707650000		0.73749	117.8261
4807600000		0.73911	116.6705
4907550000		0.74093	115.5292
5007500000		0.74258	114.3853
5107450000		0.74457	113.2375
5207400000		0.74599	112.068
5307350000		0.74753	110.9551
5407300000		0.74893	109.8113
5507250000		0.7502	108.7472
5607200000		0.75166	107.6633
5707150000		0.7533	106.6457
5807100000		0.7554	105.5707
5907050000		0.75724	104.5657
6007000000		0.75889	103.5199
6106950000		0.76061	102.5065
6206900000		0.76256	101.5082
6306850000		0.76446	100.5232
6406800000		0.76649	99.5613
6506750000		0.76862	98.6015
6606700000		0.77082	97.6349
6706650000		0.77346	96.6867
6806600000		0.77584	95.7258
6906550000		0.77832	94.7789
7006500000		0.78081	93.7922
7106450000		0.78312	92.8096
7206400000		0.78576	91.8229
7306350000		0.78771	90.7966
!
!				Infineon Technologies AG
