! Infineon Technologies  Discrete & RF Semiconductors
! BAT17-05W
! VCA = 3 V
! One-Port S-Parameters
# Hz  S  MA  R  50
!f									S11
!Hz							Mag  Ang
309850000		0.99871	-4.1172
409800000		0.99859	-5.499
509750000		0.99811	-6.8408
609700000		0.99781	-8.1888
709650000		0.99717	-9.5376
809600000		0.9965	-10.8859
909550000		0.99595	-12.2382
1009500000		0.99539	-13.6155
1109450000		0.99472	-14.98
1209400000		0.99428	-16.3554
1309350000		0.99377	-17.7731
1409300000		0.99322	-19.2084
1509250000		0.99258	-20.6303
1609200000		0.99252	-22.0914
1709150000		0.99213	-23.5752
1809100000		0.99126	-25.0843
1909050000		0.99077	-26.5736
2009000000		0.99034	-28.1059
2108950000		0.99006	-29.714
2208900000		0.98913	-31.2568
2308850000		0.98823	-32.8504
2408800000		0.98768	-34.4552
2508750000		0.98688	-36.077
2608700000		0.98631	-37.7785
2708650000		0.98595	-39.478
2808600000		0.98478	-41.1376
2908550000		0.98433	-42.8928
3008500000		0.98349	-44.6607
3108450000		0.98265	-46.4198
3208400000		0.98183	-48.229
3308350000		0.98089	-50.0188
3408300000		0.98008	-51.8462
3508250000		0.97959	-53.7105
3608200000		0.97836	-55.587
3708150000		0.97743	-57.4666
3808100000		0.97654	-59.3754
3908050000		0.97581	-61.3023
4008000000		0.975	-63.2579
4107950000		0.9742	-65.2563
4207900000		0.97327	-67.2455
4307850000		0.97218	-69.2529
4407800000		0.97085	-71.2822
4507750000		0.97011	-73.3397
4607700000		0.96941	-75.443
4707650000		0.96864	-77.5442
4807600000		0.96767	-79.6848
4907550000		0.96664	-81.8555
5007500000		0.96601	-84.0594
5107450000		0.9654	-86.2979
5207400000		0.96496	-88.5506
5307350000		0.96413	-90.8774
5407300000		0.96339	-93.2273
5507250000		0.96271	-95.641
5607200000		0.962	-98.0731
5707150000		0.96162	-100.5785
5807100000		0.96062	-103.1008
5907050000		0.9595	-105.7261
6007000000		0.95832	-108.3563
6106950000		0.95668	-111.0312
6206900000		0.95481	-113.7366
6306850000		0.95271	-116.4811
6406800000		0.95042	-119.2581
6506750000		0.94795	-122.0704
6606700000		0.94547	-124.8784
6706650000		0.94271	-127.7297
6806600000		0.93966	-130.5872
6906550000		0.93696	-133.5012
7006500000		0.93384	-136.4279
7106450000		0.93128	-139.3915
7206400000		0.92714	-142.3994
7306350000		0.92309	-145.4385
!
!				Infineon Technologies AG
