! Infineon Technologies  Discrete & RF Semiconductors
! BAT17-05W
! IAC = 0.04 mA
! One-Port S-Parameters
# Hz  S  MA  R  50
!f									S11
!Hz							Mag  Ang
309850000		0.90399	-7.4985
409800000		0.90394	-9.9561
509750000		0.90278	-12.4042
609700000		0.90263	-14.866
709650000		0.90288	-17.3181
809600000		0.89884	-19.9052
909550000		0.89854	-22.4266
1009500000		0.89923	-24.9124
1109450000		0.89976	-27.3866
1209400000		0.89615	-29.9906
1309350000		0.8943	-32.6381
1409300000		0.89221	-35.3133
1509250000		0.89002	-37.9882
1609200000		0.88901	-40.6792
1709150000		0.89263	-43.1417
1809100000		0.89045	-45.9507
1909050000		0.8871	-48.7969
2009000000		0.88318	-51.7567
2108950000		0.88508	-54.4967
2208900000		0.88212	-57.4186
2308850000		0.87966	-60.3415
2408800000		0.87668	-63.4183
2508750000		0.8767	-66.2892
2608700000		0.87562	-69.2834
2708650000		0.8728	-72.423
2808600000		0.87446	-75.2475
2908550000		0.87117	-78.4406
3008500000		0.86823	-81.5253
3108450000		0.86646	-84.6902
3208400000		0.86825	-87.5722
3308350000		0.86689	-90.7419
3408300000		0.86403	-94.0304
3508250000		0.8627	-97.2594
3608200000		0.86272	-100.2795
3708150000		0.86084	-103.5895
3808100000		0.85834	-106.9273
3908050000		0.8559	-110.3002
4008000000		0.85342	-113.6688
4107950000		0.85285	-116.9096
4207900000		0.85466	-119.8739
4307850000		0.85574	-122.8824
4407800000		0.85298	-126.3498
4507750000		0.85121	-129.7559
4607700000		0.85077	-133.0358
4707650000		0.85396	-135.879
4807600000		0.85291	-139.2641
4907550000		0.85365	-142.4226
5007500000		0.85276	-145.8303
5107450000		0.85278	-149.0979
5207400000		0.85358	-152.3123
5307350000		0.85458	-155.4385
5407300000		0.85492	-158.6472
5507250000		0.85415	-161.9705
5607200000		0.85412	-165.2016
5707150000		0.85512	-168.2554
5807100000		0.85561	-171.3464
5907050000		0.85453	-174.5962
6007000000		0.85544	-177.5471
6106950000		0.85604	179.5423
6206900000		0.85659	176.6342
6306850000		0.85573	173.5764
6406800000		0.85567	170.6442
6506750000		0.856	167.8194
6606700000		0.85659	165.0247
6706650000		0.85704	162.2177
6806600000		0.858	159.5798
6906550000		0.85841	156.8195
7006500000		0.85997	154.2804
7106450000		0.86155	151.6937
7206400000		0.86258	149.1591
7306350000		0.86288	146.5661
!
!				Infineon Technologies AG
