! Infineon Technologies  Discrete & RF Semiconductors
! BAT17-05W
! IAC = 0.1 mA
! One-Port S-Parameters
# Hz  S  MA  R  50
!f									S11
!Hz							Mag  Ang
309850000		0.7744	-7.784
409800000		0.77458	-10.3232
509750000		0.7734	-12.8673
609700000		0.77319	-15.4288
709650000		0.77515	-18.0642
809600000		0.76831	-20.7552
909550000		0.76873	-23.4659
1009500000		0.77048	-26.0572
1109450000		0.77283	-28.6516
1209400000		0.7666	-31.3011
1309350000		0.76418	-34.1415
1409300000		0.76133	-36.9529
1509250000		0.75796	-39.8043
1609200000		0.75694	-42.633
1709150000		0.76506	-45.1297
1809100000		0.76229	-48.1483
1909050000		0.75678	-51.1062
2009000000		0.75032	-54.2229
2108950000		0.75552	-57.1275
2208900000		0.75184	-60.203
2308850000		0.74916	-63.2997
2408800000		0.74564	-66.4439
2508750000		0.74701	-69.3975
2608700000		0.74696	-72.5988
2708650000		0.74328	-75.8254
2808600000		0.74833	-78.8695
2908550000		0.74435	-82.1987
3008500000		0.74093	-85.3347
3108450000		0.73977	-88.6419
3208400000		0.74454	-91.6505
3308350000		0.74421	-94.9631
3408300000		0.7411	-98.3551
3508250000		0.74061	-101.711
3608200000		0.74247	-104.8414
3708150000		0.74092	-108.2795
3808100000		0.73893	-111.6862
3908050000		0.73676	-115.1382
4008000000		0.7345	-118.6167
4107950000		0.73534	-121.9381
4207900000		0.74054	-124.9762
4307850000		0.74447	-128.0267
4407800000		0.74165	-131.5867
4507750000		0.74059	-135.0337
4607700000		0.74152	-138.3605
4707650000		0.7486	-141.2206
4807600000		0.74856	-144.6075
4907550000		0.7516	-147.7688
5007500000		0.75179	-151.196
5107450000		0.75302	-154.5003
5207400000		0.75614	-157.695
5307350000		0.75971	-160.7943
5407300000		0.76218	-163.9767
5507250000		0.76258	-167.286
5607200000		0.76445	-170.4849
5707150000		0.76788	-173.4993
5807100000		0.77084	-176.5279
5907050000		0.77133	-179.7173
6007000000		0.775	177.4081
6106950000		0.77831	174.5713
6206900000		0.78124	171.7321
6306850000		0.78221	168.7679
6406800000		0.78405	165.9239
6506750000		0.78672	163.1772
6606700000		0.7893	160.4669
6706650000		0.79161	157.751
6806600000		0.79487	155.2087
6906550000		0.79682	152.5339
7006500000		0.8007	150.0836
7106450000		0.80435	147.5998
7206400000		0.80749	145.1501
7306350000		0.80947	142.6449
!
!				Infineon Technologies AG
