! Infineon Technologies  Discrete & RF Semiconductors
! BAT17-05W
! IAC = 0.05 mA
! One-Port S-Parameters
# Hz  S  MA  R  50
!f									S11
!Hz							Mag  Ang
309850000		0.88138	-7.5472
409800000		0.8815	-10.0296
509750000		0.88033	-12.5016
609700000		0.88013	-14.9874
709650000		0.88094	-17.4984
809600000		0.87613	-20.0817
909550000		0.87594	-22.6379
1009500000		0.87687	-25.1479
1109450000		0.87782	-27.646
1209400000		0.87362	-30.2653
1309350000		0.8716	-32.95
1409300000		0.86929	-35.6486
1509250000		0.8669	-38.3561
1609200000		0.86586	-41.075
1709150000		0.87031	-43.5176
1809100000		0.86818	-46.3946
1909050000		0.86433	-49.2654
2009000000		0.85975	-52.2212
2108950000		0.86256	-55.0268
2208900000		0.85938	-57.9783
2308850000		0.85689	-60.9618
2408800000		0.85363	-64.0256
2508750000		0.85396	-66.9207
2608700000		0.85301	-69.9455
2708650000		0.85001	-73.1117
2808600000		0.85239	-75.9701
2908550000		0.84886	-79.193
3008500000		0.84578	-82.2859
3108450000		0.84399	-85.4784
3208400000		0.84652	-88.3887
3308350000		0.84531	-91.5839
3408300000		0.84231	-94.8924
3508250000		0.84092	-98.1167
3608200000		0.84154	-101.1908
3708150000		0.83961	-104.5279
3808100000		0.8371	-107.8799
3908050000		0.83464	-111.2673
4008000000		0.832	-114.6242
4107950000		0.8318	-117.9167
4207900000		0.83427	-120.9008
4307850000		0.83594	-123.918
4407800000		0.83309	-127.4035
4507750000		0.83129	-130.822
4607700000		0.8311	-134.1098
4707650000		0.83515	-136.9595
4807600000		0.83417	-140.3473
4907550000		0.83533	-143.5049
5007500000		0.83458	-146.9208
5107450000		0.83485	-150.1968
5207400000		0.83602	-153.4096
5307350000		0.83743	-156.5314
5407300000		0.83817	-159.7367
5507250000		0.83762	-163.0615
5607200000		0.83786	-166.2878
5707150000		0.83931	-169.3361
5807100000		0.84025	-172.4144
5907050000		0.83942	-175.6529
6007000000		0.84085	-178.5917
6106950000		0.84196	178.5123
6206900000		0.84297	175.6131
6306850000		0.84236	172.5731
6406800000		0.84265	169.6617
6506750000		0.8434	166.8478
6606700000		0.84435	164.0691
6706650000		0.84517	161.2799
6806600000		0.84655	158.6619
6906550000		0.8472	155.9178
7006500000		0.84919	153.3949
7106450000		0.85116	150.8302
7206400000		0.85259	148.3117
7306350000		0.85323	145.7365
!
!				Infineon Technologies AG
