! Infineon Technologies  Discrete & RF Semiconductors
! BAT17-05W
! VCA = 0 V
! One-Port S-Parameters
# Hz  S  MA  R  50
!f									S11
!Hz							Mag  Ang
309850000		0.99903	-6.2281
409800000		0.99836	-8.2016
509750000		0.99748	-10.175
609700000		0.99727	-12.2243
709650000		0.99639	-14.2437
809600000		0.99558	-16.2665
909550000		0.99492	-18.2974
1009500000		0.99411	-20.3613
1109450000		0.99318	-22.423
1209400000		0.99252	-24.4999
1309350000		0.99181	-26.6257
1409300000		0.99103	-28.7754
1509250000		0.98996	-30.9215
1609200000		0.98957	-33.1146
1709150000		0.98869	-35.3414
1809100000		0.98751	-37.5976
1909050000		0.9867	-39.8431
2009000000		0.98589	-42.1349
2108950000		0.98486	-44.5191
2208900000		0.98348	-46.8346
2308850000		0.98213	-49.2147
2408800000		0.98108	-51.611
2508750000		0.97966	-54.0313
2608700000		0.97849	-56.5401
2708650000		0.97758	-59.0469
2808600000		0.976	-61.5552
2908550000		0.97476	-64.0816
3008500000		0.97292	-66.6711
3108450000		0.97156	-69.2445
3208400000		0.97011	-71.8821
3308350000		0.96852	-74.4642
3408300000		0.9674	-77.1512
3508250000		0.96622	-79.8413
3608200000		0.96433	-82.533
3708150000		0.96301	-85.2352
3808100000		0.9616	-87.9525
3908050000		0.96034	-90.6904
4008000000		0.95884	-93.4479
4107950000		0.95748	-96.2445
4207900000		0.95593	-99.0392
4307850000		0.95442	-101.8327
4407800000		0.95281	-104.6424
4507750000		0.9517	-107.4712
4607700000		0.95053	-110.3404
4707650000		0.94953	-113.2022
4807600000		0.94864	-116.09
4907550000		0.94764	-118.993
5007500000		0.9468	-121.9338
5107450000		0.94578	-124.8944
5207400000		0.94513	-127.8568
5307350000		0.94404	-130.8434
5407300000		0.94292	-133.8621
5507250000		0.94183	-136.8822
5607200000		0.94059	-139.9423
5707150000		0.93956	-142.9906
5807100000		0.93792	-146.0457
5907050000		0.93616	-149.1041
6007000000		0.93441	-152.1637
6106950000		0.93235	-155.2052
6206900000		0.93047	-158.2168
6306850000		0.92826	-161.2199
6406800000		0.92619	-164.1908
6506750000		0.92404	-167.1559
6606700000		0.92229	-170.0642
6706650000		0.92064	-172.9574
6806600000		0.91874	-175.8144
6906550000		0.9173	-178.6765
7006500000		0.91562	178.473
7106450000		0.91467	175.6316
7206400000		0.91268	172.8034
7306350000		0.91039	169.982
!
!				Infineon Technologies AG
