! Infineon Technologies  Discrete & RF Semiconductors
! BAT17-05W
! IAC = 0.6 mA
! One-Port S-Parameters
# Hz  S  MA  R  50
!f									S11
!Hz							Mag  Ang
309850000		0.07185	-17.3826
409800000		0.07024	-22.9749
509750000		0.07123	-29.4811
609700000		0.07155	-36.5247
709650000		0.07706	-42.6413
809600000		0.07833	-49.7617
909550000		0.08318	-56.822
1009500000		0.08416	-63.2437
1109450000		0.08902	-68.0686
1209400000		0.08793	-73.972
1309350000		0.09398	-80.4351
1409300000		0.0985	-85.9556
1509250000		0.10231	-93.3262
1609200000		0.10794	-98.2892
1709150000		0.11318	-100.481
1809100000		0.12033	-106.4936
1909050000		0.12421	-112.344
2009000000		0.13043	-117.9755
2108950000		0.14037	-120.6205
2208900000		0.14831	-124.5069
2308850000		0.15603	-128.5959
2408800000		0.16382	-131.1497
2508750000		0.17232	-133.8959
2608700000		0.18202	-137.2904
2708650000		0.18985	-140.5554
2808600000		0.20103	-143.5151
2908550000		0.20971	-146.5143
3008500000		0.21485	-150.2534
3108450000		0.22473	-152.8893
3208400000		0.23442	-155.67
3308350000		0.24531	-157.9624
3408300000		0.25452	-160.9042
3508250000		0.26478	-163.5211
3608200000		0.27318	-166.454
3708150000		0.28368	-169.0617
3808100000		0.29287	-171.2104
3908050000		0.30246	-173.6742
4008000000		0.31169	-176.4751
4107950000		0.32159	-178.8854
4207900000		0.33223	179.2868
4307850000		0.342	177.3773
4407800000		0.35184	174.6456
4507750000		0.36144	172.4449
4607700000		0.37096	170.1128
4707650000		0.38102	168.3938
4807600000		0.3902	166.3027
4907550000		0.40032	164.4202
5007500000		0.4103	162.1463
5107450000		0.41916	159.6401
5207400000		0.42962	157.8708
5307350000		0.43988	156.0751
5407300000		0.4494	154.0602
5507250000		0.45819	151.7878
5607200000		0.46742	149.6993
5707150000		0.47701	147.7707
5807100000		0.48666	145.9564
5907050000		0.49563	143.9208
6007000000		0.5051	142.2501
6106950000		0.51421	140.5316
6206900000		0.52311	138.7408
6306850000		0.53191	136.9583
6406800000		0.54062	135.1815
6506750000		0.54945	133.4422
6606700000		0.55817	131.7227
6706650000		0.56699	130.014
6806600000		0.57578	128.4435
6906550000		0.58386	126.6485
7006500000		0.5927	125.0826
7106450000		0.60154	123.5338
7206400000		0.60985	121.88
7306350000		0.61743	120.1917
!
!				Infineon Technologies AG
