! Infineon Technologies  Discrete & RF Semiconductors
! BAT17-05W
! IAC = 1 mA
! One-Port S-Parameters
# Hz  S  MA  R  50
!f									S11
!Hz							Mag  Ang
309850000		0.20344	177.0519
409800000		0.20582	176.1767
509750000		0.20695	175.5714
609700000		0.20892	174.8994
709650000		0.20825	174.6078
809600000		0.20892	174.2311
909550000		0.21147	173.9605
1009500000		0.21589	173.1069
1109450000		0.21822	172.5163
1209400000		0.22191	171.4509
1309350000		0.22437	171.1659
1409300000		0.22772	170.5274
1509250000		0.23339	169.8282
1609200000		0.2377	169.1087
1709150000		0.24118	168.0837
1809100000		0.2468	167.4706
1909050000		0.25245	166.5427
2009000000		0.25796	165.8174
2108950000		0.26262	165.2493
2208900000		0.26722	164.6253
2308850000		0.27303	163.8791
2408800000		0.27652	163.2926
2508750000		0.28166	162.5789
2608700000		0.28807	161.8288
2708650000		0.29357	160.9682
2808600000		0.30116	160.1544
2908550000		0.3068	159.3393
3008500000		0.31348	157.7849
3108450000		0.31951	156.9746
3208400000		0.32727	155.8754
3308350000		0.33343	155.1773
3408300000		0.34038	154.1873
3508250000		0.34741	153.2134
3608200000		0.35535	151.8143
3708150000		0.36244	150.8418
3808100000		0.36838	149.9312
3908050000		0.37503	148.9309
4008000000		0.38282	147.6248
4107950000		0.39024	146.4577
4207900000		0.3971	145.4141
4307850000		0.40375	144.3369
4407800000		0.41198	143.033
4507750000		0.41888	141.9376
4607700000		0.42648	140.6324
4707650000		0.43332	139.4582
4807600000		0.4401	138.3104
4907550000		0.44711	137.2005
5007500000		0.45471	135.9434
5107450000		0.463	134.3771
5207400000		0.46973	133.3028
5307350000		0.47675	132.1914
5407300000		0.48395	130.9144
5507250000		0.49148	129.504
5607200000		0.49889	128.1595
5707150000		0.5064	126.9104
5807100000		0.51365	125.7107
5907050000		0.52109	124.417
6007000000		0.52789	123.2723
6106950000		0.5348	122.0866
6206900000		0.54186	120.8579
6306850000		0.54883	119.6797
6406800000		0.55588	118.4835
6506750000		0.56305	117.2752
6606700000		0.57016	116.0802
6706650000		0.57748	114.9035
6806600000		0.58446	113.7802
6906550000		0.59162	112.4989
7006500000		0.59863	111.3403
7106450000		0.60559	110.2158
7206400000		0.61267	108.978
7306350000		0.61911	107.7074
!
!				Infineon Technologies AG
