! Infineon Technologies  Discrete & RF Semiconductors
! BAT17-05W
! IAC = 0.8 mA
! One-Port S-Parameters
# Hz  S  MA  R  50
!f									S11
!Hz							Mag  Ang
309850000		0.08754	-178.0516
409800000		0.09063	-177.7752
509750000		0.09247	-176.6463
609700000		0.09555	-175.7977
709650000		0.09569	-173.7227
809600000		0.09855	-172.5076
909550000		0.1026	-170.8463
1009500000		0.10834	-171.2885
1109450000		0.11175	-170.7308
1209400000		0.11688	-172.0379
1309350000		0.12202	-171.129
1409300000		0.12729	-171.2328
1509250000		0.13551	-172.0058
1609200000		0.14158	-172.4499
1709150000		0.14526	-173.1464
1809100000		0.15365	-173.7079
1909050000		0.16138	-175.1603
2009000000		0.16951	-176.175
2108950000		0.17611	-176.3099
2208900000		0.18322	-176.926
2308850000		0.19135	-177.9697
2408800000		0.19695	-178.4272
2508750000		0.20401	-179.1764
2608700000		0.2128	179.8445
2708650000		0.22032	178.6791
2808600000		0.2301	177.6322
2908550000		0.23797	176.5264
3008500000		0.2453	174.3217
3108450000		0.25361	173.2884
3208400000		0.26291	171.8194
3308350000		0.27167	170.9419
3408300000		0.28054	169.5216
3508250000		0.28966	168.2194
3608200000		0.29858	166.3411
3708150000		0.30794	165.0115
3808100000		0.31581	163.8392
3908050000		0.3244	162.4948
4008000000		0.33356	160.7425
4107950000		0.34269	159.2301
4207900000		0.35133	158.0183
4307850000		0.35951	156.7711
4407800000		0.36933	154.9749
4507750000		0.37797	153.5439
4607700000		0.3869	151.9116
4707650000		0.39505	150.6522
4807600000		0.40351	149.1578
4907550000		0.41209	147.8559
5007500000		0.42119	146.2795
5107450000		0.43029	144.3439
5207400000		0.43892	143.0776
5307350000		0.44763	141.7621
5407300000		0.45614	140.2347
5507250000		0.4647	138.5013
5607200000		0.47329	136.8875
5707150000		0.48198	135.3964
5807100000		0.49054	133.9899
5907050000		0.49903	132.424
6007000000		0.50721	131.1019
6106950000		0.51525	129.7291
6206900000		0.52339	128.293
6306850000		0.53146	126.8984
6406800000		0.53954	125.4847
6506750000		0.54768	124.0782
6606700000		0.55574	122.6888
6706650000		0.564	121.3121
6806600000		0.57198	120.0229
6906550000		0.57981	118.5372
7006500000		0.58787	117.2282
7106450000		0.59586	115.9456
7206400000		0.60368	114.5459
7306350000		0.61084	113.1123
!
!				Infineon Technologies AG
