! Infineon Technologies  Discrete & RF Semiconductors
! BAT17-05W
! VCA = 1 V
! One-Port S-Parameters
# Hz  S  MA  R  50
!f									S11
!Hz							Mag  Ang
309850000		0.99902	-4.6942
409800000		0.99865	-6.2147
509750000		0.99815	-7.7312
609700000		0.99776	-9.2569
709650000		0.99684	-10.7537
809600000		0.99634	-12.3129
909550000		0.99582	-13.8428
1009500000		0.99525	-15.4027
1109450000		0.99444	-16.9544
1209400000		0.99395	-18.5143
1309350000		0.99342	-20.12
1409300000		0.99289	-21.7471
1509250000		0.99215	-23.3623
1609200000		0.99204	-25.017
1709150000		0.9915	-26.6985
1809100000		0.99059	-28.4094
1909050000		0.99003	-30.1026
2009000000		0.98956	-31.8395
2108950000		0.98913	-33.657
2208900000		0.98799	-35.4083
2308850000		0.98707	-37.2169
2408800000		0.98646	-39.0398
2508750000		0.98552	-40.8774
2608700000		0.98478	-42.8016
2708650000		0.98427	-44.7253
2808600000		0.98322	-46.6434
2908550000		0.98235	-48.5913
3008500000		0.98135	-50.5892
3108450000		0.98017	-52.5468
3208400000		0.9795	-54.6276
3308350000		0.97841	-56.6548
3408300000		0.97748	-58.719
3508250000		0.97676	-60.8271
3608200000		0.97535	-62.9422
3708150000		0.97438	-65.068
3808100000		0.97336	-67.222
3908050000		0.97246	-69.395
4008000000		0.97141	-71.5988
4107950000		0.97042	-73.8452
4207900000		0.96935	-76.0854
4307850000		0.96811	-78.3443
4407800000		0.9667	-80.6264
4507750000		0.96579	-82.9396
4607700000		0.96495	-85.2983
4707650000		0.96406	-87.6547
4807600000		0.9631	-90.0531
4907550000		0.96208	-92.4795
5007500000		0.96137	-94.9447
5107450000		0.96063	-97.4478
5207400000		0.96019	-99.9654
5307350000		0.95925	-102.5456
5407300000		0.95832	-105.1587
5507250000		0.95745	-107.8215
5607200000		0.95655	-110.5161
5707150000		0.95591	-113.2634
5807100000		0.95456	-116.0267
5907050000		0.95312	-118.8719
6007000000		0.95168	-121.7226
6106950000		0.94976	-124.6017
6206900000		0.94772	-127.4984
6306850000		0.94543	-130.422
6406800000		0.94306	-133.361
6506750000		0.94045	-136.3249
6606700000		0.93808	-139.2624
6706650000		0.93549	-142.2304
6806600000		0.93258	-145.1885
6906550000		0.93015	-148.1885
7006500000		0.92736	-151.1919
7106450000		0.92521	-154.219
7206400000		0.92159	-157.2696
7306350000		0.91803	-160.3364
!
!				Infineon Technologies AG
