! Infineon Technologies  Discrete & RF Semiconductors
! BAT17-05W
! IAC = 0.03 mA
! One-Port S-Parameters
# Hz  S  MA  R  50
!f									S11
!Hz							Mag  Ang
309850000		0.92716	-7.4646
409800000		0.92681	-9.8631
509750000		0.92574	-12.2864
609700000		0.92552	-14.7211
709650000		0.9256	-17.167
809600000		0.92212	-19.6924
909550000		0.92169	-22.175
1009500000		0.92197	-24.6322
1109450000		0.92219	-27.0774
1209400000		0.91914	-29.6609
1309350000		0.91746	-32.2695
1409300000		0.91558	-34.9111
1509250000		0.9136	-37.5504
1609200000		0.91261	-40.212
1709150000		0.91523	-42.6625
1809100000		0.9132	-45.4315
1909050000		0.91029	-48.2411
2009000000		0.90699	-51.1662
2108950000		0.90819	-53.8757
2208900000		0.90538	-56.7644
2308850000		0.9033	-59.6849
2408800000		0.90039	-62.6997
2508750000		0.90003	-65.5419
2608700000		0.89863	-68.4666
2708650000		0.89625	-71.6099
2808600000		0.89717	-74.4009
2908550000		0.89392	-77.5281
3008500000		0.89125	-80.6302
3108450000		0.88938	-83.7587
3208400000		0.89033	-86.586
3308350000		0.889	-89.7554
3408300000		0.88639	-93.0117
3508250000		0.88489	-96.2181
3608200000		0.88457	-99.2102
3708150000		0.88266	-102.4915
3808100000		0.88017	-105.8083
3908050000		0.87785	-109.1566
4008000000		0.87547	-112.5012
4107950000		0.87458	-115.7164
4207900000		0.87564	-118.669
4307850000		0.87621	-121.6639
4407800000		0.87364	-125.1077
4507750000		0.87177	-128.5005
4607700000		0.8711	-131.7667
4707650000		0.87348	-134.606
4807600000		0.87231	-137.9844
4907550000		0.87266	-141.1361
5007500000		0.87168	-144.5376
5107450000		0.87147	-147.7962
5207400000		0.87187	-151.0117
5307350000		0.87238	-154.1386
5407300000		0.87235	-157.3523
5507250000		0.87143	-160.6733
5607200000		0.87105	-163.9087
5707150000		0.87159	-166.9705
5807100000		0.8716	-170.0724
5907050000		0.8703	-173.331
6007000000		0.87065	-176.2977
6106950000		0.87071	-179.2211
6206900000		0.87078	177.8526
6306850000		0.86961	174.7762
6406800000		0.86925	171.8288
6506750000		0.86918	168.9828
6606700000		0.86929	166.1724
6706650000		0.86948	163.343
6806600000		0.87	160.6878
6906550000		0.87009	157.9042
7006500000		0.87117	155.3451
7106450000		0.8724	152.7389
7206400000		0.87304	150.1847
7306350000		0.87288	147.5695
!
!				Infineon Technologies AG
