! Infineon Technologies  Discrete & RF Semiconductors
! BAT17-05W
! IAC = 0.02 mA
! One-Port S-Parameters
# Hz  S  MA  R  50
!f									S11
!Hz							Mag  Ang
309850000		0.95034	-7.3433
409800000		0.95014	-9.7361
509750000		0.94917	-12.1285
609700000		0.94884	-14.5247
709650000		0.94866	-16.9286
809600000		0.94587	-19.4128
909550000		0.94526	-21.8487
1009500000		0.94517	-24.2713
1109450000		0.94498	-26.6791
1209400000		0.94262	-29.2295
1309350000		0.94113	-31.7942
1409300000		0.93945	-34.3941
1509250000		0.93774	-36.9894
1609200000		0.93677	-39.6136
1709150000		0.93825	-42.0455
1809100000		0.9364	-44.7662
1909050000		0.93398	-47.534
2009000000		0.93137	-50.4131
2108950000		0.93179	-53.0839
2208900000		0.92933	-55.9295
2308850000		0.92712	-58.7733
2408800000		0.9246	-61.7464
2508750000		0.92399	-64.5901
2608700000		0.92244	-67.4685
2708650000		0.92042	-70.5723
2808600000		0.92048	-73.3233
2908550000		0.91781	-76.4452
3008500000		0.91505	-79.4836
3108450000		0.9132	-82.5746
3208400000		0.91351	-85.3978
3308350000		0.9119	-88.4976
3408300000		0.90947	-91.7199
3508250000		0.90798	-94.8884
3608200000		0.90709	-97.8496
3708150000		0.90533	-101.0894
3808100000		0.90294	-104.3771
3908050000		0.9008	-107.6974
4008000000		0.89849	-111.0048
4107950000		0.89739	-114.1961
4207900000		0.89765	-117.1267
4307850000		0.89754	-120.1071
4407800000		0.89517	-123.5176
4507750000		0.89333	-126.8923
4607700000		0.89242	-130.1421
4707650000		0.89387	-132.9744
4807600000		0.89262	-136.3423
4907550000		0.89258	-139.4894
5007500000		0.89155	-142.8785
5107450000		0.89113	-146.122
5207400000		0.89111	-149.335
5307350000		0.89104	-152.4662
5407300000		0.89063	-155.6815
5507250000		0.88963	-159.0019
5607200000		0.88894	-162.2397
5707150000		0.88897	-165.3093
5807100000		0.88852	-168.4255
5907050000		0.88698	-171.6984
6007000000		0.88674	-174.6805
6106950000		0.88619	-177.6226
6206900000		0.88578	179.4368
6306850000		0.88437	176.3363
6406800000		0.88359	173.3672
6506750000		0.88303	170.4989
6606700000		0.8828	167.6654
6706650000		0.88261	164.8132
6806600000		0.88269	162.1272
6906550000		0.88255	159.3224
7006500000		0.88303	156.7349
7106450000		0.88384	154.1009
7206400000		0.88404	151.5213
7306350000		0.8836	148.8764
!
!				Infineon Technologies AG
