! Infineon Technologies  Discrete & RF Semiconductors
! BAT17-05W
! IAC = 3 mA
! One-Port S-Parameters
# Hz  S  MA  R  50
!f									S11
!Hz							Mag  Ang
309850000		0.61758	174.9265
409800000		0.61753	173.4229
509750000		0.61743	171.9311
609700000		0.61741	170.4721
709650000		0.6174	168.9992
809600000		0.61742	167.5417
909550000		0.61834	166.0969
1009500000		0.61945	164.6324
1109450000		0.62039	163.1936
1209400000		0.62153	161.765
1309350000		0.62235	160.3568
1409300000		0.62344	158.9466
1509250000		0.62471	157.5771
1609200000		0.62631	156.2126
1709150000		0.6279	154.821
1809100000		0.62927	153.4775
1909050000		0.63048	152.1821
2009000000		0.63232	150.857
2108950000		0.63389	149.5795
2208900000		0.63529	148.2974
2308850000		0.63689	147.074
2408800000		0.63876	145.8051
2508750000		0.64048	144.6051
2608700000		0.64246	143.4085
2708650000		0.64413	142.1595
2808600000		0.64648	141.0212
2908550000		0.64855	139.7918
3008500000		0.65095	138.5517
3108450000		0.65283	137.3649
3208400000		0.65523	136.1984
3308350000		0.65709	135.0281
3408300000		0.65914	133.8861
3508250000		0.66141	132.7115
3608200000		0.66388	131.5632
3708150000		0.66587	130.4089
3808100000		0.66757	129.2769
3908050000		0.66952	128.1524
4008000000		0.67203	127.0002
4107950000		0.67422	125.8617
4207900000		0.67651	124.7079
4307850000		0.67866	123.5726
4407800000		0.68128	122.4379
4507750000		0.68368	121.3107
4607700000		0.68621	120.1648
4707650000		0.68852	118.9945
4807600000		0.69057	117.8598
4907550000		0.69289	116.7386
5007500000		0.69512	115.6115
5107450000		0.69782	114.4675
5207400000		0.69971	113.3214
5307350000		0.70174	112.2265
5407300000		0.70376	111.0932
5507250000		0.70579	110.0364
5607200000		0.70792	108.9548
5707150000		0.71022	107.944
5807100000		0.71287	106.878
5907050000		0.71534	105.8782
6007000000		0.71749	104.8379
6106950000		0.71981	103.8326
6206900000		0.72236	102.8385
6306850000		0.72473	101.8597
6406800000		0.72732	100.9037
6506750000		0.73007	99.9441
6606700000		0.73279	98.9823
6706650000		0.73586	98.037
6806600000		0.73872	97.0805
6906550000		0.74187	96.1301
7006500000		0.7448	95.1475
7106450000		0.74762	94.1716
7206400000		0.75078	93.185
7306350000		0.7533	92.1587
!
!				Infineon Technologies AG
