! Infineon Technologies  Discrete & RF Semiconductors
! BAT17-05W
! IAC = 0.07 mA
! One-Port S-Parameters
# Hz  S  MA  R  50
!f									S11
!Hz							Mag  Ang
309850000		0.83766	-7.6714
409800000		0.83755	-10.1504
509750000		0.83638	-12.6534
609700000		0.83635	-15.183
709650000		0.83768	-17.7488
809600000		0.83191	-20.3789
909550000		0.83193	-22.9983
1009500000		0.83329	-25.5459
1109450000		0.83482	-28.0857
1209400000		0.82971	-30.7257
1309350000		0.82751	-33.4704
1409300000		0.82495	-36.2187
1509250000		0.82214	-38.9843
1609200000		0.82108	-41.7486
1709150000		0.8273	-44.2376
1809100000		0.82479	-47.1536
1909050000		0.82022	-50.0636
2009000000		0.8148	-53.1063
2108950000		0.81863	-55.9318
2208900000		0.81514	-58.9337
2308850000		0.81256	-61.9655
2408800000		0.8091	-65.0679
2508750000		0.80978	-67.9711
2608700000		0.80931	-71.0894
2708650000		0.806	-74.2949
2808600000		0.80954	-77.216
2908550000		0.80568	-80.4842
3008500000		0.8023	-83.5648
3108450000		0.80093	-86.8389
3208400000		0.80445	-89.7908
3308350000		0.8036	-93.0368
3408300000		0.80041	-96.3806
3508250000		0.79949	-99.6796
3608200000		0.80054	-102.7618
3708150000		0.79874	-106.1421
3808100000		0.79638	-109.5204
3908050000		0.79394	-112.9357
4008000000		0.7915	-116.3653
4107950000		0.79156	-119.6508
4207900000		0.79525	-122.6585
4307850000		0.79798	-125.6915
4407800000		0.79502	-129.2118
4507750000		0.79343	-132.6422
4607700000		0.79367	-135.9497
4707650000		0.79909	-138.8061
4807600000		0.79842	-142.1947
4907550000		0.80039	-145.3558
5007500000		0.79998	-148.7784
5107450000		0.80061	-152.0693
5207400000		0.80259	-155.2775
5307350000		0.8049	-158.3896
5407300000		0.80638	-161.5899
5507250000		0.80615	-164.9072
5607200000		0.80708	-168.1235
5707150000		0.80934	-171.1608
5807100000		0.81117	-174.2194
5907050000		0.81082	-177.4404
6007000000		0.81324	179.6481
6106950000		0.81528	176.7762
6206900000		0.81706	173.9022
6306850000		0.81715	170.8936
6406800000		0.81811	168.0076
6506750000		0.81962	165.2217
6606700000		0.82118	162.4728
6706650000		0.82264	159.7173
6806600000		0.82487	157.1289
6906550000		0.82603	154.4134
7006500000		0.8288	151.9212
7106450000		0.83153	149.3898
7206400000		0.8337	146.9022
7306350000		0.83483	144.3545
!
!				Infineon Technologies AG
