! Infineon Technologies  Discrete & RF Semiconductors
! BAT17-05W
! IAC = 0.06 mA
! One-Port S-Parameters
# Hz  S  MA  R  50
!f									S11
!Hz							Mag  Ang
309850000		0.85943	-7.6307
409800000		0.85931	-10.0935
509750000		0.85792	-12.5491
609700000		0.85809	-15.0919
709650000		0.85912	-17.6303
809600000		0.85377	-20.2379
909550000		0.85369	-22.8258
1009500000		0.8549	-25.3544
1109450000		0.85614	-27.8749
1209400000		0.85146	-30.5077
1309350000		0.84937	-33.2222
1409300000		0.84687	-35.9468
1509250000		0.84433	-38.6844
1609200000		0.84327	-41.4272
1709150000		0.84871	-43.9082
1809100000		0.84633	-46.7903
1909050000		0.84206	-49.6784
2009000000		0.8371	-52.6994
2108950000		0.8404	-55.4963
2208900000		0.83694	-58.4408
2308850000		0.8345	-61.4825
2408800000		0.83115	-64.5675
2508750000		0.83157	-67.45
2608700000		0.83093	-70.5407
2708650000		0.82757	-73.6912
2808600000		0.83071	-76.6171
2908550000		0.82702	-79.8633
3008500000		0.82385	-82.9681
3108450000		0.82224	-86.1854
3208400000		0.8253	-89.1166
3308350000		0.82427	-92.3413
3408300000		0.8211	-95.6654
3508250000		0.82006	-98.9441
3608200000		0.8209	-102.0059
3708150000		0.81894	-105.3666
3808100000		0.81647	-108.7345
3908050000		0.81407	-112.1362
4008000000		0.81155	-115.5454
4107950000		0.81149	-118.8189
4207900000		0.81453	-121.8147
4307850000		0.81672	-124.8385
4407800000		0.81382	-128.3429
4507750000		0.81211	-131.7692
4607700000		0.81211	-135.0682
4707650000		0.8169	-137.9206
4807600000		0.81607	-141.3089
4907550000		0.81761	-144.4706
5007500000		0.817	-147.8886
5107450000		0.81749	-151.174
5207400000		0.819	-154.384
5307350000		0.82089	-157.5016
5407300000		0.82204	-160.7061
5507250000		0.82162	-164.0243
5607200000		0.8222	-167.2474
5707150000		0.82407	-170.2902
5807100000		0.82547	-173.3595
5907050000		0.8249	-176.5889
6007000000		0.82679	-179.5115
6106950000		0.82837	177.6025
6206900000		0.82977	174.7173
6306850000		0.8295	171.693
6406800000		0.83014	168.7964
6506750000		0.8313	165.9963
6606700000		0.83256	163.232
6706650000		0.83368	160.4597
6806600000		0.83542	157.8587
6906550000		0.83644	155.1287
7006500000		0.83883	152.6203
7106450000		0.84117	150.0737
7206400000		0.843	147.5708
7306350000		0.84388	145.0104
!
!				Infineon Technologies AG
