! Infineon Technologies  Discrete & RF Semiconductors
! BAT17-05W
! IAC = 6 mA
! One-Port S-Parameters
# Hz  S  MA  R  50
!f									S11
!Hz							Mag  Ang
309850000		0.75089	174.8327
409800000		0.75028	173.29
509750000		0.74964	171.7892
609700000		0.74943	170.258
709650000		0.74936	168.7337
809600000		0.74932	167.2219
909550000		0.7497	165.7159
1009500000		0.75006	164.2115
1109450000		0.75046	162.728
1209400000		0.75118	161.2544
1309350000		0.75162	159.7966
1409300000		0.75213	158.3403
1509250000		0.75267	156.9263
1609200000		0.75363	155.516
1709150000		0.75435	154.0929
1809100000		0.75487	152.7003
1909050000		0.75533	151.3599
2009000000		0.75675	149.9784
2108950000		0.75729	148.694
2208900000		0.7583	147.3264
2308850000		0.75893	146.0866
2408800000		0.76044	144.7566
2508750000		0.76157	143.4798
2608700000		0.76285	142.2031
2708650000		0.76374	140.936
2808600000		0.76498	139.7543
2908550000		0.76651	138.478
3008500000		0.76776	137.2686
3108450000		0.76908	135.9933
3208400000		0.77039	134.7844
3308350000		0.77148	133.5568
3408300000		0.7728	132.3656
3508250000		0.77425	131.1431
3608200000		0.77553	129.9699
3708150000		0.77664	128.7672
3808100000		0.77772	127.5878
3908050000		0.779	126.4186
4008000000		0.78049	125.2322
4107950000		0.78166	124.0551
4207900000		0.78294	122.8652
4307850000		0.78426	121.6948
4407800000		0.78586	120.5263
4507750000		0.78736	119.3591
4607700000		0.78897	118.1832
4707650000		0.79028	116.9773
4807600000		0.7914	115.802
4907550000		0.79278	114.646
5007500000		0.79394	113.4836
5107450000		0.79526	112.329
5207400000		0.7962	111.1448
5307350000		0.79718	110.0162
5407300000		0.79805	108.8611
5507250000		0.79866	107.7881
5607200000		0.79939	106.6977
5707150000		0.80045	105.6709
5807100000		0.80207	104.5864
5907050000		0.80328	103.5776
6007000000		0.80441	102.5218
6106950000		0.80558	101.5031
6206900000		0.80696	100.4998
6306850000		0.80833	99.5103
6406800000		0.80987	98.5414
6506750000		0.81142	97.5776
6606700000		0.81309	96.6074
6706650000		0.81523	95.6552
6806600000		0.81719	94.6868
6906550000		0.81911	93.7368
7006500000		0.8211	92.7467
7106450000		0.82301	91.7575
7206400000		0.82514	90.7709
7306350000		0.82658	89.7415
!
!				Infineon Technologies AG
