! Infineon Technologies  Discrete & RF Semiconductors
! BAT17-05W
! IAC = 0.5 mA
! One-Port S-Parameters
# Hz  S  MA  R  50
!f									S11
!Hz							Mag  Ang
309850000		0.17035	-11.2846
409800000		0.16839	-14.7473
509750000		0.16853	-18.7607
609700000		0.16758	-23.0149
709650000		0.17193	-27.3632
809600000		0.16983	-31.9484
909550000		0.17267	-36.8987
1009500000		0.17186	-41.0159
1109450000		0.17551	-44.9892
1209400000		0.17101	-48.73
1309350000		0.17309	-54.0627
1409300000		0.17431	-58.6722
1509250000		0.1729	-64.2754
1609200000		0.1754	-68.892
1709150000		0.1815	-71.5018
1809100000		0.18379	-77.1815
1909050000		0.18224	-82.2779
2009000000		0.18275	-87.856
2108950000		0.19196	-91.7522
2208900000		0.19633	-96.4031
2308850000		0.20041	-101.0974
2408800000		0.20641	-104.7168
2508750000		0.21343	-108.3442
2608700000		0.2207	-112.6445
2708650000		0.22587	-116.6649
2808600000		0.23584	-120.5287
2908550000		0.24228	-124.4514
3008500000		0.24443	-128.488
3108450000		0.25293	-132.0651
3208400000		0.26156	-135.4565
3308350000		0.27154	-138.7128
3408300000		0.27869	-142.4067
3508250000		0.28772	-145.8118
3608200000		0.29474	-149.1936
3708150000		0.30391	-152.5858
3808100000		0.31241	-155.463
3908050000		0.32082	-158.5711
4008000000		0.32856	-161.9549
4107950000		0.33773	-164.918
4207900000		0.34889	-167.2332
4307850000		0.35887	-169.5901
4407800000		0.36722	-172.8749
4507750000		0.37627	-175.5991
4607700000		0.38511	-178.3263
4707650000		0.39601	179.5881
4807600000		0.40476	177.0556
4907550000		0.41503	174.7746
5007500000		0.42443	172.1029
5107450000		0.43253	169.2349
5207400000		0.44337	167.0825
5307350000		0.45396	164.9395
5407300000		0.46343	162.6035
5507250000		0.47165	160.0082
5607200000		0.48066	157.6134
5707150000		0.49024	155.4038
5807100000		0.50003	153.3084
5907050000		0.50867	150.9773
6007000000		0.51847	149.0508
6106950000		0.5278	147.0941
6206900000		0.53674	145.0738
6306850000		0.54542	143.0283
6406800000		0.55401	141.0153
6506750000		0.56283	139.0588
6606700000		0.57148	137.1276
6706650000		0.58016	135.2057
6806600000		0.58908	133.442
6906550000		0.59692	131.4559
7006500000		0.60594	129.7223
7106450000		0.61488	127.9961
7206400000		0.62318	126.1806
7306350000		0.63062	124.3298
!
!				Infineon Technologies AG
