! Infineon Technologies  Discrete & RF Semiconductors
! BAT17-05W
! VCA = 4 V
! One-Port S-Parameters
# Hz  S  MA  R  50
!f									S11
!Hz							Mag  Ang
309850000		0.99893	-4.051
409800000		0.99843	-5.3365
509750000		0.9982	-6.6808
609700000		0.99789	-7.9981
709650000		0.99721	-9.3105
809600000		0.99651	-10.6277
909550000		0.99599	-11.9476
1009500000		0.99548	-13.2931
1109450000		0.99479	-14.6251
1209400000		0.99435	-15.9649
1309350000		0.99387	-17.3492
1409300000		0.99331	-18.7509
1509250000		0.99268	-20.1397
1609200000		0.9926	-21.5644
1709150000		0.99226	-23.0109
1809100000		0.99146	-24.4847
1909050000		0.99096	-25.9382
2009000000		0.99058	-27.4318
2108950000		0.99014	-28.9733
2208900000		0.98935	-30.5098
2308850000		0.98846	-32.0632
2408800000		0.988	-33.6314
2508750000		0.9874	-35.2447
2608700000		0.98662	-36.8712
2708650000		0.98623	-38.5298
2808600000		0.98532	-40.179
2908550000		0.9847	-41.8601
3008500000		0.98383	-43.5872
3108450000		0.98312	-45.3036
3208400000		0.98228	-47.072
3308350000		0.98137	-48.8182
3408300000		0.9806	-50.6033
3508250000		0.98009	-52.4195
3608200000		0.97885	-54.2542
3708150000		0.97798	-56.0852
3808100000		0.97707	-57.9514
3908050000		0.9764	-59.8303
4008000000		0.97555	-61.7402
4107950000		0.97478	-63.6917
4207900000		0.97394	-65.6312
4307850000		0.97283	-67.5926
4407800000		0.97158	-69.5725
4507750000		0.97083	-71.5825
4607700000		0.9702	-73.6366
4707650000		0.96938	-75.6891
4807600000		0.96843	-77.7791
4907550000		0.96742	-79.9002
5007500000		0.96679	-82.0528
5107450000		0.9662	-84.2393
5207400000		0.96581	-86.4382
5307350000		0.965	-88.7147
5407300000		0.96432	-91.0098
5507250000		0.96363	-93.3722
5607200000		0.96299	-95.75
5707150000		0.9626	-98.2042
5807100000		0.96167	-100.6737
5907050000		0.96058	-103.2501
6007000000		0.95946	-105.8316
6106950000		0.95785	-108.4607
6206900000		0.95611	-111.1202
6306850000		0.95406	-113.8233
6406800000		0.95181	-116.5613
6506750000		0.9493	-119.3347
6606700000		0.94687	-122.1066
6706650000		0.9441	-124.9263
6806600000		0.94101	-127.7517
6906550000		0.93829	-130.6373
7006500000		0.93514	-133.5363
7106450000		0.93252	-136.4771
7206400000		0.9283	-139.4667
7306350000		0.92417	-142.4907
!
!				Infineon Technologies AG
