! Infineon Technologies  Discrete & RF Semiconductors
! BAT17-05W
! VCA = 2 V
! One-Port S-Parameters
# Hz  S  MA  R  50
!f									S11
!Hz							Mag  Ang
309850000		0.99925	-4.3499
409800000		0.99868	-5.7154
509750000		0.99818	-7.1119
609700000		0.99784	-8.5142
709650000		0.99717	-9.9164
809600000		0.99651	-11.3193
909550000		0.99595	-12.7261
1009500000		0.99545	-14.16
1109450000		0.99467	-15.5826
1209400000		0.99423	-17.0125
1309350000		0.99374	-18.4882
1409300000		0.99323	-19.9822
1509250000		0.99251	-21.4619
1609200000		0.99244	-22.9816
1709150000		0.99197	-24.5253
1809100000		0.9912	-26.0983
1909050000		0.99064	-27.648
2009000000		0.99003	-29.2106
2108950000		0.98987	-30.9158
2208900000		0.98889	-32.5246
2308850000		0.98798	-34.1814
2408800000		0.98741	-35.8531
2508750000		0.98677	-37.5739
2608700000		0.98594	-39.3092
2708650000		0.98551	-41.0768
2808600000		0.98456	-42.8381
2908550000		0.98381	-44.6296
3008500000		0.98293	-46.4702
3108450000		0.98204	-48.3036
3208400000		0.98121	-50.1831
3308350000		0.98025	-52.0479
3408300000		0.97936	-53.9487
3508250000		0.97885	-55.887
3608200000		0.97757	-57.8381
3708150000		0.97662	-59.7925
3808100000		0.97568	-61.7787
3908050000		0.97488	-63.7814
4008000000		0.97399	-65.8151
4107950000		0.97319	-67.8908
4207900000		0.9722	-69.9588
4307850000		0.97106	-72.0444
4407800000		0.96972	-74.1537
4507750000		0.96895	-76.2951
4607700000		0.96823	-78.4763
4707650000		0.96743	-80.659
4807600000		0.96644	-82.8828
4907550000		0.96544	-85.136
5007500000		0.96478	-87.4247
5107450000		0.96411	-89.7477
5207400000		0.96369	-92.0885
5307350000		0.96279	-94.4988
5407300000		0.96204	-96.9334
5507250000		0.96125	-99.4301
5607200000		0.96052	-101.9476
5707150000		0.96003	-104.5381
5807100000		0.95891	-107.1413
5907050000		0.95769	-109.8433
6007000000		0.95642	-112.548
6106950000		0.95462	-115.2961
6206900000		0.95274	-118.0693
6306850000		0.95057	-120.8796
6406800000		0.9482	-123.7183
6506750000		0.94569	-126.5883
6606700000		0.94324	-129.4462
6706650000		0.94052	-132.3445
6806600000		0.93748	-135.2442
6906550000		0.93481	-138.1954
7006500000		0.93179	-141.1586
7106450000		0.92933	-144.1553
7206400000		0.92534	-147.1877
7306350000		0.92141	-150.2453
!
!				Infineon Technologies AG
