! Infineon Technologies  Discrete & RF Semiconductors
! BAT17-05W
! IAC = 8 mA
! One-Port S-Parameters
# Hz  S  MA  R  50
!f									S11
!Hz							Mag  Ang
309850000		0.78648	174.8195
409800000		0.78577	173.2725
509750000		0.78503	171.7664
609700000		0.78459	170.2637
709650000		0.78456	168.6953
809600000		0.78448	167.1793
909550000		0.78471	165.6669
1009500000		0.78496	164.1563
1109450000		0.78522	162.6653
1209400000		0.78573	161.1849
1309350000		0.7861	159.7229
1409300000		0.78645	158.2589
1509250000		0.78684	156.8394
1609200000		0.78755	155.4211
1709150000		0.78805	153.9934
1809100000		0.78824	152.6235
1909050000		0.78871	151.2462
2009000000		0.7899	149.8582
2108950000		0.79037	148.5344
2208900000		0.79113	147.1919
2308850000		0.79174	145.91
2408800000		0.79292	144.6095
2508750000		0.79371	143.3561
2608700000		0.7949	142.0384
2708650000		0.79558	140.7666
2808600000		0.79675	139.5435
2908550000		0.79795	138.2921
3008500000		0.79905	137.082
3108450000		0.80016	135.8019
3208400000		0.80103	134.6205
3308350000		0.80212	133.3451
3408300000		0.80325	132.1482
3508250000		0.80448	130.9203
3608200000		0.8055	129.7397
3708150000		0.80645	128.5301
3808100000		0.80738	127.3416
3908050000		0.80836	126.1648
4008000000		0.80969	124.9752
4107950000		0.81065	123.7913
4207900000		0.81161	122.5961
4307850000		0.81276	121.417
4407800000		0.81411	120.2415
4507750000		0.81547	119.071
4607700000		0.81679	117.8872
4707650000		0.81789	116.6763
4807600000		0.81875	115.4924
4907550000		0.81996	114.3283
5007500000		0.82081	113.1605
5107450000		0.82185	112.0021
5207400000		0.82252	110.8094
5307350000		0.82323	109.6776
5407300000		0.82382	108.5167
5507250000		0.82409	107.4393
5607200000		0.82455	106.3433
5707150000		0.82528	105.3154
5807100000		0.82658	104.2297
5907050000		0.82756	103.2163
6007000000		0.82842	102.157
6106950000		0.82933	101.138
6206900000		0.83047	100.1344
6306850000		0.83152	99.1401
6406800000		0.83279	98.1696
6506750000		0.83415	97.2037
6606700000		0.83558	96.2317
6706650000		0.8375	95.2752
6806600000		0.83921	94.3039
6906550000		0.84095	93.3528
7006500000		0.8427	92.3626
7106450000		0.8443	91.3685
7206400000		0.84624	90.3791
7306350000		0.84747	89.3499
!
!				Infineon Technologies AG
