! Infineon Technologies  Discrete & RF Semiconductors
! BAT17-05W
! IAC = 0.4 mA
! One-Port S-Parameters
# Hz  S  MA  R  50
!f									S11
!Hz							Mag  Ang
309850000		0.28669	-9.5047
409800000		0.28504	-12.4168
509750000		0.2849	-15.6657
609700000		0.28378	-19.0871
709650000		0.28784	-22.6393
809600000		0.28335	-26.2772
909550000		0.28572	-30.22
1009500000		0.2851	-33.53
1109450000		0.28873	-36.8433
1209400000		0.28243	-39.8216
1309350000		0.2823	-44.0925
1409300000		0.28177	-47.8601
1509250000		0.27793	-52.1507
1609200000		0.27884	-55.9913
1709150000		0.28665	-58.5369
1809100000		0.28601	-63.154
1909050000		0.28116	-67.1718
2009000000		0.27731	-71.6675
2108950000		0.28597	-75.507
2208900000		0.28691	-79.6998
2308850000		0.28771	-83.8547
2408800000		0.29109	-87.5631
2508750000		0.29641	-91.1722
2608700000		0.30095	-95.3583
2708650000		0.30292	-99.3094
2808600000		0.31155	-103.2678
2908550000		0.31457	-107.2783
3008500000		0.31392	-111.0667
3108450000		0.31986	-114.9309
3208400000		0.32732	-118.4483
3308350000		0.33501	-122.169
3408300000		0.33891	-126.0604
3508250000		0.34553	-129.813
3608200000		0.35099	-133.3205
3708150000		0.35735	-137.0737
3808100000		0.36384	-140.4571
3908050000		0.36979	-143.9796
4008000000		0.37506	-147.6896
4107950000		0.38256	-151.035
4207900000		0.39356	-153.7777
4307850000		0.40314	-156.5174
4407800000		0.40881	-160.1749
4507750000		0.41601	-163.2942
4607700000		0.42372	-166.447
4707650000		0.43483	-168.8044
4807600000		0.44238	-171.7623
4907550000		0.45214	-174.452
5007500000		0.46001	-177.4803
5107450000		0.46682	179.392
5207400000		0.47716	176.8394
5307350000		0.48737	174.3351
5407300000		0.49626	171.6719
5507250000		0.50324	168.7809
5607200000		0.51145	166.0886
5707150000		0.52052	163.5972
5807100000		0.52995	161.1954
5907050000		0.53754	158.5663
6007000000		0.54721	156.3603
6106950000		0.5563	154.141
6206900000		0.56485	151.8663
6306850000		0.57282	149.546
6406800000		0.58082	147.2857
6506750000		0.58911	145.0925
6606700000		0.59727	142.9326
6706650000		0.60538	140.7851
6806600000		0.61401	138.8082
6906550000		0.62117	136.6237
7006500000		0.62997	134.6979
7106450000		0.63861	132.7712
7206400000		0.64656	130.7824
7306350000		0.6535	128.7545
!
!				Infineon Technologies AG
