! Infineon Technologies  Discrete & RF Semiconductors
! BAT17-05W
! IAC = 10 mA
! One-Port S-Parameters
# Hz  S  MA  R  50
!f									S11
!Hz							Mag  Ang
309850000		0.80809	174.8125
409800000		0.80707	173.2984
509750000		0.80652	171.7498
609700000		0.80612	170.215
709650000		0.80598	168.6801
809600000		0.80578	167.1599
909550000		0.80593	165.6445
1009500000		0.8061	164.1312
1109450000		0.80628	162.6382
1209400000		0.80675	161.1538
1309350000		0.80696	159.687
1409300000		0.80723	158.2206
1509250000		0.80745	156.7988
1609200000		0.80815	155.3792
1709150000		0.80852	153.9488
1809100000		0.80868	152.5448
1909050000		0.80866	151.2295
2009000000		0.81004	149.8032
2108950000		0.8104	148.4735
2208900000		0.81097	147.13
2308850000		0.81143	145.8454
2408800000		0.8126	144.5404
2508750000		0.81339	143.2541
2608700000		0.81435	141.9649
2708650000		0.81481	140.6873
2808600000		0.81586	139.4614
2908550000		0.81698	138.2076
3008500000		0.81806	136.9614
3108450000		0.81893	135.7136
3208400000		0.81966	134.53
3308350000		0.82062	133.2508
3408300000		0.82165	132.0465
3508250000		0.82279	130.817
3608200000		0.82368	129.6344
3708150000		0.82447	128.4224
3808100000		0.82522	127.2305
3908050000		0.82616	126.0504
4008000000		0.82736	124.8548
4107950000		0.82821	123.6691
4207900000		0.82906	122.4703
4307850000		0.82998	121.2892
4407800000		0.8313	120.111
4507750000		0.8325	118.9358
4607700000		0.83371	117.7511
4707650000		0.83467	116.5357
4807600000		0.83538	115.3501
4907550000		0.83642	114.1811
5007500000		0.83715	113.0107
5107450000		0.83801	111.8479
5207400000		0.83848	110.6539
5307350000		0.8391	109.5186
5407300000		0.83954	108.3547
5507250000		0.83963	107.2756
5607200000		0.83985	106.1798
5707150000		0.84039	105.1476
5807100000		0.84159	104.0608
5907050000		0.84234	103.0465
6007000000		0.84303	101.9895
6106950000		0.84379	100.9675
6206900000		0.84476	99.9583
6306850000		0.84571	98.9651
6406800000		0.84682	97.9959
6506750000		0.84803	97.0288
6606700000		0.84929	96.0538
6706650000		0.85109	95.0981
6806600000		0.85271	94.124
6906550000		0.85425	93.1732
7006500000		0.85588	92.1812
7106450000		0.85734	91.1866
7206400000		0.85915	90.196
7306350000		0.86024	89.1656
!
!				Infineon Technologies AG
