! Infineon Technologies  Discrete & RF Semiconductors
! BAT17-05W
! IAC = 0.7 mA
! One-Port S-Parameters
# Hz  S  MA  R  50
!f									S11
!Hz							Mag  Ang
309850000		0.01923	-143.4635
409800000		0.02382	-142.6753
509750000		0.02841	-138.083
609700000		0.03404	-136.8418
709650000		0.03881	-130.3045
809600000		0.04513	-130.3269
909550000		0.05278	-129.3914
1009500000		0.05912	-132.8522
1109450000		0.06487	-132.8331
1209400000		0.06978	-137.1166
1309350000		0.07809	-137.5962
1409300000		0.08509	-139.2514
1509250000		0.09415	-142.7313
1609200000		0.10158	-144.4896
1709150000		0.10596	-145.3269
1809100000		0.11587	-147.7264
1909050000		0.12376	-151.0631
2009000000		0.13291	-153.7583
2108950000		0.14151	-154.3049
2208900000		0.15016	-155.9553
2308850000		0.15918	-158.0746
2408800000		0.16642	-159.0856
2508750000		0.17471	-160.4598
2608700000		0.1847	-162.2863
2708650000		0.1931	-164.2303
2808600000		0.20405	-165.9534
2908550000		0.2129	-167.7166
3008500000		0.21986	-170.6721
3108450000		0.22939	-172.2746
3208400000		0.23922	-174.2345
3308350000		0.24945	-175.6512
3408300000		0.25902	-177.6718
3508250000		0.2691	-179.4871
3608200000		0.27803	178.2048
3708150000		0.28844	176.3363
3808100000		0.29727	174.7807
3908050000		0.30666	172.9978
4008000000		0.31624	170.7978
4107950000		0.32601	168.9105
4207900000		0.33571	167.4686
4307850000		0.34479	165.9321
4407800000		0.35495	163.757
4507750000		0.3643	162.0036
4607700000		0.37371	160.0736
4707650000		0.38287	158.6127
4807600000		0.39179	156.9009
4907550000		0.40136	155.3151
5007500000		0.411	153.4825
5107450000		0.4202	151.27
5207400000		0.42981	149.8032
5307350000		0.43937	148.288
5407300000		0.44853	146.5501
5507250000		0.45737	144.575
5607200000		0.46648	142.7219
5707150000		0.47559	141.0674
5807100000		0.48479	139.4853
5907050000		0.49367	137.711
6007000000		0.50253	136.2385
6106950000		0.51119	134.7167
6206900000		0.51977	133.1229
6306850000		0.52831	131.5589
6406800000		0.53683	129.9844
6506750000		0.54539	128.4282
6606700000		0.55385	126.8902
6706650000		0.56247	125.3673
6806600000		0.5709	123.9539
6906550000		0.57898	122.3259
7006500000		0.58746	120.9061
7106450000		0.59589	119.5067
7206400000		0.60406	117.9912
7306350000		0.61153	116.4414
!
!				Infineon Technologies AG
