! Infineon Technologies  Discrete & RF Semiconductors
! BAT17-05W
! IAC = 0.3 mA
! One-Port S-Parameters
# Hz  S  MA  R  50
!f									S11
!Hz							Mag  Ang
309850000		0.42358	-8.6528
409800000		0.42256	-11.3554
509750000		0.42219	-14.2512
609700000		0.42132	-17.2728
709650000		0.42514	-20.4021
809600000		0.41857	-23.5814
909550000		0.42059	-26.9712
1009500000		0.42089	-29.8727
1109450000		0.42484	-32.8779
1209400000		0.41724	-35.5573
1309350000		0.41566	-39.1933
1409300000		0.41392	-42.4959
1509250000		0.40908	-46.0828
1609200000		0.40924	-49.4808
1709150000		0.41895	-51.9773
1809100000		0.41671	-55.8799
1909050000		0.41009	-59.3015
2009000000		0.40357	-63.1229
2108950000		0.41193	-66.6031
2208900000		0.41032	-70.3003
2308850000		0.40903	-73.9821
2408800000		0.40968	-77.4452
2508750000		0.41375	-80.8131
2608700000		0.41628	-84.6154
2708650000		0.41549	-88.2736
2808600000		0.42327	-91.9502
2908550000		0.42307	-95.7353
3008500000		0.42052	-99.1927
3108450000		0.42364	-102.9076
3208400000		0.43059	-106.3108
3308350000		0.43535	-109.9833
3408300000		0.43615	-113.7793
3508250000		0.43995	-117.4696
3608200000		0.44417	-120.8806
3708150000		0.44744	-124.7164
3808100000		0.45102	-128.2121
3908050000		0.4539	-131.836
4008000000		0.45624	-135.5825
4107950000		0.46154	-139.0411
4207900000		0.47153	-142.0033
4307850000		0.48004	-144.977
4407800000		0.48239	-148.7352
4507750000		0.48712	-152.1321
4607700000		0.49274	-155.4365
4707650000		0.50381	-158.0911
4807600000		0.50916	-161.3113
4907550000		0.51744	-164.26
5007500000		0.52307	-167.5658
5107450000		0.52811	-170.8379
5207400000		0.53703	-173.7232
5307350000		0.54604	-176.5311
5407300000		0.55351	-179.4533
5507250000		0.55866	177.4329
5607200000		0.5654	174.497
5707150000		0.57339	171.7627
5807100000		0.58164	169.0864
5907050000		0.58746	166.1957
6007000000		0.59631	163.7172
6106950000		0.60445	161.2434
6206900000		0.61203	158.7389
6306850000		0.61844	156.153
6406800000		0.62516	153.6533
6506750000		0.63239	151.2392
6606700000		0.63946	148.8608
6706650000		0.64636	146.4882
6806600000		0.65407	144.2976
6906550000		0.66003	141.9235
7006500000		0.66812	139.8041
7106450000		0.67587	137.6707
7206400000		0.68293	135.5097
7306350000		0.68887	133.3079
!
!				Infineon Technologies AG
