! Infineon Technologies  Discrete & RF Semiconductors
! BAT17-05W
! IAC = 2 mA
! One-Port S-Parameters
# Hz  S  MA  R  50
!f									S11
!Hz							Mag  Ang
309850000		0.49782	175.1081
409800000		0.49839	173.6699
509750000		0.49865	172.2624
609700000		0.49923	170.8398
709650000		0.49906	169.4779
809600000		0.49893	168.1306
909550000		0.50025	166.8287
1009500000		0.50219	165.4348
1109450000		0.50366	164.0838
1209400000		0.50527	162.7164
1309350000		0.50623	161.4164
1409300000		0.50782	160.092
1509250000		0.5099	158.8098
1609200000		0.51216	157.5217
1709150000		0.5146	156.1783
1809100000		0.51687	154.8984
1909050000		0.51879	153.7119
2009000000		0.52128	152.4452
2108950000		0.52367	151.2526
2208900000		0.52553	150.0671
2308850000		0.52795	148.9339
2408800000		0.52979	147.7862
2508750000		0.53226	146.6735
2608700000		0.5353	145.4989
2708650000		0.53749	144.3924
2808600000		0.54102	143.3223
2908550000		0.54363	142.177
3008500000		0.54719	140.9346
3108450000		0.54977	139.8305
3208400000		0.55352	138.7116
3308350000		0.55601	137.6432
3408300000		0.55902	136.5762
3508250000		0.56218	135.4658
3608200000		0.56615	134.3323
3708150000		0.569	133.2572
3808100000		0.57159	132.1725
3908050000		0.57425	131.1499
4008000000		0.57794	130.0278
4107950000		0.58126	128.9306
4207900000		0.58459	127.8265
4307850000		0.58775	126.7408
4407800000		0.59155	125.6394
4507750000		0.59491	124.5626
4607700000		0.59871	123.4413
4707650000		0.60206	122.3065
4807600000		0.6051	121.2189
4907550000		0.60844	120.1448
5007500000		0.61188	119.0482
5107450000		0.61621	117.8867
5207400000		0.61908	116.7918
5307350000		0.62223	115.7387
5407300000		0.62555	114.6246
5507250000		0.62911	113.5551
5607200000		0.6327	112.4728
5707150000		0.63638	111.4607
5807100000		0.64013	110.4089
5907050000		0.6439	109.3976
6007000000		0.64722	108.3733
6106950000		0.65074	107.3685
6206900000		0.65449	106.364
6306850000		0.65802	105.3913
6406800000		0.66182	104.4275
6506750000		0.66573	103.4547
6606700000		0.66961	102.4823
6706650000		0.67386	101.5353
6806600000		0.67778	100.5814
6906550000		0.68209	99.5953
7006500000		0.6861	98.6085
7106450000		0.68996	97.64
7206400000		0.69422	96.6316
7306350000		0.69788	95.5864
!
!				Infineon Technologies AG
