! Infineon Technologies  Discrete & RF Semiconductors
! BAT17-05W
! IAC = 0.08 mA
! One-Port S-Parameters
# Hz  S  MA  R  50
!f									S11
!Hz							Mag  Ang
309850000		0.8162	-7.7104
409800000		0.81632	-10.2321
509750000		0.81494	-12.7202
609700000		0.8149	-15.2694
709650000		0.81648	-17.8614
809600000		0.81026	-20.5104
909550000		0.81044	-23.1611
1009500000		0.81199	-25.7233
1109450000		0.81382	-28.283
1209400000		0.80827	-30.927
1309350000		0.80602	-33.7039
1409300000		0.8033	-36.4738
1509250000		0.80032	-39.2694
1609200000		0.79928	-42.0573
1709150000		0.80619	-44.5452
1809100000		0.80359	-47.4971
1909050000		0.79866	-50.4237
2009000000		0.79285	-53.4924
2108950000		0.79722	-56.3439
2208900000		0.79367	-59.3718
2308850000		0.79096	-62.4265
2408800000		0.78747	-65.5424
2508750000		0.78858	-68.4959
2608700000		0.78791	-71.5751
2708650000		0.78464	-74.8343
2808600000		0.78856	-77.7532
2908550000		0.78477	-81.075
3008500000		0.78146	-84.1962
3108450000		0.78001	-87.4608
3208400000		0.78389	-90.3998
3308350000		0.78333	-93.6999
3408300000		0.7802	-97.0624
3508250000		0.77939	-100.3793
3608200000		0.7808	-103.478
3708150000		0.77901	-106.8779
3808100000		0.77671	-110.2658
3908050000		0.77432	-113.6963
4008000000		0.77192	-117.1407
4107950000		0.7723	-120.44
4207900000		0.77654	-123.4591
4307850000		0.77965	-126.4996
4407800000		0.77673	-130.0315
4507750000		0.77533	-133.4701
4607700000		0.77578	-136.7839
4707650000		0.78172	-139.6422
4807600000		0.78132	-143.0315
4907550000		0.78361	-146.194
5007500000		0.78338	-149.6184
5107450000		0.78427	-152.9131
5207400000		0.78662	-156.1155
5307350000		0.78937	-159.2285
5407300000		0.79119	-162.4217
5507250000		0.79119	-165.7358
5607200000		0.79241	-168.947
5707150000		0.79509	-171.9766
5807100000		0.79726	-175.0257
5907050000		0.79722	-178.2346
6007000000		0.80007	178.8638
6106950000		0.80258	176.0039
6206900000		0.80473	173.1411
6306850000		0.80508	170.149
6406800000		0.80635	167.2776
6506750000		0.80826	164.5042
6606700000		0.81022	161.7698
6706650000		0.81195	159.0273
6806600000		0.81449	156.4526
6906550000		0.81595	153.7535
7006500000		0.81917	151.2731
7106450000		0.82214	148.7593
7206400000		0.82466	146.2827
7306350000		0.82616	143.7532
!
!				Infineon Technologies AG
