! Infineon Technologies  Discrete & RF Semiconductors
! BAT17-05W
! IAC = 9 mA
! One-Port S-Parameters
# Hz  S  MA  R  50
!f									S11
!Hz							Mag  Ang
309850000		0.79848	174.8161
409800000		0.79753	173.3014
509750000		0.79695	171.7578
609700000		0.79659	170.2214
709650000		0.79648	168.6876
809600000		0.79632	167.168
909550000		0.79651	165.6529
1009500000		0.79671	164.1414
1109450000		0.79692	162.6494
1209400000		0.7974	161.1655
1309350000		0.79762	159.7006
1409300000		0.79797	158.2371
1509250000		0.79826	156.8138
1609200000		0.79898	155.3953
1709150000		0.79945	153.9667
1809100000		0.79969	152.5636
1909050000		0.79991	151.2164
2009000000		0.80115	149.828
2108950000		0.80154	148.501
2208900000		0.80214	147.1552
2308850000		0.80265	145.8738
2408800000		0.80385	144.5689
2508750000		0.80454	143.3153
2608700000		0.8057	141.9951
2708650000		0.80628	140.7217
2808600000		0.80741	139.4949
2908550000		0.80855	138.244
3008500000		0.80964	136.9971
3108450000		0.81056	135.7503
3208400000		0.81141	134.5668
3308350000		0.81242	133.2882
3408300000		0.81329	132.1225
3508250000		0.81464	130.8605
3608200000		0.81557	129.6782
3708150000		0.81637	128.4676
3808100000		0.81726	127.2756
3908050000		0.81826	126.098
4008000000		0.81948	124.9048
4107950000		0.82039	123.7205
4207900000		0.82133	122.5215
4307850000		0.8223	121.3439
4407800000		0.82367	120.1645
4507750000		0.82495	118.9909
4607700000		0.82621	117.81
4707650000		0.82723	116.5934
4807600000		0.82798	115.4096
4907550000		0.82909	114.2422
5007500000		0.82988	113.0736
5107450000		0.83081	111.9111
5207400000		0.83135	110.7213
5307350000		0.83201	109.5861
5407300000		0.83256	108.4213
5507250000		0.83268	107.3437
5607200000		0.83303	106.2482
5707150000		0.83364	105.2169
5807100000		0.83492	104.1317
5907050000		0.83578	103.1165
6007000000		0.83651	102.0599
6106950000		0.83732	101.0367
6206900000		0.83837	100.0312
6306850000		0.83938	99.0389
6406800000		0.84057	98.0682
6506750000		0.84184	97.1013
6606700000		0.84317	96.126
6706650000		0.845	95.1725
6806600000		0.84668	94.2018
6906550000		0.84829	93.2481
7006500000		0.84996	92.2573
7106450000		0.85154	91.262
7206400000		0.85337	90.2717
7306350000		0.85453	89.2423
!
!				Infineon Technologies AG
