! Infineon Technologies  Discrete & RF Semiconductors
! BAT17-05W
! IAC = 0.09 mA
! One-Port S-Parameters
# Hz  S  MA  R  50
!f									S11
!Hz							Mag  Ang
309850000		0.79514	-7.746
409800000		0.7951	-10.2482
509750000		0.79386	-12.7815
609700000		0.79373	-15.3192
709650000		0.79564	-17.9649
809600000		0.78914	-20.6352
909550000		0.78942	-23.3163
1009500000		0.79105	-25.894
1109450000		0.79319	-28.4692
1209400000		0.78731	-31.1196
1309350000		0.78491	-33.9274
1409300000		0.78216	-36.718
1509250000		0.77895	-39.5403
1609200000		0.77791	-42.3453
1709150000		0.78544	-44.8421
1809100000		0.78279	-47.8273
1909050000		0.77751	-50.7686
2009000000		0.77139	-53.8634
2108950000		0.77618	-56.7411
2208900000		0.77254	-59.7917
2308850000		0.7697	-62.8323
2408800000		0.76632	-65.9998
2508750000		0.76769	-68.9687
2608700000		0.76735	-72.1073
2708650000		0.76372	-75.3154
2808600000		0.76831	-78.3331
2908550000		0.7643	-81.642
3008500000		0.761	-84.7707
3108450000		0.75953	-88.0212
3208400000		0.76411	-91.0479
3308350000		0.76362	-94.3383
3408300000		0.76032	-97.6835
3508250000		0.75978	-101.0525
3608200000		0.76145	-104.1683
3708150000		0.75976	-107.5885
3808100000		0.75755	-110.984
3908050000		0.75529	-114.4257
4008000000		0.753	-117.8873
4107950000		0.75357	-121.1997
4207900000		0.75828	-124.226
4307850000		0.76186	-127.2716
4407800000		0.75897	-130.8179
4507750000		0.75775	-134.26
4607700000		0.75828	-137.5504
4707650000		0.76503	-140.443
4807600000		0.76473	-143.8317
4907550000		0.76743	-146.9908
5007500000		0.76738	-150.4194
5107450000		0.76846	-153.7189
5207400000		0.77117	-156.9177
5307350000		0.77434	-160.0236
5407300000		0.7765	-163.2115
5507250000		0.77668	-166.524
5607200000		0.77821	-169.7264
5707150000		0.78122	-172.7507
5807100000		0.78387	-175.7909
5907050000		0.78408	-178.9922
6007000000		0.78742	178.1242
6106950000		0.79027	175.2732
6206900000		0.79283	172.4236
6306850000		0.79352	169.4431
6406800000		0.79512	166.5861
6506750000		0.79733	163.8262
6606700000		0.79958	161.101
6706650000		0.80161	158.3734
6806600000		0.80456	155.8179
6906550000		0.80624	153.1298
7006500000		0.80982	150.664
7106450000		0.81315	148.1668
7206400000		0.81594	145.7031
7306350000		0.8177	143.1855
!
!				Infineon Technologies AG
