! Infineon Technologies  Discrete & RF Semiconductors
! BAT17-05W
! IAC = 0.01 mA
! One-Port S-Parameters
# Hz  S  MA  R  50
!f									S11
!Hz							Mag  Ang
309850000		0.97423	-7.1936
409800000		0.9739	-9.5303
509750000		0.97303	-11.8723
609700000		0.97258	-14.2147
709650000		0.97199	-16.5564
809600000		0.97012	-18.9763
909550000		0.9694	-21.35
1009500000		0.96887	-23.716
1109450000		0.96827	-26.0726
1209400000		0.96659	-28.5611
1309350000		0.96534	-31.0639
1409300000		0.96399	-33.6015
1509250000		0.96248	-36.1343
1609200000		0.96169	-38.6981
1709150000		0.9619	-41.0927
1809100000		0.96019	-43.7474
1909050000		0.9584	-46.449
2009000000		0.95655	-49.2528
2108950000		0.9561	-51.8751
2208900000		0.95397	-54.6544
2308850000		0.95211	-57.469
2408800000		0.95008	-60.3825
2508750000		0.94894	-63.1318
2608700000		0.9474	-65.9828
2708650000		0.9456	-68.9852
2808600000		0.94478	-71.6859
2908550000		0.94236	-74.7042
3008500000		0.93996	-77.7319
3108450000		0.93788	-80.7277
3208400000		0.93754	-83.5417
3308350000		0.93584	-86.5856
3408300000		0.93375	-89.7477
3508250000		0.93201	-92.8301
3608200000		0.93077	-95.7743
3708150000		0.92889	-98.9278
3808100000		0.92688	-102.1967
3908050000		0.92492	-105.4712
4008000000		0.92287	-108.7244
4107950000		0.92149	-111.8728
4207900000		0.92091	-114.7766
4307850000		0.92009	-117.7356
4407800000		0.91793	-121.0918
4507750000		0.91626	-124.4325
4607700000		0.91515	-127.653
4707650000		0.91555	-130.4765
4807600000		0.91434	-133.826
4907550000		0.91384	-136.9612
5007500000		0.91273	-140.329
5107450000		0.91204	-143.5441
5207400000		0.91164	-146.7578
5307350000		0.91107	-149.8903
5407300000		0.91025	-153.107
5507250000		0.90913	-156.4167
5607200000		0.9081	-159.6568
5707150000		0.90757	-162.7364
5807100000		0.90658	-165.8711
5907050000		0.90491	-169.1579
6007000000		0.904	-172.167
6106950000		0.90287	-175.1363
6206900000		0.90188	-178.1007
6306850000		0.90019	178.7698
6406800000		0.89906	175.7665
6506750000		0.89802	172.8678
6606700000		0.8973	169.9979
6706650000		0.89679	167.1092
6806600000		0.89631	164.3844
6906550000		0.89584	161.5475
7006500000		0.89576	158.9224
7106450000		0.89609	156.239
7206400000		0.89573	153.6208
7306350000		0.89488	150.9401
!
!				Infineon Technologies AG
