! Infineon Technologies  Discrete & RF Semiconductors
! BAT17-05W
! IAC = 0.2 mA
! One-Port S-Parameters
# Hz  S  MA  R  50
!f									S11
!Hz							Mag  Ang
309850000		0.58486	-8.1507
409800000		0.58452	-10.7581
509750000		0.58362	-13.4153
609700000		0.58339	-16.2269
709650000		0.58663	-19.0806
809600000		0.57868	-21.9459
909550000		0.58022	-24.9686
1009500000		0.58169	-27.6998
1109450000		0.58533	-30.4603
1209400000		0.57757	-33.1049
1309350000		0.57512	-36.2982
1409300000		0.57249	-39.3178
1509250000		0.56784	-42.4742
1609200000		0.56726	-45.5331
1709150000		0.57783	-48.0244
1809100000		0.57491	-51.4277
1909050000		0.56785	-54.5525
2009000000		0.5601	-57.9401
2108950000		0.56788	-61.1243
2208900000		0.56458	-64.4533
2308850000		0.56222	-67.8224
2408800000		0.56023	-71.0705
2508750000		0.56329	-74.2276
2608700000		0.56428	-77.6814
2708650000		0.56152	-81.1221
2808600000		0.56853	-84.4461
2908550000		0.56573	-87.9776
3008500000		0.56228	-91.2208
3108450000		0.56308	-94.747
3208400000		0.5696	-97.931
3308350000		0.57168	-101.4506
3408300000		0.56979	-105.0115
3508250000		0.57123	-108.557
3608200000		0.57457	-111.8297
3708150000		0.57482	-115.4613
3808100000		0.57531	-118.9365
3908050000		0.57518	-122.4915
4008000000		0.57477	-126.121
4107950000		0.57785	-129.5413
4207900000		0.58629	-132.6188
4307850000		0.59308	-135.6746
4407800000		0.59223	-139.3591
4507750000		0.59391	-142.8273
4607700000		0.59724	-146.1794
4707650000		0.60726	-148.9888
4807600000		0.60989	-152.3366
4907550000		0.61597	-155.4409
5007500000		0.6188	-158.8549
5107450000		0.62199	-162.1729
5207400000		0.62841	-165.2693
5307350000		0.63522	-168.2708
5407300000		0.6406	-171.3639
5507250000		0.64344	-174.6103
5607200000		0.648	-177.715
5707150000		0.65418	179.3775
5807100000		0.66035	176.4889
5907050000		0.66367	173.4163
6007000000		0.67064	170.7068
6106950000		0.67703	168.024
6206900000		0.68277	165.3258
6306850000		0.68678	162.5224
6406800000		0.69142	159.8284
6506750000		0.69683	157.2255
6606700000		0.70206	154.661
6706650000		0.70701	152.1009
6806600000		0.71299	149.7156
6906550000		0.71723	147.177
7006500000		0.72379	144.8766
7106450000		0.72994	142.5551
7206400000		0.73545	140.2391
7306350000		0.73983	137.875
!
!				Infineon Technologies AG
