! Infineon Technologies  Discrete & RF Semiconductors
! BAT15-099
! IAC = 0.8 mA
! One-Port S-Parameters
# Hz  S  MA  R  50
!f									S11
!Hz							Mag  Ang
309850000		0.059	166.125
409800000		0.06196	161.2402
509750000		0.06322	159.1599
609700000		0.06394	155.3559
709650000		0.06314	153.2418
809600000		0.06348	150.4573
909550000		0.0654	149.3871
1009500000		0.06752	147.8019
1109450000		0.06905	144.648
1209400000		0.07281	142.6109
1309350000		0.07285	140.4312
1409300000		0.07442	138.2873
1509250000		0.07786	137.2036
1609200000		0.08057	135.2911
1709150000		0.08373	132.1372
1809100000		0.08609	131.5199
1909050000		0.09056	130.3294
2009000000		0.09423	129.9359
2108950000		0.09531	128.027
2208900000		0.09749	127.5328
2308850000		0.10095	126.6651
2408800000		0.10464	125.2154
2508750000		0.10469	123.4087
2608700000		0.10735	123.0619
2708650000		0.11081	121.3828
2808600000		0.11446	121.6487
2908550000		0.117	119.9642
3008500000		0.12481	118.3423
3108450000		0.12765	117.3952
3208400000		0.13303	117.4384
3308350000		0.13507	117.1805
3408300000		0.1414	117.1206
3508250000		0.144	116.5306
3608200000		0.15225	115.8655
3708150000		0.15426	115.696
3808100000		0.15921	115.1218
3908050000		0.16313	114.8488
4008000000		0.16943	114.1078
4107950000		0.1741	114.1011
4207900000		0.17775	113.4584
4307850000		0.18294	112.9012
4407800000		0.18812	112.8992
4507750000		0.19284	112.2828
4607700000		0.20068	112.0336
4707650000		0.20518	111.5597
4807600000		0.21262	111.1869
4907550000		0.21592	110.9698
5007500000		0.22132	110.3976
5107450000		0.22931	110.028
5207400000		0.23138	109.4398
5307350000		0.23532	109.1296
5407300000		0.24052	108.7807
5507250000		0.24867	108.2871
5607200000		0.25454	108.1096
5707150000		0.2597	107.7682
5807100000		0.26385	107.1754
5907050000		0.27102	106.5192
6007000000		0.27434	105.9431
6106950000		0.27962	105.4942
6206900000		0.28542	104.8733
6306850000		0.2903	104.6971
6406800000		0.29567	104.1226
6506750000		0.30126	103.554
6606700000		0.30512	102.948
6706650000		0.3109	102.21
6806600000		0.31438	101.793
6906550000		0.3212	100.8459
7006500000		0.32374	100.4497
7106450000		0.32804	99.7386
7206400000		0.33321	98.9124
7306350000		0.33772	97.9558
7406300000		0.34432	96.9245
7506250000		0.34596	96.1529
7606200000		0.34995	95.3157
7706150000		0.35325	94.1291
7806100000		0.35533	93.1954
7906050000		0.35602	92.3208
8006000000		0.35841	91.0994
!
!				Infineon Technologies AG
