! Infineon Technologies  Discrete & RF Semiconductors
! BAT15-099
! IAC = 0.05 mA
! One-Port S-Parameters
# Hz  S  MA  R  50
!f									S11
!Hz							Mag  Ang
309850000		0.88419	-3.5657
409800000		0.88485	-4.5834
509750000		0.88428	-5.8931
609700000		0.88494	-6.9414
709650000		0.88614	-8.1788
809600000		0.88226	-9.3682
909550000		0.88195	-10.6186
1009500000		0.88315	-11.9144
1109450000		0.88547	-13.0462
1209400000		0.88198	-14.4065
1309350000		0.88072	-15.5549
1409300000		0.87942	-16.8337
1509250000		0.87807	-18.0047
1609200000		0.87612	-19.2759
1709150000		0.87897	-20.3746
1809100000		0.87692	-21.6762
1909050000		0.87462	-22.878
2009000000		0.86953	-24.163
2108950000		0.87164	-25.3108
2208900000		0.86782	-26.6448
2308850000		0.86527	-27.9181
2408800000		0.85944	-29.1789
2508750000		0.86396	-30.3628
2608700000		0.86331	-31.7015
2708650000		0.86244	-32.9484
2808600000		0.86253	-34.327
2908550000		0.86119	-35.6221
3008500000		0.86235	-36.8528
3108450000		0.86065	-38.3128
3208400000		0.86352	-39.7244
3308350000		0.86065	-41.3049
3408300000		0.85609	-42.9021
3508250000		0.85473	-44.4733
3608200000		0.85743	-45.9855
3708150000		0.8564	-47.6663
3808100000		0.85166	-49.3574
3908050000		0.84642	-51.1397
4008000000		0.84525	-52.782
4107950000		0.84478	-54.5375
4207900000		0.84544	-56.1869
4307850000		0.84182	-57.9666
4407800000		0.84159	-59.8137
4507750000		0.83697	-61.6153
4607700000		0.83332	-63.514
4707650000		0.82952	-65.4218
4807600000		0.82241	-67.4298
4907550000		0.81906	-69.4597
5007500000		0.81619	-71.4202
5107450000		0.81907	-73.3723
5207400000		0.81674	-75.3659
5307350000		0.81341	-77.5738
5407300000		0.8097	-79.8157
5507250000		0.81177	-81.9407
5607200000		0.81233	-84.2484
5707150000		0.81088	-86.5989
5807100000		0.80658	-88.9275
5907050000		0.80535	-91.2798
6007000000		0.80257	-93.6188
6106950000		0.79877	-96.148
6206900000		0.79596	-98.602
6306850000		0.79586	-101.0991
6406800000		0.79233	-103.6487
6506750000		0.79175	-106.1515
6606700000		0.78843	-108.7208
6706650000		0.78529	-111.2222
6806600000		0.78109	-113.8722
6906550000		0.78171	-116.2512
7006500000		0.78128	-118.7489
7106450000		0.77637	-121.397
7206400000		0.77203	-124.0886
7306350000		0.77326	-126.5306
7406300000		0.77455	-129.0033
7506250000		0.7716	-131.5884
7606200000		0.7683	-134.3729
7706150000		0.76603	-136.9398
7806100000		0.76668	-139.4293
7906050000		0.76234	-142.1577
8006000000		0.76263	-144.5072
!
!				Infineon Technologies AG
