! Infineon Technologies  Discrete & RF Semiconductors
! BAT15-099
! VCA = 2 V
! One-Port S-Parameters
# Hz  S  MA  R  50
!f									S11
!Hz							Mag  Ang
309850000		0.9998	-2.9233
409800000		0.99982	-3.7398
509750000		1.0002	-4.833
609700000		0.99979	-5.6245
709650000		1.0001	-6.6262
809600000		0.99996	-7.5557
909550000		1.0001	-8.5348
1009500000		0.99981	-9.5964
1109450000		0.99993	-10.5042
1209400000		0.99934	-11.6344
1309350000		0.99925	-12.5202
1409300000		0.99849	-13.5607
1509250000		0.99804	-14.4677
1609200000		0.99693	-15.5115
1709150000		0.99639	-16.4326
1809100000		0.99474	-17.4728
1909050000		0.99396	-18.4045
2009000000		0.99225	-19.388
2108950000		0.99115	-20.2984
2208900000		0.98941	-21.2933
2308850000		0.98907	-22.2891
2408800000		0.9882	-23.2808
2508750000		0.98794	-24.1805
2608700000		0.98747	-25.1933
2708650000		0.98763	-26.1543
2808600000		0.98781	-27.193
2908550000		0.98765	-28.1764
3008500000		0.98821	-29.2294
3108450000		0.9889	-30.3624
3208400000		0.98928	-31.3844
3308350000		0.98971	-32.5944
3408300000		0.98969	-33.7463
3508250000		0.99035	-34.9999
3608200000		0.9899	-36.2213
3708150000		0.98991	-37.5123
3808100000		0.98935	-38.7739
3908050000		0.98858	-40.1214
4008000000		0.98748	-41.4192
4107950000		0.98647	-42.7597
4207900000		0.98522	-44.0746
4307850000		0.98348	-45.4388
4407800000		0.98169	-46.8603
4507750000		0.97958	-48.2351
4607700000		0.97752	-49.6509
4707650000		0.97575	-51.1033
4807600000		0.97405	-52.5178
4907550000		0.97282	-54.0421
5007500000		0.97172	-55.4786
5107450000		0.97092	-57.0098
5207400000		0.97031	-58.4688
5307350000		0.96945	-60.0946
5407300000		0.96902	-61.7274
5507250000		0.9679	-63.405
5607200000		0.9675	-65.209
5707150000		0.96707	-66.9986
5807100000		0.96685	-68.7063
5907050000		0.96577	-70.5544
6007000000		0.96579	-72.3315
6106950000		0.96442	-74.3009
6206900000		0.96342	-76.1996
6306850000		0.96185	-78.2046
6406800000		0.96048	-80.2214
6506750000		0.95861	-82.2352
6606700000		0.95726	-84.3172
6706650000		0.95522	-86.2339
6806600000		0.95335	-88.3391
6906550000		0.95129	-90.3062
7006500000		0.94931	-92.3605
7106450000		0.94763	-94.341
7206400000		0.9454	-96.4545
7306350000		0.94432	-98.4837
7406300000		0.94246	-100.6015
7506250000		0.94114	-102.6273
7606200000		0.93913	-104.8204
7706150000		0.93806	-106.8886
7806100000		0.93583	-108.9942
7906050000		0.9353	-111.1566
8006000000		0.93287	-113.1996
!
!				Infineon Technologies AG
