! Infineon Technologies  Discrete & RF Semiconductors
! BAT15-099
! IAC = 0.6 mA
! One-Port S-Parameters
# Hz  S  MA  R  50
!f									S11
!Hz							Mag  Ang
309850000		0.09415	1.4133
409800000		0.0927	2.8933
509750000		0.09174	2.3062
609700000		0.09218	2.5252
709650000		0.09376	1.0177
809600000		0.0926	0.67807
909550000		0.09123	-0.54867
1009500000		0.08963	-1.2436
1109450000		0.09083	-1.0867
1209400000		0.08674	0.09437
1309350000		0.08695	-1.1967
1409300000		0.08649	-1.3439
1509250000		0.08292	-1.8011
1609200000		0.08157	-1.4202
1709150000		0.08271	-0.01011
1809100000		0.08035	-1.1157
1909050000		0.07601	0.05276
2009000000		0.07078	0.21448
2108950000		0.0726	-0.98176
2208900000		0.06927	-1.8253
2308850000		0.06547	-1.2992
2408800000		0.06215	1.2867
2508750000		0.06443	-0.93466
2608700000		0.06144	-2.016
2708650000		0.0599	-0.08618
2808600000		0.05537	-1.5831
2908550000		0.05454	0.03456
3008500000		0.05232	6.4474
3108450000		0.05023	8.1007
3208400000		0.04526	9.6388
3308350000		0.04147	10.0119
3408300000		0.03565	18.7876
3508250000		0.03302	21.0385
3608200000		0.03136	32.5199
3708150000		0.02754	34.9904
3808100000		0.02684	48.0644
3908050000		0.02611	60.6117
4008000000		0.02867	70.9196
4107950000		0.02894	83.1976
4207900000		0.0297	87.9434
4307850000		0.03387	95.2566
4407800000		0.03677	104.2935
4507750000		0.04215	107.7453
4607700000		0.05064	112.1709
4707650000		0.05584	114.4379
4807600000		0.06589	116.3045
4907550000		0.07024	118.7171
5007500000		0.07654	119.5177
5107450000		0.08523	120.7529
5207400000		0.08749	121.5914
5307350000		0.09251	122.5935
5407300000		0.09984	123.1593
5507250000		0.10896	123.001
5607200000		0.11672	123.8489
5707150000		0.12409	124.1607
5807100000		0.1303	123.7764
5907050000		0.13909	122.7574
6007000000		0.14376	122.4399
6106950000		0.15084	122.012
6206900000		0.15871	121.2466
6306850000		0.16572	121.6602
6406800000		0.17349	120.8981
6506750000		0.18051	120.407
6606700000		0.18609	119.6838
6706650000		0.19417	118.7818
6806600000		0.19975	118.4447
6906550000		0.20817	117.0565
7006500000		0.21278	117.2653
7106450000		0.21927	116.3484
7206400000		0.22631	115.2336
7306350000		0.23187	114.1727
7406300000		0.24001	112.6977
7506250000		0.2435	112.0791
7606200000		0.2494	111.1519
7706150000		0.25427	109.6607
7806100000		0.25776	108.8681
7906050000		0.26067	107.9623
8006000000		0.26444	106.535
!
!				Infineon Technologies AG
