! Infineon Technologies  Discrete & RF Semiconductors
! BAT15-099
! VCA = 0 V
! One-Port S-Parameters
# Hz  S  MA  R  50
!f									S11
!Hz							Mag  Ang
309850000		0.99918	-3.4605
409800000		0.99889	-4.4066
509750000		0.99933	-5.6663
609700000		0.99903	-6.6493
709650000		0.9991	-7.787
809600000		0.99904	-8.8817
909550000		0.99914	-10.0326
1009500000		0.99872	-11.2593
1109450000		0.99877	-12.3444
1209400000		0.99821	-13.6411
1309350000		0.99799	-14.6995
1409300000		0.99713	-15.9113
1509250000		0.99666	-16.9959
1609200000		0.99541	-18.2188
1709150000		0.99467	-19.3162
1809100000		0.99294	-20.5371
1909050000		0.99205	-21.6493
2009000000		0.99014	-22.7803
2108950000		0.98916	-23.9176
2208900000		0.98737	-25.1043
2308850000		0.98681	-26.2556
2408800000		0.98613	-27.4819
2508750000		0.98576	-28.5818
2608700000		0.98519	-29.81
2708650000		0.98527	-30.9721
2808600000		0.98534	-32.2432
2908550000		0.98537	-33.4691
3008500000		0.98542	-34.7298
3108450000		0.98579	-36.052
3208400000		0.9864	-37.3928
3308350000		0.98649	-38.8133
3408300000		0.98623	-40.22
3508250000		0.98666	-41.7225
3608200000		0.98581	-43.2172
3708150000		0.98534	-44.7357
3808100000		0.9846	-46.303
3908050000		0.98343	-47.8821
4008000000		0.98217	-49.4949
4107950000		0.98078	-51.1177
4207900000		0.97899	-52.7298
4307850000		0.97672	-54.348
4407800000		0.97484	-56.1124
4507750000		0.97246	-57.7806
4607700000		0.97004	-59.529
4707650000		0.96822	-61.2801
4807600000		0.96637	-63.0361
4907550000		0.9651	-64.8753
5007500000		0.96382	-66.6568
5107450000		0.96285	-68.5408
5207400000		0.96201	-70.3618
5307350000		0.96097	-72.3648
5407300000		0.96028	-74.367
5507250000		0.95893	-76.4426
5607200000		0.95814	-78.6368
5707150000		0.95753	-80.7897
5807100000		0.95698	-82.8878
5907050000		0.95547	-85.1342
6007000000		0.95497	-87.3226
6106950000		0.95294	-89.6853
6206900000		0.95149	-91.9711
6306850000		0.94934	-94.3825
6406800000		0.94757	-96.7478
6506750000		0.94529	-99.1629
6606700000		0.94358	-101.5581
6706650000		0.9412	-103.8639
6806600000		0.93917	-106.2986
6906550000		0.93688	-108.6341
7006500000		0.93472	-111.0317
7106450000		0.93322	-113.3891
7206400000		0.93094	-115.8354
7306350000		0.92979	-118.2447
7406300000		0.92785	-120.714
7506250000		0.92647	-123.0894
7606200000		0.92458	-125.6415
7706150000		0.92326	-128.0323
7806100000		0.92079	-130.5298
7906050000		0.9198	-133.001
8006000000		0.91632	-135.4158
!
!				Infineon Technologies AG
