! Infineon Technologies  Discrete & RF Semiconductors
! BAT15-099
! IAC = 50 mA
! One-Port S-Parameters
# Hz  S  MA  R  50
!f									S11
!Hz							Mag  Ang
309850000		0.81533	174.5574
409800000		0.81431	172.7981
509750000		0.8134	171.2791
609700000		0.81215	169.5606
709650000		0.81171	167.9886
809600000		0.81091	166.3476
909550000		0.81071	164.8012
1009500000		0.81	163.3027
1109450000		0.80998	161.6878
1209400000		0.80979	160.2599
1309350000		0.80964	158.6168
1409300000		0.81004	157.1166
1509250000		0.81024	155.501
1609200000		0.81107	154.0042
1709150000		0.81144	152.4181
1809100000		0.81257	150.9304
1909050000		0.81291	149.3851
2009000000		0.81451	147.8217
2108950000		0.81529	146.242
2208900000		0.81641	144.8407
2308850000		0.81723	143.2346
2408800000		0.81831	141.8123
2508750000		0.81882	140.2044
2608700000		0.81971	138.7594
2708650000		0.81995	137.1914
2808600000		0.82066	135.7916
2908550000		0.82061	134.3358
3008500000		0.82163	132.9097
3108450000		0.82154	131.5191
3208400000		0.82236	130.1089
3308350000		0.82237	128.8595
3408300000		0.82358	127.5323
3508250000		0.8238	126.2562
3608200000		0.82551	124.9428
3708150000		0.82598	123.7463
3808100000		0.82746	122.4933
3908050000		0.82869	121.3199
4008000000		0.83038	120.0719
4107950000		0.832	118.8827
4207900000		0.83389	117.6582
4307850000		0.83597	116.4556
4407800000		0.83779	115.3249
4507750000		0.83959	114.1022
4607700000		0.84155	112.9871
4707650000		0.84317	111.8298
4807600000		0.84505	110.6688
4907550000		0.84627	109.5633
5007500000		0.84744	108.3608
5107450000		0.84828	107.2375
5207400000		0.84904	106.0678
5307350000		0.85002	105.0336
5407300000		0.85051	103.9792
5507250000		0.85129	102.9539
5607200000		0.85152	102.0095
5707150000		0.85129	101.0238
5807100000		0.8512	99.9316
5907050000		0.85156	98.9904
6007000000		0.85144	97.9817
6106950000		0.85247	97.1179
6206900000		0.8531	96.1356
6306850000		0.85421	95.3116
6406800000		0.85487	94.3533
6506750000		0.85596	93.4327
6606700000		0.85617	92.5482
6706650000		0.857	91.4734
6806600000		0.85779	90.5957
6906550000		0.85877	89.5104
7006500000		0.85953	88.5207
7106450000		0.86064	87.3914
7206400000		0.86126	86.3974
7306350000		0.86147	85.2301
7406300000		0.86161	84.1954
7506250000		0.86119	82.9528
7606200000		0.86038	81.8641
7706150000		0.85839	80.6059
7806100000		0.85582	79.3816
7906050000		0.85102	78.2573
8006000000		0.84652	77.0359
!
!				Infineon Technologies AG
