! Infineon Technologies  Discrete & RF Semiconductors
! BAT15-099
! IAC = 30 mA
! One-Port S-Parameters
# Hz  S  MA  R  50
!f									S11
!Hz							Mag  Ang
309850000		0.8126	174.5527
409800000		0.81178	172.7644
509750000		0.81068	171.2796
609700000		0.80959	169.5279
709650000		0.80909	167.9844
809600000		0.80821	166.3474
909550000		0.80806	164.8052
1009500000		0.80733	163.302
1109450000		0.80728	161.6853
1209400000		0.8071	160.2606
1309350000		0.80705	158.6141
1409300000		0.8074	157.1151
1509250000		0.80761	155.5003
1609200000		0.80848	154.0046
1709150000		0.80881	152.4181
1809100000		0.80996	150.9316
1909050000		0.81038	149.3842
2009000000		0.81189	147.8217
2108950000		0.81258	146.2799
2208900000		0.81404	144.8098
2308850000		0.81472	143.2347
2408800000		0.81582	141.8131
2508750000		0.81634	140.2086
2608700000		0.81712	138.792
2708650000		0.81751	137.1923
2808600000		0.81814	135.8272
2908550000		0.81839	134.3043
3008500000		0.81925	132.9125
3108450000		0.8192	131.5227
3208400000		0.82006	130.1137
3308350000		0.82026	128.8299
3408300000		0.82116	127.5696
3508250000		0.82154	126.2596
3608200000		0.82304	124.9818
3708150000		0.82374	123.7472
3808100000		0.82526	122.496
3908050000		0.8265	121.3231
4008000000		0.82819	120.0783
4107950000		0.8298	118.8892
4207900000		0.83169	117.662
4307850000		0.83379	116.4601
4407800000		0.83564	115.3283
4507750000		0.83744	114.1043
4607700000		0.83946	112.9932
4707650000		0.8411	111.8334
4807600000		0.843	110.6711
4907550000		0.84426	109.5683
5007500000		0.84546	108.3684
5107450000		0.84627	107.2455
5207400000		0.84708	106.0745
5307350000		0.84809	105.0394
5407300000		0.84864	103.9858
5507250000		0.84939	102.9634
5607200000		0.84968	102.0193
5707150000		0.84943	101.0315
5807100000		0.84941	99.9402
5907050000		0.84974	99.0016
6007000000		0.84968	97.9921
6106950000		0.85067	97.1282
6206900000		0.85134	96.1467
6306850000		0.85248	95.3231
6406800000		0.85315	94.3684
6506750000		0.85421	93.4457
6606700000		0.85445	92.5617
6706650000		0.85535	91.4861
6806600000		0.85613	90.6101
6906550000		0.85712	89.525
7006500000		0.8579	88.5354
7106450000		0.85897	87.406
7206400000		0.85958	86.4132
7306350000		0.85989	85.2458
7406300000		0.85997	84.2127
7506250000		0.85961	82.9694
7606200000		0.8588	81.8775
7706150000		0.85682	80.6202
7806100000		0.85424	79.3977
7906050000		0.84945	78.2728
8006000000		0.84499	77.05
!
!				Infineon Technologies AG
