! Infineon Technologies  Discrete & RF Semiconductors
! BAT15-099
! IAC = 10 mA
! One-Port S-Parameters
# Hz  S  MA  R  50
!f									S11
!Hz							Mag  Ang
309850000		0.76228	174.5329
409800000		0.76162	172.731
509750000		0.76066	171.2488
609700000		0.75952	169.5207
709650000		0.75934	167.943
809600000		0.75858	166.2991
909550000		0.75872	164.7503
1009500000		0.7581	163.2454
1109450000		0.75832	161.6207
1209400000		0.75822	160.1926
1309350000		0.75831	158.5401
1409300000		0.75878	157.0352
1509250000		0.75918	155.4119
1609200000		0.76023	153.9143
1709150000		0.76084	152.3206
1809100000		0.76214	150.8312
1909050000		0.76289	149.249
2009000000		0.76445	147.7191
2108950000		0.76554	146.1391
2208900000		0.76686	144.7368
2308850000		0.76797	143.1308
2408800000		0.76928	141.7105
2508750000		0.77007	140.1063
2608700000		0.77118	138.6943
2708650000		0.77186	137.0931
2808600000		0.77309	135.6964
2908550000		0.77351	134.2056
3008500000		0.77487	132.8107
3108450000		0.77514	131.4222
3208400000		0.77632	130.0489
3308350000		0.77707	128.7282
3408300000		0.77836	127.4668
3508250000		0.77909	126.1576
3608200000		0.78121	124.8462
3708150000		0.78204	123.6452
3808100000		0.78387	122.3917
3908050000		0.78539	121.2186
4008000000		0.78745	119.9717
4107950000		0.78935	118.7868
4207900000		0.79154	117.5609
4307850000		0.79391	116.3617
4407800000		0.7961	115.2323
4507750000		0.79814	114.0158
4607700000		0.8005	112.9068
4707650000		0.80233	111.7548
4807600000		0.8046	110.5961
4907550000		0.80611	109.5003
5007500000		0.80767	108.3033
5107450000		0.80882	107.1861
5207400000		0.81001	106.0202
5307350000		0.81139	104.9897
5407300000		0.81227	103.9399
5507250000		0.81343	102.9237
5607200000		0.81403	101.9829
5707150000		0.81407	101.0036
5807100000		0.81441	99.9136
5907050000		0.81512	98.9766
6007000000		0.81539	97.9704
6106950000		0.81666	97.1089
6206900000		0.8176	96.13
6306850000		0.81896	95.3079
6406800000		0.81984	94.3568
6506750000		0.8212	93.4372
6606700000		0.82155	92.5552
6706650000		0.8227	91.4816
6806600000		0.82364	90.612
6906550000		0.82485	89.531
7006500000		0.82578	88.5444
7106450000		0.82706	87.4206
7206400000		0.82788	86.4291
7306350000		0.82833	85.2689
7406300000		0.82869	84.2399
7506250000		0.82849	82.9975
7606200000		0.82802	81.911
7706150000		0.82622	80.6561
7806100000		0.82404	79.4361
7906050000		0.81951	78.3138
8006000000		0.81538	77.0911
!
!				Infineon Technologies AG
