! Infineon Technologies  Discrete & RF Semiconductors
! BAT15-099
! IAC = 0.02 mA
! One-Port S-Parameters
# Hz  S  MA  R  50
!f									S11
!Hz							Mag  Ang
309850000		0.95203	-3.5432
409800000		0.95243	-4.5806
509750000		0.95238	-5.8847
609700000		0.95253	-6.9167
709650000		0.95314	-8.1186
809600000		0.95126	-9.2859
909550000		0.95116	-10.5031
1009500000		0.95158	-11.7787
1109450000		0.95264	-12.9021
1209400000		0.95071	-14.262
1309350000		0.95	-15.3806
1409300000		0.9489	-16.6515
1509250000		0.94803	-17.7919
1609200000		0.94641	-19.0615
1709150000		0.9474	-20.1732
1809100000		0.94546	-21.4536
1909050000		0.94395	-22.6323
2009000000		0.94069	-23.8853
2108950000		0.94099	-25.0148
2208900000		0.93828	-26.3172
2308850000		0.93681	-27.5549
2408800000		0.93365	-28.8561
2508750000		0.93557	-29.9676
2608700000		0.93498	-31.2638
2708650000		0.93472	-32.5006
2808600000		0.93481	-33.8452
2908550000		0.93425	-35.1392
3008500000		0.93477	-36.3808
3108450000		0.93406	-37.797
3208400000		0.93594	-39.1713
3308350000		0.93457	-40.7086
3408300000		0.93244	-42.2687
3508250000		0.9319	-43.818
3608200000		0.93292	-45.3057
3708150000		0.93204	-46.906
3808100000		0.92957	-48.6025
3908050000		0.92654	-50.3517
4008000000		0.92522	-51.9837
4107950000		0.92431	-53.6692
4207900000		0.92375	-55.29
4307850000		0.92095	-57.0411
4407800000		0.91976	-58.8123
4507750000		0.91631	-60.591
4607700000		0.91346	-62.4371
4707650000		0.91064	-64.311
4807600000		0.90639	-66.262
4907550000		0.90415	-68.2385
5007500000		0.90214	-70.142
5107450000		0.90322	-72.0114
5207400000		0.90152	-73.9549
5307350000		0.89937	-76.1114
5407300000		0.89718	-78.2792
5507250000		0.8977	-80.3375
5607200000		0.89771	-82.5686
5707150000		0.89668	-84.8388
5807100000		0.89428	-87.1212
5907050000		0.893	-89.4239
6007000000		0.89127	-91.7449
6106950000		0.88827	-94.243
6206900000		0.88615	-96.652
6306850000		0.88509	-99.0812
6406800000		0.88243	-101.581
6506750000		0.88101	-104.0306
6606700000		0.87841	-106.5701
6706650000		0.87575	-108.9994
6806600000		0.87249	-111.6125
6906550000		0.87183	-113.9311
7006500000		0.87041	-116.3742
7106450000		0.86713	-118.9656
7206400000		0.86372	-121.6035
7306350000		0.86382	-124.0108
7406300000		0.86363	-126.4361
7506250000		0.86129	-128.9883
7606200000		0.85856	-131.7132
7706150000		0.85677	-134.2344
7806100000		0.85574	-136.7003
7906050000		0.85278	-139.406
8006000000		0.85113	-141.7375
!
!				Infineon Technologies AG
