! Infineon Technologies  Discrete & RF Semiconductors
! BAT15-099
! IAC = 0.01 mA
! One-Port S-Parameters
# Hz  S  MA  R  50
!f									S11
!Hz							Mag  Ang
309850000		0.97567	-3.5274
409800000		0.97587	-4.5532
509750000		0.97595	-5.8506
609700000		0.976	-6.8727
709650000		0.97632	-8.0567
809600000		0.97519	-9.2094
909550000		0.97521	-10.4075
1009500000		0.97527	-11.6709
1109450000		0.97582	-12.7828
1209400000		0.97456	-14.1354
1309350000		0.97412	-15.2394
1409300000		0.9731	-16.4983
1509250000		0.97238	-17.626
1609200000		0.97087	-18.8898
1709150000		0.97107	-19.9971
1809100000		0.96923	-21.2644
1909050000		0.96801	-22.4301
2009000000		0.96543	-23.6678
2108950000		0.96505	-24.7842
2208900000		0.96291	-26.0724
2308850000		0.96166	-27.2595
2408800000		0.95951	-28.5368
2508750000		0.96055	-29.6756
2608700000		0.95998	-30.9515
2708650000		0.9599	-32.1731
2808600000		0.95978	-33.4578
2908550000		0.95947	-34.7406
3008500000		0.96005	-36.0302
3108450000		0.95999	-37.4649
3208400000		0.9611	-38.7798
3308350000		0.96042	-40.2907
3408300000		0.95928	-41.8293
3508250000		0.95907	-43.3643
3608200000		0.95904	-44.8074
3708150000		0.95877	-46.4496
3808100000		0.9569	-48.0896
3908050000		0.95477	-49.8174
4008000000		0.95336	-51.4358
4107950000		0.95225	-53.097
4207900000		0.95115	-54.7022
4307850000		0.94859	-56.4346
4407800000		0.94709	-58.1795
4507750000		0.94411	-59.9361
4607700000		0.94154	-61.756
4707650000		0.93908	-63.6055
4807600000		0.93594	-65.524
4907550000		0.93411	-67.4736
5007500000		0.93243	-69.3448
5107450000		0.93267	-71.1877
5207400000		0.93131	-73.1052
5307350000		0.92962	-75.229
5407300000		0.92813	-77.3636
5507250000		0.92782	-79.3975
5607200000		0.92755	-81.6002
5707150000		0.92669	-83.8376
5807100000		0.92507	-86.0874
5907050000		0.92367	-88.3667
6007000000		0.92248	-90.666
6106950000		0.91986	-93.1391
6206900000		0.918	-95.5239
6306850000		0.91654	-97.925
6406800000		0.91423	-100.3999
6506750000		0.9124	-102.8262
6606700000		0.91016	-105.3424
6706650000		0.90765	-107.7369
6806600000		0.90486	-110.3264
6906550000		0.90355	-112.6208
7006500000		0.90177	-115.0432
7106450000		0.89926	-117.6018
7206400000		0.89632	-120.2108
7306350000		0.89589	-122.5962
7406300000		0.89502	-125.0053
7506250000		0.89304	-127.5314
7606200000		0.89063	-130.2295
7706150000		0.88909	-132.7244
7806100000		0.88737	-135.1766
7906050000		0.8851	-137.8617
8006000000		0.88271	-140.1877
!
!				Infineon Technologies AG
