! Infineon Technologies  Discrete & RF Semiconductors
! BAT15-099
! IAC = 0.4 mA
! One-Port S-Parameters
# Hz  S  MA  R  50
!f									S11
!Hz							Mag  Ang
309850000		0.30255	-2.5646
409800000		0.30168	-3.04
509750000		0.30051	-4.159
609700000		0.30096	-5.0602
709650000		0.3032	-6.4936
809600000		0.29896	-7.5644
909550000		0.29831	-8.9696
1009500000		0.29764	-10.2335
1109450000		0.30053	-11.0913
1209400000		0.29366	-11.7447
1309350000		0.29314	-13.195
1409300000		0.29224	-14.2081
1509250000		0.2883	-15.6116
1609200000		0.28645	-16.529
1709150000		0.28923	-17.0057
1809100000		0.28735	-18.5398
1909050000		0.28107	-19.5446
2009000000		0.27321	-20.983
2108950000		0.27791	-22.1983
2208900000		0.27327	-23.756
2308850000		0.26792	-25.1156
2408800000		0.26006	-25.6987
2508750000		0.26592	-27.1511
2608700000		0.26388	-28.8523
2708650000		0.26082	-29.7114
2808600000		0.25877	-31.9064
2908550000		0.25615	-32.7233
3008500000		0.25241	-33.0655
3108450000		0.24842	-34.2633
3208400000		0.24623	-36.4343
3308350000		0.24151	-38.3964
3408300000		0.2304	-40.0556
3508250000		0.22721	-41.9046
3608200000		0.22359	-43.244
3708150000		0.22137	-45.8709
3808100000		0.21229	-47.374
3908050000		0.20386	-49.5152
4008000000		0.19938	-51.062
4107950000		0.19486	-54.2289
4207900000		0.19509	-56.386
4307850000		0.18863	-58.5677
4407800000		0.18588	-62.1223
4507750000		0.17864	-64.2933
4607700000		0.1697	-67.3719
4707650000		0.16396	-70.2047
4807600000		0.15107	-73.6853
4907550000		0.14702	-77.5504
5007500000		0.14184	-81.2725
5107450000		0.13842	-86.153
5207400000		0.13849	-89.5404
5307350000		0.13624	-93.8224
5407300000		0.13168	-99.1005
5507250000		0.12948	-104.3097
5607200000		0.12948	-110.2843
5707150000		0.12899	-116.2187
5807100000		0.12696	-121.4073
5907050000		0.12485	-127.0339
6007000000		0.12547	-131.2269
6106950000		0.12579	-136.5828
6206900000		0.12603	-142.4111
6306850000		0.13214	-147.5051
6406800000		0.13386	-153.1969
6506750000		0.1388	-157.5661
6606700000		0.14154	-161.7027
6706650000		0.14563	-167.0301
6806600000		0.15045	-170.8004
6906550000		0.15482	-175.3938
7006500000		0.16383	-177.7597
7106450000		0.1682	178.2208
7206400000		0.17282	174.171
7306350000		0.17804	171.4031
7406300000		0.18355	167.6177
7506250000		0.18911	165.4816
7606200000		0.19521	162.426
7706150000		0.19909	159.2879
7806100000		0.2052	157.5844
7906050000		0.20921	155.1468
8006000000		0.2132	152.7945
!
!				Infineon Technologies AG
