! Infineon Technologies  Discrete & RF Semiconductors
! BAT15-099
! IAC = 9 mA
! One-Port S-Parameters
# Hz  S  MA  R  50
!f									S11
!Hz							Mag  Ang
309850000		0.75295	174.5279
409800000		0.75231	172.725
509750000		0.75152	171.2104
609700000		0.75008	169.5444
709650000		0.75007	167.9321
809600000		0.74921	166.3184
909550000		0.74959	164.7367
1009500000		0.74895	163.2304
1109450000		0.74922	161.6068
1209400000		0.74913	160.1774
1309350000		0.74922	158.523
1409300000		0.74975	157.0179
1509250000		0.75022	155.3935
1609200000		0.75126	153.8946
1709150000		0.75192	152.2991
1809100000		0.75324	150.8094
1909050000		0.75397	149.2261
2009000000		0.75557	147.6966
2108950000		0.75675	146.1175
2208900000		0.75826	144.6831
2308850000		0.75902	143.1436
2408800000		0.76079	141.6575
2508750000		0.76146	140.0852
2608700000		0.76274	138.6402
2708650000		0.76337	137.072
2808600000		0.7647	135.6775
2908550000		0.76514	134.1858
3008500000		0.76658	132.7888
3108450000		0.7669	131.3998
3208400000		0.76833	129.9906
3308350000		0.76896	128.711
3408300000		0.77053	127.4157
3508250000		0.7712	126.1382
3608200000		0.77335	124.8261
3708150000		0.77422	123.6256
3808100000		0.77614	122.3722
3908050000		0.7777	121.2
4008000000		0.7798	119.9533
4107950000		0.78179	118.7647
4207900000		0.78406	117.5437
4307850000		0.78644	116.3436
4407800000		0.78871	115.2149
4507750000		0.7908	113.9962
4607700000		0.79321	112.892
4707650000		0.7951	111.7367
4807600000		0.79747	110.5808
4907550000		0.79896	109.4852
5007500000		0.80058	108.2916
5107450000		0.80186	107.1759
5207400000		0.80305	106.0103
5307350000		0.80451	104.9829
5407300000		0.80547	103.9324
5507250000		0.8067	102.9167
5607200000		0.80735	101.978
5707150000		0.8075	100.998
5807100000		0.80788	99.9115
5907050000		0.80863	98.9758
6007000000		0.80897	97.9676
6106950000		0.8103	97.1064
6206900000		0.81131	96.127
6306850000		0.81272	95.3064
6406800000		0.81362	94.3563
6506750000		0.81503	93.4385
6606700000		0.8154	92.5559
6706650000		0.8166	91.4847
6806600000		0.8176	90.6151
6906550000		0.81881	89.5347
7006500000		0.81977	88.5486
7106450000		0.82105	87.4268
7206400000		0.82191	86.4343
7306350000		0.82245	85.2751
7406300000		0.82282	84.2472
7506250000		0.82266	83.0082
7606200000		0.82222	81.9224
7706150000		0.82047	80.6673
7806100000		0.81832	79.4469
7906050000		0.8139	78.3266
8006000000		0.80988	77.1067
!
!				Infineon Technologies AG
