! Infineon Technologies  Discrete & RF Semiconductors
! BAT15-099
! IAC = 5 mA
! One-Port S-Parameters
# Hz  S  MA  R  50
!f									S11
!Hz							Mag  Ang
309850000		0.67901	174.4815
409800000		0.67867	172.6635
509750000		0.67812	171.142
609700000		0.67677	169.464
709650000		0.67708	167.8429
809600000		0.67635	166.1876
909550000		0.67705	164.6387
1009500000		0.67656	163.1226
1109450000		0.67722	161.4867
1209400000		0.67727	160.0538
1309350000		0.67749	158.3847
1409300000		0.6782	156.8722
1509250000		0.67898	155.2338
1609200000		0.68023	153.7281
1709150000		0.68126	152.1201
1809100000		0.68282	150.629
1909050000		0.6838	149.0365
2009000000		0.6856	147.5056
2108950000		0.68721	145.9247
2208900000		0.6889	144.4934
2308850000		0.69004	142.9499
2408800000		0.69217	141.444
2508750000		0.69308	139.896
2608700000		0.69488	138.4572
2708650000		0.69589	136.8902
2808600000		0.69785	135.4993
2908550000		0.69866	134.0078
3008500000		0.70077	132.6372
3108450000		0.7016	131.2128
3208400000		0.70372	129.8055
3308350000		0.70485	128.5276
3408300000		0.70697	127.2362
3508250000		0.70808	125.9593
3608200000		0.7107	124.6819
3708150000		0.71226	123.4474
3808100000		0.7146	122.1985
3908050000		0.71652	121.0265
4008000000		0.71908	119.7834
4107950000		0.72146	118.6038
4207900000		0.72418	117.384
4307850000		0.727	116.1827
4407800000		0.72977	115.0677
4507750000		0.73215	113.8552
4607700000		0.73507	112.7632
4707650000		0.73724	111.6191
4807600000		0.74014	110.4747
4907550000		0.74201	109.3911
5007500000		0.74409	108.2082
5107450000		0.74588	107.1037
5207400000		0.74762	105.9445
5307350000		0.74955	104.9302
5407300000		0.75095	103.8913
5507250000		0.75277	102.888
5607200000		0.754	101.9576
5707150000		0.75456	100.9877
5807100000		0.75542	99.9066
5907050000		0.75667	98.9784
6007000000		0.75745	97.9773
6106950000		0.75924	97.1226
6206900000		0.76064	96.1531
6306850000		0.76241	95.3364
6406800000		0.76358	94.3933
6506750000		0.76539	93.4822
6606700000		0.76604	92.6103
6706650000		0.76755	91.5426
6806600000		0.76866	90.6832
6906550000		0.77028	89.6113
7006500000		0.77144	88.6326
7106450000		0.773	87.518
7206400000		0.77411	86.5354
7306350000		0.77505	85.3867
7406300000		0.77574	84.3659
7506250000		0.77582	83.1312
7606200000		0.77577	82.0565
7706150000		0.77444	80.8074
7806100000		0.77274	79.5946
7906050000		0.76874	78.4785
8006000000		0.76533	77.2576
!
!				Infineon Technologies AG
