! Infineon Technologies  Discrete & RF Semiconductors
! BAT15-099
! IAC = 8 mA
! One-Port S-Parameters
# Hz  S  MA  R  50
!f									S11
!Hz							Mag  Ang
309850000		0.74119	174.5201
409800000		0.74059	172.7175
509750000		0.73975	171.2325
609700000		0.73862	169.5004
709650000		0.73854	167.9197
809600000		0.73778	166.2727
909550000		0.73809	164.7258
1009500000		0.73751	163.2182
1109450000		0.73781	161.5899
1209400000		0.73776	160.1611
1309350000		0.7379	158.5054
1409300000		0.73841	156.9982
1509250000		0.7389	155.3706
1609200000		0.74001	153.8697
1709150000		0.74073	152.2741
1809100000		0.74208	150.7839
1909050000		0.74289	149.2
2009000000		0.74432	147.7024
2108950000		0.74575	146.0892
2208900000		0.74733	144.6561
2308850000		0.74831	143.0826
2408800000		0.74992	141.634
2508750000		0.75066	140.0587
2608700000		0.75204	138.6139
2708650000		0.75259	137.079
2808600000		0.75408	135.6512
2908550000		0.75462	134.1604
3008500000		0.75621	132.7641
3108450000		0.75645	131.408
3208400000		0.75812	129.9653
3308350000		0.75884	128.6829
3408300000		0.7605	127.3898
3508250000		0.76104	126.1427
3608200000		0.76342	124.8002
3708150000		0.76444	123.5995
3808100000		0.76641	122.3472
3908050000		0.76807	121.1735
4008000000		0.77024	119.9269
4107950000		0.77225	118.7424
4207900000		0.77459	117.5178
4307850000		0.77709	116.317
4407800000		0.77939	115.1937
4507750000		0.78157	113.9745
4607700000		0.78407	112.8716
4707650000		0.786	111.7172
4807600000		0.7884	110.564
4907550000		0.79004	109.4705
5007500000		0.7917	108.2763
5107450000		0.79304	107.1626
5207400000		0.79435	105.9983
5307350000		0.7959	104.9718
5407300000		0.79689	103.9245
5507250000		0.79821	102.9085
5607200000		0.79899	101.9732
5707150000		0.79921	100.9926
5807100000		0.79961	99.9066
5907050000		0.80048	98.9721
6007000000		0.80087	97.9671
6106950000		0.80226	97.1047
6206900000		0.80335	96.1284
6306850000		0.80482	95.3085
6406800000		0.80578	94.3577
6506750000		0.80725	93.4396
6606700000		0.80769	92.561
6706650000		0.8089	91.4901
6806600000		0.80987	90.6208
6906550000		0.81119	89.5425
7006500000		0.81217	88.558
7106450000		0.81353	87.4342
7206400000		0.81439	86.4438
7306350000		0.81497	85.2861
7406300000		0.81542	84.2604
7506250000		0.81532	83.02
7606200000		0.81491	81.936
7706150000		0.81322	80.6831
7806100000		0.81118	79.4625
7906050000		0.80682	78.343
8006000000		0.80286	77.121
!
!				Infineon Technologies AG
