! Infineon Technologies  Discrete & RF Semiconductors
! BAT15-099
! IAC = 0.9 mA
! One-Port S-Parameters
# Hz  S  MA  R  50
!f									S11
!Hz							Mag  Ang
309850000		0.11896	170.85
409800000		0.12141	167.5921
509750000		0.12252	165.7957
609700000		0.12285	163.0391
709650000		0.12223	161.3028
809600000		0.1219	159.0936
909550000		0.12404	157.6886
1009500000		0.12603	156.021
1109450000		0.12759	153.6368
1209400000		0.13051	151.7077
1309350000		0.13048	149.7419
1409300000		0.13189	147.8536
1509250000		0.13518	146.2399
1609200000		0.13774	144.4033
1709150000		0.14072	141.892
1809100000		0.14335	140.7268
1909050000		0.14736	139.1033
2009000000		0.15081	137.9776
2108950000		0.15237	136.2741
2208900000		0.15465	135.2137
2308850000		0.15797	133.8564
2408800000		0.161	132.3223
2508750000		0.16169	130.6813
2608700000		0.16473	129.7877
2708650000		0.16794	128.073
2808600000		0.17221	127.5327
2908550000		0.17458	125.8841
3008500000		0.18216	124.157
3108450000		0.18491	122.9797
3208400000		0.19079	122.3179
3308350000		0.19295	121.6132
3408300000		0.19886	120.9431
3508250000		0.20161	120.0419
3608200000		0.2099	119.0391
3708150000		0.21227	118.4365
3808100000		0.21684	117.5634
3908050000		0.22047	116.9064
4008000000		0.22676	115.9578
4107950000		0.23153	115.475
4207900000		0.23557	114.6213
4307850000		0.24055	113.8146
4407800000		0.24594	113.3925
4507750000		0.25034	112.5779
4607700000		0.25775	112.0344
4707650000		0.262	111.3443
4807600000		0.26866	110.729
4907550000		0.27178	110.2422
5007500000		0.27691	109.4768
5107450000		0.28449	108.8792
5207400000		0.28674	108.1113
5307350000		0.29052	107.5936
5407300000		0.29522	107.0418
5507250000		0.30288	106.4566
5607200000		0.30832	106.0159
5707150000		0.31288	105.5025
5807100000		0.31654	104.7819
5907050000		0.32303	104.0848
6007000000		0.32607	103.3985
6106950000		0.33084	102.8613
6206900000		0.33599	102.2132
6306850000		0.34046	101.8213
6406800000		0.34509	101.1818
6506750000		0.35016	100.5749
6606700000		0.35344	99.925
6706650000		0.35856	99.1294
6806600000		0.36149	98.6158
6906550000		0.36777	97.6516
7006500000		0.36988	97.1226
7106450000		0.37367	96.3252
7206400000		0.37819	95.4975
7306350000		0.38228	94.528
7406300000		0.38815	93.5341
7506250000		0.38938	92.6676
7606200000		0.39278	91.802
7706150000		0.39542	90.6324
7806100000		0.39711	89.6384
7906050000		0.39711	88.7308
8006000000		0.39888	87.5278
!
!				Infineon Technologies AG
