! Infineon Technologies  Discrete & RF Semiconductors
! BAT15-099
! IAC = 0.3 mA
! One-Port S-Parameters
# Hz  S  MA  R  50
!f									S11
!Hz							Mag  Ang
309850000		0.43564	-3.0721
409800000		0.43556	-3.8195
509750000		0.43433	-5.0141
609700000		0.4351	-6.0326
709650000		0.43757	-7.4394
809600000		0.43167	-8.5968
909550000		0.43131	-9.9793
1009500000		0.4316	-11.2875
1109450000		0.43541	-12.2508
1209400000		0.42774	-13.1765
1309350000		0.4267	-14.5818
1409300000		0.42559	-15.7108
1509250000		0.42192	-17.1129
1609200000		0.42005	-18.2111
1709150000		0.42427	-18.9161
1809100000		0.42266	-20.4369
1909050000		0.41627	-21.5597
2009000000		0.40761	-23.0458
2108950000		0.41362	-24.2801
2208900000		0.40825	-25.7985
2308850000		0.40263	-27.1696
2408800000		0.39309	-28.0413
2508750000		0.40065	-29.4106
2608700000		0.39928	-31.0471
2708650000		0.39625	-32.0779
2808600000		0.39541	-34.0402
2908550000		0.39258	-35.087
3008500000		0.39043	-35.7987
3108450000		0.38616	-37.103
3208400000		0.38656	-39.0762
3308350000		0.3813	-40.9111
3408300000		0.36966	-42.6213
3508250000		0.36662	-44.3642
3608200000		0.3661	-45.8359
3708150000		0.36431	-48.0856
3808100000		0.35438	-49.6668
3908050000		0.34496	-51.6514
4008000000		0.34179	-53.2349
4107950000		0.33858	-55.8331
4207900000		0.34054	-57.723
4307850000		0.33415	-59.6892
4407800000		0.3331	-62.4659
4507750000		0.32538	-64.3707
4607700000		0.31705	-66.8104
4707650000		0.31112	-69.0635
4807600000		0.29673	-71.6218
4907550000		0.29185	-74.3771
5007500000		0.28649	-77.0342
5107450000		0.28534	-80.2535
5207400000		0.28458	-82.7609
5307350000		0.28109	-85.6842
5407300000		0.27463	-88.9846
5507250000		0.27357	-92.2757
5607200000		0.27258	-96.0245
5707150000		0.26981	-99.7914
5807100000		0.26436	-103.05
5907050000		0.2604	-106.3995
6007000000		0.25828	-109.2926
6106950000		0.25496	-112.7391
6206900000		0.25117	-116.406
6306850000		0.25363	-120.3489
6406800000		0.25009	-124.2319
6506750000		0.25204	-127.8057
6606700000		0.25073	-131.1419
6706650000		0.249	-135.2913
6806600000		0.24904	-138.8067
6906550000		0.24969	-142.515
7006500000		0.25614	-145.7692
7106450000		0.25492	-149.5525
7206400000		0.25424	-153.3843
7306350000		0.25768	-156.3194
7406300000		0.25977	-159.8622
7506250000		0.26286	-162.7235
7606200000		0.26511	-166.2614
7706150000		0.26571	-169.5613
7806100000		0.27158	-172.0199
7906050000		0.27242	-175.0366
8006000000		0.27551	-177.6284
!
!				Infineon Technologies AG
