! Infineon Technologies  Discrete & RF Semiconductors
! BAT15-099
! IAC = 4 mA
! One-Port S-Parameters
# Hz  S  MA  R  50
!f									S11
!Hz							Mag  Ang
309850000		0.639	174.4483
409800000		0.63882	172.6203
509750000		0.63845	171.0949
609700000		0.63741	169.3387
709650000		0.63753	167.783
809600000		0.63684	166.1247
909550000		0.63776	164.5721
1009500000		0.63741	163.052
1109450000		0.63823	161.4082
1209400000		0.63842	159.9698
1309350000		0.63874	158.2902
1409300000		0.6395	156.7757
1509250000		0.64048	155.1286
1609200000		0.64184	153.6191
1709150000		0.64305	152.0022
1809100000		0.64473	150.5073
1909050000		0.64588	148.9133
2009000000		0.64774	147.3834
2108950000		0.64965	145.7689
2208900000		0.65138	144.3687
2308850000		0.6528	142.7911
2408800000		0.65472	141.3464
2508750000		0.656	139.7729
2608700000		0.65799	138.3348
2708650000		0.65906	136.8011
2808600000		0.66152	135.3829
2908550000		0.66248	133.8888
3008500000		0.6651	132.4783
3108450000		0.66607	131.0921
3208400000		0.66863	129.6899
3308350000		0.66992	128.4137
3408300000		0.67231	127.123
3508250000		0.67367	125.8486
3608200000		0.67686	124.538
3708150000		0.67848	123.3408
3808100000		0.68091	122.1246
3908050000		0.6831	120.9216
4008000000		0.68597	119.6819
4107950000		0.6886	118.506
4207900000		0.69158	117.2889
4307850000		0.6945	116.0958
4407800000		0.69756	114.9866
4507750000		0.7001	113.7783
4607700000		0.70337	112.6946
4707650000		0.70572	111.5577
4807600000		0.70879	110.4191
4907550000		0.71079	109.3469
5007500000		0.71319	108.1702
5107450000		0.71532	107.0738
5207400000		0.7172	105.9213
5307350000		0.71939	104.9154
5407300000		0.72106	103.8837
5507250000		0.72322	102.888
5607200000		0.72473	101.9642
5707150000		0.72553	101.0047
5807100000		0.72668	99.9279
5907050000		0.72821	99.006
6007000000		0.72923	98.0092
6106950000		0.73123	97.158
6206900000		0.73282	96.1934
6306850000		0.73478	95.3826
6406800000		0.73614	94.447
6506750000		0.73817	93.5417
6606700000		0.7389	92.6726
6706650000		0.74059	91.6145
6806600000		0.74185	90.759
6906550000		0.74369	89.6906
7006500000		0.74492	88.7201
7106450000		0.74657	87.6128
7206400000		0.74784	86.6341
7306350000		0.74897	85.4904
7406300000		0.74985	84.4781
7506250000		0.75007	83.2494
7606200000		0.75021	82.1807
7706150000		0.74909	80.9348
7806100000		0.74766	79.7249
7906050000		0.74389	78.6126
8006000000		0.74079	77.3944
!
!				Infineon Technologies AG
