! Infineon Technologies  Discrete & RF Semiconductors
! BAT24-02ELS
! IAC = 6 mA
! One-Port S-Parameters
# Hz  S  MA  R  50
!f									S11
!Hz							Mag  Ang
309850000		0.66239	178.8799
334837500		0.66219	178.8388
359825000		0.66186	178.7811
384812500		0.66185	178.6651
409800000		0.66171	178.5826
434787500		0.66156	178.5438
459775000		0.66179	178.5158
484762500		0.6616	178.3976
509750000		0.66138	178.3269
534737500		0.6616	178.2246
559725000		0.66142	178.1781
584712500		0.66105	178.1553
609700000		0.66111	178.0528
634687500		0.66052	177.9713
659675000		0.66039	177.9219
684662500		0.66023	177.8457
709650000		0.66018	177.7966
734637500		0.66021	177.739
759625000		0.66014	177.6592
784612500		0.66017	177.5931
809600000		0.66029	177.5355
834587500		0.66044	177.4663
859575000		0.66041	177.3944
884562500		0.66018	177.32
909550000		0.66011	177.2492
934537500		0.65995	177.1727
959525000		0.65965	177.1
984512500		0.65964	177.0323
1009500000		0.65943	176.9586
1034487500		0.65922	176.8982
1059475000		0.65925	176.8286
1084462500		0.65898	176.7703
1109450000		0.65905	176.7185
1134437500		0.65938	176.6579
1159425000		0.65954	176.5872
1184412500		0.65945	176.5148
1209400000		0.65952	176.4337
1234387500		0.65951	176.3392
1259375000		0.65935	176.2636
1284362500		0.65923	176.2199
1309350000		0.65916	176.1644
1334337500		0.65893	176.082
1359325000		0.65872	176.0031
1384312500		0.65876	175.9241
1409300000		0.65861	175.8553
1434287500		0.65842	175.8282
1459275000		0.65831	175.7628
1484262500		0.6582	175.6993
1509250000		0.65855	175.636
1534237500		0.65897	175.5581
1559225000		0.65905	175.497
1584212500		0.65919	175.4324
1609200000		0.65914	175.3277
1634187500		0.6589	175.2204
1659175000		0.65865	175.1636
1684162500		0.6587	175.1237
1709150000		0.65857	175.0573
1734137500		0.658	174.9861
1759125000		0.65795	174.9092
1784112500		0.6579	174.8199
1809100000		0.65748	174.7694
1834087500		0.65745	174.7371
1859075000		0.6575	174.6479
1884062500		0.65735	174.6201
1909050000		0.65762	174.5581
1934037500		0.65831	174.4602
1959025000		0.65836	174.4179
1984012500		0.6584	174.3553
2009000000		0.65848	174.275
2033987500		0.65826	174.177
2058975000		0.65813	174.077
2083962500		0.65812	174.0482
2108950000		0.65794	173.9726
2133937500		0.65754	173.8853
2158925000		0.65729	173.8528
2183912500		0.65736	173.7476
2208900000		0.65708	173.6434
2233887500		0.65697	173.6674
2258875000		0.65715	173.5709
2283862500		0.65713	173.4963
2308850000		0.65711	173.4651
2333837500		0.65731	173.3724
2358825000		0.65745	173.3219
2383812500		0.65761	173.2672
2408800000		0.65729	173.2047
2433787500		0.65709	173.1192
2458775000		0.65691	173.0762
2483762500		0.65706	172.9586
2508750000		0.65701	172.8972
2533737500		0.65679	172.8465
2558725000		0.65661	172.771
2583712500		0.65661	172.6669
2608700000		0.65668	172.5496
2633687500		0.65665	172.5278
2658675000		0.65636	172.4953
2683662500		0.65615	172.4476
2708650000		0.65618	172.3556
2733637500		0.65614	172.2519
2758625000		0.65611	172.2649
2783612500		0.65635	172.1899
2808600000		0.65624	172.1141
2833587500		0.65624	172.0619
2858575000		0.65621	171.9732
2883562500		0.65626	171.9121
2908550000		0.65631	171.8598
2933537500		0.65627	171.7703
2958525000		0.65595	171.7597
2983512500		0.65612	171.6183
3008500000		0.6561	171.5366
3033487500		0.65624	171.4927
3058475000		0.65613	171.436
3083462500		0.65577	171.3887
3108450000		0.65585	171.2611
3133437500		0.65588	171.1947
3158425000		0.65591	171.1559
3183412500		0.65589	171.0932
3208400000		0.65565	171.0243
3233387500		0.65555	170.9518
3258375000		0.65572	170.8748
3283362500		0.65567	170.8226
3308350000		0.6556	170.7722
3333337500		0.65529	170.737
3358325000		0.65535	170.6251
3383312500		0.65542	170.5665
3408300000		0.65556	170.508
3433287500		0.65544	170.4524
3458275000		0.65531	170.3936
3483262500		0.65552	170.3111
3508250000		0.65555	170.233
3533237500		0.65555	170.15
3558225000		0.65552	170.1189
3583212500		0.65551	170.0424
3608200000		0.65534	169.9624
3633187500		0.65536	169.9048
3658175000		0.65547	169.8411
3683162500		0.65523	169.7747
3708150000		0.65517	169.6861
3733137500		0.65512	169.645
3758125000		0.6552	169.5616
3783112500		0.65497	169.5142
3808100000		0.65492	169.4683
3833087500		0.65499	169.4021
3858075000		0.65489	169.3348
3883062500		0.65494	169.2739
3908050000		0.65507	169.2156
3933037500		0.65491	169.1584
3958025000		0.65497	169.0987
3983012500		0.65514	169.0199
4008000000		0.65508	168.9468
4032987500		0.65493	168.9023
4057975000		0.65509	168.823
4082962500		0.65502	168.7369
4107950000		0.65481	168.6768
4132937500		0.65488	168.6242
4157925000		0.6549	168.5523
4182912500		0.65463	168.4829
4207900000		0.65456	168.4246
4232887500		0.65466	168.3646
4257875000		0.65459	168.3028
4282862500		0.65446	168.2538
4307850000		0.65446	168.1913
4332837500		0.65442	168.1056
4357825000		0.65444	168.0538
4382812500		0.6545	168.0074
4407800000		0.65448	167.9376
4432787500		0.65427	167.8688
4457775000		0.6543	167.7992
4482762500		0.65452	167.7296
4507750000		0.65453	167.6845
4532737500		0.65443	167.6314
4557725000		0.6544	167.5474
4582712500		0.65424	167.4825
4607700000		0.65433	167.4452
4632687500		0.65454	167.3947
4657675000		0.65438	167.3288
4682662500		0.65405	167.2574
4707650000		0.65401	167.1786
4732637500		0.65418	167.107
4757625000		0.65426	167.0543
4782612500		0.65408	167.0062
4807600000		0.65391	166.9388
4832587500		0.65394	166.8451
4857575000		0.65403	166.7775
4882562500		0.65419	166.7473
4907550000		0.65425	166.7039
4932537500		0.65413	166.6311
4957525000		0.6539	166.5637
4982512500		0.65405	166.5119
5007500000		0.65431	166.4632
5032487500		0.65422	166.4088
5057475000		0.65395	166.3436
5082462500		0.65394	166.2708
5107450000		0.65408	166.1871
5132437500		0.65413	166.1244
5157425000		0.65401	166.0841
5182412500		0.65393	166.0203
5207400000		0.65386	165.9308
5232387500		0.6538	165.8641
5257375000		0.65384	165.8171
5282362500		0.65395	165.7686
5307350000		0.65386	165.7014
5332337500		0.65383	165.6329
5357325000		0.65387	165.5761
5382312500		0.65393	165.5263
5407300000		0.65394	165.4732
5432287500		0.6539	165.4135
5457275000		0.65381	165.3546
5482262500		0.65385	165.2942
5507250000		0.65395	165.2254
5532237500		0.65383	165.1521
5557225000		0.65369	165.1039
5582212500		0.65383	165.0489
5607200000		0.65393	164.9672
5632187500		0.65357	164.9009
5657175000		0.65351	164.8553
5682162500		0.6538	164.7756
5707150000		0.65395	164.6973
5732137500		0.65387	164.6691
5757125000		0.65389	164.638
5782112500		0.65398	164.5593
5807100000		0.65388	164.4771
5832087500		0.65399	164.426
5857075000		0.65424	164.3839
5882062500		0.65416	164.3353
5907050000		0.65371	164.2644
5932037500		0.65361	164.1862
5957025000		0.65386	164.106
5982012500		0.65387	164.0394
6007000000		0.6537	163.9957
6031987500		0.65368	163.9242
6056975000		0.65372	163.8184
6081962500		0.65387	163.7524
6106950000		0.65422	163.7191
6131937500		0.65424	163.6986
6156925000		0.65407	163.6631
6181912500		0.65402	163.5805
6206900000		0.65399	163.4903
6231887500		0.65403	163.4661
6256875000		0.65415	163.4508
6281862500		0.6539	163.3589
6306850000		0.65329	163.2666
6331837500		0.65335	163.1974
6356825000		0.65382	163.1147
6381812500		0.6537	163.046
6406800000		0.65342	163.0077
6431787500		0.65355	162.9287
6456775000		0.65373	162.83
6481762500		0.65388	162.7869
6506750000		0.65413	162.7654
6531737500		0.65416	162.7213
6556725000		0.65396	162.6681
6581712500		0.65399	162.6112
6606700000		0.6541	162.553
6631687500		0.65402	162.5173
6656675000		0.65382	162.4652
6681662500		0.65368	162.3859
6706650000		0.65378	162.3091
6731637500		0.65395	162.2398
6756625000		0.65387	162.1665
6781612500		0.65362	162.1011
6806600000		0.6537	162.0325
6831587500		0.65402	161.9565
6856575000		0.6542	161.8961
6881562500		0.65412	161.8508
6906550000		0.654	161.8116
6931537500		0.65408	161.76
6956525000		0.6542	161.7031
6981512500		0.65428	161.6646
7006500000		0.65425	161.6388
7031487500		0.65415	161.5834
7056475000		0.65404	161.5062
7081462500		0.654	161.4361
7106450000		0.65401	161.3788
7131437500		0.65391	161.3167
7156425000		0.65374	161.24
7181412500		0.65364	161.1424
7206400000		0.65375	161.0774
7231387500		0.65415	161.0162
7256375000		0.65431	160.9382
7281362500		0.65419	160.887
7306350000		0.65447	160.8446
7331337500		0.65472	160.7851
7356325000		0.65463	160.7613
7381312500		0.65479	160.7448
7406300000		0.65482	160.6785
7431287500		0.65447	160.62
7456275000		0.65436	160.5787
7481262500		0.65442	160.5067
7506250000		0.65412	160.4189
7531237500		0.65409	160.3367
7556225000		0.65429	160.2414
7581212500		0.65437	160.1716
7606200000		0.65445	160.1204
7631187500		0.65458	160.0445
7656175000		0.65461	159.9675
7681162500		0.65488	159.932
7706150000		0.65534	159.9269
7731137500		0.65542	159.9109
7756125000		0.65495	159.8629
7781112500		0.65471	159.8011
7806100000		0.65489	159.7419
7831087500		0.65496	159.6814
7856075000		0.65447	159.6483
7881062500		0.65422	159.5875
7906050000		0.65424	159.4525
7931037500		0.65434	159.3406
7956025000		0.65473	159.289
7981012500		0.65497	159.2366
8006000000		0.65458	159.169
8030987500		0.65447	159.0928
8055975000		0.65511	159.0175
8080962500		0.65565	158.9839
8105950000		0.65553	158.9965
8130937500		0.6551	158.9965
8155925000		0.65483	158.9279
8180912500		0.6549	158.8319
8205900000		0.65509	158.7777
8230887500		0.6551	158.7566
8255875000		0.6547	158.6976
8280862500		0.65419	158.5968
8305850000		0.65434	158.4834
8330837500		0.65475	158.3835
8355825000		0.6548	158.3419
8380812500		0.65472	158.3104
8405800000		0.65471	158.2174
8430787500		0.65474	158.1312
8455775000		0.65537	158.1121
8480762500		0.65588	158.1072
8505750000		0.65561	158.0866
8530737500		0.65509	158.0604
8555725000		0.6552	157.9906
8580712500		0.65547	157.9082
8605700000		0.65542	157.8732
8630687500		0.65525	157.8397
8655675000		0.65495	157.7602
8680662500		0.6548	157.6501
8705650000		0.65486	157.5429
8730637500		0.65512	157.4601
8755625000		0.6552	157.3866
8780612500		0.65518	157.3259
8805600000		0.6554	157.2803
8830587500		0.65579	157.232
8855575000		0.656	157.2
8880562500		0.65597	157.1828
8905550000		0.65601	157.1576
8930537500		0.65598	157.117
8955525000		0.65594	157.0682
8980512500		0.65578	157.0027
9005500000		0.65564	156.9189
9030487500		0.65551	156.8266
9055475000		0.65542	156.7629
9080462500		0.6554	156.6747
9105450000		0.65535	156.5621
9130437500		0.65527	156.4608
9155425000		0.65571	156.3908
9180412500		0.65624	156.3512
9205400000		0.65633	156.333
9230387500		0.65614	156.3086
9255375000		0.6562	156.246
9280362500		0.65632	156.1895
9305350000		0.65655	156.1847
9330337500		0.65667	156.1826
9355325000		0.65638	156.13
9380312500		0.65585	156.0398
9405300000		0.65582	155.9547
9430287500		0.65625	155.8861
9455275000		0.65632	155.8254
9480262500		0.65585	155.7522
9505250000		0.6556	155.6472
9530237500		0.6558	155.5225
9555225000		0.65605	155.4546
9580212500		0.65649	155.4349
9605200000		0.65666	155.3763
9630187500		0.65623	155.305
9655175000		0.6565	155.2741
9680162500		0.65744	155.2248
9705150000		0.65739	155.1985
9730137500		0.65683	155.2121
9755125000		0.65686	155.1481
9780112500		0.65694	155.0292
9805100000		0.65672	154.9814
9830087500		0.65679	154.9542
9855075000		0.65658	154.8689
9880062500		0.65611	154.7416
9905050000		0.65618	154.631
9930037500		0.65672	154.5645
9955025000		0.65691	154.5248
9980012500		0.65661	154.4761
10005000000		0.65667	154.4071
10029987500		0.65717	154.3385
10054975000		0.65746	154.3168
10079962500		0.65734	154.3327
10104950000		0.65721	154.3022
10129937500		0.65696	154.2118
10154925000		0.65697	154.1523
10179912500		0.65736	154.1187
10204900000		0.65713	154.0942
10229887500		0.65655	154.0383
10254875000		0.65659	153.9013
10279862500		0.65708	153.7513
10304850000		0.65739	153.7244
10329837500		0.65771	153.7378
10354825000		0.65756	153.6568
10379812500		0.65726	153.539
10404800000		0.65782	153.4778
10429787500		0.6587	153.4683
10454775000		0.65874	153.4968
10479762500		0.6581	153.4796
10504750000		0.65786	153.3815
10529737500		0.65832	153.2797
10554725000		0.65867	153.2516
10579712500		0.65864	153.274
10604700000		0.65808	153.2212
10629687500		0.65749	153.0723
10654675000		0.65772	152.9432
10679662500		0.65865	152.8871
10704650000		0.65899	152.8538
10729637500		0.65842	152.8381
10754625000		0.65814	152.7015
10779612500		0.65854	152.5901
10804600000		0.65964	152.5876
10829587500		0.66037	152.6148
10854575000		0.65978	152.6176
10879562500		0.65907	152.5728
10904550000		0.65956	152.474
10929537500		0.65998	152.3837
10954525000		0.65985	152.3897
10979512500		0.65944	152.3835
11004500000		0.65883	152.2567
11029487500		0.65865	152.0918
11054475000		0.65936	151.9986
11079462500		0.65999	151.9551
11104450000		0.65976	151.9285
11129437500		0.65956	151.8684
11154425000		0.66011	151.7689
11179412500		0.66072	151.7171
11204400000		0.66094	151.7488
11229387500		0.66093	151.7704
11254375000		0.66054	151.7204
11279362500		0.66025	151.6478
11304350000		0.66041	151.6195
11329337500		0.66085	151.5014
11354325000		0.66034	151.4566
11379312500		0.66025	151.4059
11404300000		0.66068	151.2645
11429287500		0.6605	151.153
11454275000		0.66054	151.1339
11479262500		0.66119	151.0886
11504250000		0.66117	150.9993
11529237500		0.66097	150.98
11554225000		0.66157	150.9725
11579212500		0.66192	150.9003
11604200000		0.66139	150.8466
11629187500		0.66146	150.8307
11654175000		0.66182	150.776
11679162500		0.66157	150.6985
11704150000		0.66097	150.6561
11729137500		0.66134	150.5675
11754125000		0.66175	150.4177
11779112500		0.6616	150.4141
11804100000		0.66185	150.3937
11829087500		0.66167	150.2894
11854075000		0.66118	150.205
11879062500		0.66172	150.1568
11904050000		0.66254	150.0881
11929037500		0.66212	150.0901
11954025000		0.66188	150.1076
11979012500		0.66207	150.0049
12004000000		0.66195	149.9109
12028987500		0.66228	149.9244
12053975000		0.66271	149.9248
12078962500		0.66222	149.8291
12103950000		0.66152	149.7855
12128937500		0.66197	149.6661
12153925000		0.66294	149.5782
12178912500		0.66275	149.5769
12203900000		0.66199	149.5256
12228887500		0.6621	149.3743
12253875000		0.66248	149.2979
12278862500		0.66309	149.2273
12303850000		0.6634	149.275
12328837500		0.6632	149.2308
12353825000		0.66273	149.1391
12378812500		0.66306	149.0715
12403800000		0.66389	149.0388
12428787500		0.66376	149.05
12453775000		0.66339	149.093
12478762500		0.66298	148.8932
12503750000		0.66261	148.769
12528737500		0.66329	148.738
12553725000		0.66399	148.7447
12578712500		0.66333	148.6558
12603700000		0.66278	148.5348
12628687500		0.66347	148.5092
12653675000		0.66442	148.4207
12678662500		0.66454	148.4551
12703650000		0.66402	148.4838
12728637500		0.6638	148.3378
12753625000		0.66397	148.1973
12778612500		0.66412	148.2662
12803600000		0.66443	148.2047
12828587500		0.66359	148.1898
12853575000		0.66306	148.0119
12878562500		0.66372	147.8865
12903550000		0.66471	147.8142
12928537500		0.66484	147.8322
12953525000		0.66499	147.8215
12978512500		0.66478	147.7509
13003500000		0.66519	147.6085
13028487500		0.66607	147.5903
13053475000		0.66619	147.609
13078462500		0.66506	147.5906
13103450000		0.66496	147.4871
13128437500		0.66556	147.3696
13153425000		0.66553	147.2893
13178412500		0.6652	147.3374
13203400000		0.6652	147.2463
13228387500		0.66498	147.0596
13253375000		0.66555	146.9609
13278362500		0.66698	146.9679
13303350000		0.6673	146.9774
13328337500		0.66625	146.9481
13353325000		0.66575	146.8549
13378312500		0.66664	146.806
13403300000		0.66737	146.7708
13428287500		0.66658	146.8555
13453275000		0.66609	146.8038
13478262500		0.66567	146.6524
13503250000		0.66589	146.5417
13528237500		0.66698	146.5043
13553225000		0.66728	146.4183
13578212500		0.66616	146.4043
13603200000		0.66635	146.2901
13628187500		0.66733	146.1516
13653175000		0.66775	146.0336
13678162500		0.66795	146.1267
13703150000		0.66792	146.135
13728137500		0.66752	145.9261
13753125000		0.6675	145.9278
13778112500		0.66858	145.9456
13803100000		0.66863	145.8977
13828087500		0.66758	145.9022
13853075000		0.66747	145.8258
13878062500		0.66824	145.7158
13903050000		0.66856	145.6598
13928037500		0.6683	145.6423
13953025000		0.66781	145.5499
13978012500		0.66754	145.3833
14003000000		0.66782	145.2666
14027987500		0.66852	145.2281
14052975000		0.66867	145.2417
14077962500		0.66813	145.1678
14102950000		0.66829	145.1327
14127937500		0.6692	145.0963
14152925000		0.66965	145.0654
14177912500		0.66935	145.1635
14202900000		0.6695	145.0738
14227887500		0.66918	145.0066
14252875000		0.66946	144.994
14277862500		0.67	144.9425
14302850000		0.66906	144.8711
14327837500		0.66826	144.7418
14352825000		0.66882	144.6886
14377812500		0.66997	144.5372
14402800000		0.66988	144.5685
14427787500		0.66974	144.5259
14452775000		0.66949	144.4399
14477762500		0.6701	144.3112
14502750000		0.67117	144.2805
14527737500		0.67161	144.3189
14552725000		0.67108	144.3324
14577712500		0.67036	144.3048
14602700000		0.67056	144.1975
14627687500		0.67119	144.154
14652675000		0.67143	144.1756
14677662500		0.67087	144.1267
14702650000		0.66991	143.9548
14727637500		0.6702	143.8555
14752625000		0.67193	143.772
14777612500		0.67274	143.7371
14802600000		0.67156	143.747
14827587500		0.67111	143.6585
14852575000		0.67199	143.4776
14877562500		0.67278	143.4434
14902550000		0.67311	143.5455
14927537500		0.67247	143.6098
14952525000		0.67142	143.4714
14977512500		0.67151	143.3526
15002500000		0.67291	143.3487
15027487500		0.6739	143.3305
15052475000		0.67314	143.3408
15077462500		0.67236	143.2709
15102450000		0.67257	143.0799
15127437500		0.67303	142.9868
15152425000		0.67365	143.0373
15177412500		0.6735	143.0117
15202400000		0.67246	142.8694
15227387500		0.67234	142.7545
15252375000		0.67369	142.7693
15277362500		0.67477	142.7013
15302350000		0.67399	142.7174
15327337500		0.67398	142.7106
15352325000		0.67491	142.5534
15377312500		0.67525	142.4364
15402300000		0.67535	142.6039
15427287500		0.67545	142.5957
15452275000		0.67408	142.4794
15477262500		0.67339	142.3728
15502250000		0.67464	142.1828
15527237500		0.67468	142.1584
15552225000		0.67425	142.0798
15577212500		0.67419	142.0602
15602200000		0.6751	141.8008
15627187500		0.67543	141.8146
15652175000		0.67652	141.8089
15677162500		0.67682	141.8013
15702150000		0.67632	141.7351
15727137500		0.6761	141.7953
15752125000		0.67721	141.7302
15777112500		0.67718	141.6627
15802100000		0.67559	141.7236
15827087500		0.67515	141.6828
15852075000		0.67587	141.5004
15877062500		0.67576	141.4273
15902050000		0.67616	141.3251
15927037500		0.67583	141.2853
15952025000		0.67569	141.1585
15977012500		0.67622	141.0579
16002000000		0.67732	140.945
16026987500		0.67716	140.8583
16051975000		0.67652	140.9334
16076962500		0.6771	140.8102
16101950000		0.67753	140.7097
16126937500		0.67779	140.7683
16151925000		0.67816	140.7642
16176912500		0.67774	140.7141
16201900000		0.67754	140.6178
16226887500		0.67835	140.6015
16251875000		0.67859	140.6313
16276862500		0.678	140.5669
16301850000		0.67711	140.4739
16326837500		0.67709	140.3271
16351825000		0.67782	140.2368
16376812500		0.6785	140.1717
16401800000		0.67799	140.1673
16426787500		0.67695	140.0397
16451775000		0.67704	139.9394
16476762500		0.67878	139.7945
16501750000		0.67991	139.838
16526737500		0.67973	139.8626
16551725000		0.67928	139.8692
16576712500		0.67978	139.7488
16601700000		0.68026	139.6802
16626687500		0.68047	139.8208
16651675000		0.68016	139.7645
16676662500		0.67884	139.5847
16701650000		0.67842	139.4691
16726637500		0.67953	139.376
16751625000		0.67998	139.2621
16776612500		0.67952	139.2599
16801600000		0.67962	139.0749
16826587500		0.67997	138.8945
16851575000		0.68101	138.826
16876562500		0.68243	138.9637
16901550000		0.68277	138.9345
16926537500		0.68149	139.0119
16951525000		0.68146	138.9853
16976512500		0.68255	138.9713
17001500000		0.68216	138.9474
17026487500		0.68068	138.9437
17051475000		0.68044	138.7404
17076462500		0.68057	138.4878
17101450000		0.68078	138.4483
17126437500		0.68132	138.4264
17151425000		0.68105	138.3212
17176412500		0.6807	138.0951
17201400000		0.68201	137.9458
17226387500		0.68425	137.9528
17251375000		0.68435	138.0518
17276362500		0.68308	138.1294
