! Infineon Technologies  Discrete & RF Semiconductors
! BAT24-02ELS
! IAC = 2 mA
! One-Port S-Parameters
# Hz  S  MA  R  50
!f									S11
!Hz							Mag  Ang
309850000		0.432	178.9171
334837500		0.4318	178.9348
359825000		0.43136	178.8932
384812500		0.43236	178.7819
409800000		0.43217	178.6878
434787500		0.43122	178.6681
459775000		0.43193	178.6193
484762500		0.43217	178.5563
509750000		0.43203	178.5341
534737500		0.43226	178.4506
559725000		0.43232	178.3856
584712500		0.43177	178.3596
609700000		0.43126	178.3025
634687500		0.43197	178.202
659675000		0.43094	178.1737
684662500		0.43004	178.1369
709650000		0.43049	178.1093
734637500		0.43062	178.0798
759625000		0.43018	178.0353
784612500		0.4306	177.9698
809600000		0.43045	177.9437
834587500		0.43111	177.9131
859575000		0.4313	177.8969
884562500		0.43062	177.8156
909550000		0.43121	177.7807
934537500		0.43054	177.7281
959525000		0.4299	177.6525
984512500		0.43085	177.6116
1009500000		0.43028	177.5609
1034487500		0.42983	177.5129
1059475000		0.4306	177.4782
1084462500		0.42983	177.4151
1109450000		0.42967	177.3977
1134437500		0.43068	177.3432
1159425000		0.43058	177.3026
1184412500		0.43017	177.2881
1209400000		0.43108	177.1526
1234387500		0.43086	177.1149
1259375000		0.43062	177.0412
1284362500		0.43038	177.0118
1309350000		0.43022	177.0128
1334337500		0.43028	176.9133
1359325000		0.42974	176.8541
1384312500		0.42983	176.7858
1409300000		0.43019	176.7221
1434287500		0.43032	176.728
1459275000		0.42979	176.6696
1484262500		0.42974	176.6217
1509250000		0.43069	176.5406
1534237500		0.43062	176.5366
1559225000		0.43096	176.4495
1584212500		0.43162	176.3853
1609200000		0.43093	176.3001
1634187500		0.43103	176.2155
1659175000		0.43038	176.1673
1684162500		0.43044	176.1503
1709150000		0.43094	176.0993
1734137500		0.42963	176.0431
1759125000		0.42947	176.0044
1784112500		0.4308	175.8939
1809100000		0.42973	175.8553
1834087500		0.42966	175.8476
1859075000		0.43048	175.7751
1884062500		0.42972	175.7627
1909050000		0.4299	175.7129
1934037500		0.43118	175.6561
1959025000		0.43109	175.6161
1984012500		0.43107	175.5412
2009000000		0.43102	175.5205
2033987500		0.43067	175.4164
2058975000		0.43042	175.379
2083962500		0.43058	175.3344
2108950000		0.43087	175.2796
2133937500		0.42963	175.2422
2158925000		0.42952	175.2223
2183912500		0.43019	175.0929
2208900000		0.42981	175.0086
2233887500		0.42982	175.0007
2258875000		0.43021	174.991
2283862500		0.43004	174.9819
2308850000		0.43003	174.8697
2333837500		0.42985	174.8185
2358825000		0.43124	174.7752
2383812500		0.43071	174.7601
2408800000		0.42916	174.758
2433787500		0.43011	174.6397
2458775000		0.43018	174.5865
2483762500		0.42918	174.5599
2508750000		0.42932	174.4936
2533737500		0.42926	174.475
2558725000		0.42903	174.407
2583712500		0.42908	174.3263
2608700000		0.42948	174.2237
2633687500		0.42979	174.2085
2658675000		0.42904	174.213
2683662500		0.42885	174.2163
2708650000		0.4294	174.0775
2733637500		0.42895	174.0229
2758625000		0.42919	174.0018
2783612500		0.42935	174.0122
2808600000		0.42882	173.9462
2833587500		0.42954	173.9283
2858575000		0.42944	173.819
2883562500		0.42922	173.7722
2908550000		0.42929	173.7529
2933537500		0.42948	173.6811
2958525000		0.42993	173.6316
2983512500		0.42958	173.5907
3008500000		0.42935	173.3562
3033487500		0.42999	173.3566
3058475000		0.42976	173.2861
3083462500		0.42924	173.2472
3108450000		0.42963	173.1566
3133437500		0.42982	173.1042
3158425000		0.4293	173.1059
3183412500		0.42919	173.064
3208400000		0.42938	173.0388
3233387500		0.42942	173.0112
3258375000		0.42928	172.8868
3283362500		0.42929	172.9169
3308350000		0.42961	172.8579
3333337500		0.42965	172.8086
3358325000		0.42957	172.734
3383312500		0.4296	172.6904
3408300000		0.43024	172.6512
3433287500		0.43015	172.6012
3458275000		0.4291	172.5894
3483262500		0.43011	172.5023
3508250000		0.43043	172.4379
3533237500		0.42991	172.3835
3558225000		0.43027	172.3393
3583212500		0.43025	172.2751
3608200000		0.43008	172.2304
3633187500		0.43052	172.1667
3658175000		0.43023	172.1434
3683162500		0.43017	172.0944
3708150000		0.4304	172.0264
3733137500		0.43023	171.976
3758125000		0.43042	171.9121
3783112500		0.43014	171.887
3808100000		0.43001	171.8806
3833087500		0.43045	171.8178
3858075000		0.42979	171.7953
3883062500		0.43013	171.7259
3908050000		0.43107	171.668
3933037500		0.43031	171.6436
3958025000		0.42989	171.5977
3983012500		0.43117	171.5178
4008000000		0.43141	171.4719
4032987500		0.43035	171.4658
4057975000		0.4309	171.3926
4082962500		0.43154	171.295
4107950000		0.43072	171.2896
4132937500		0.4304	171.2546
4157925000		0.43102	171.1987
4182912500		0.43054	171.1606
4207900000		0.43026	171.1211
4232887500		0.43024	171.0815
4257875000		0.43049	171.0393
4282862500		0.43076	170.9834
4307850000		0.4303	170.9507
4332837500		0.43038	170.9255
4357825000		0.43078	170.8394
4382812500		0.4305	170.8293
4407800000		0.43118	170.7531
4432787500		0.43107	170.7138
4457775000		0.43031	170.651
4482762500		0.43119	170.5916
4507750000		0.43134	170.5821
4532737500		0.43046	170.5865
4557725000		0.43114	170.4894
4582712500		0.43166	170.4172
4607700000		0.43084	170.4517
4632687500		0.43119	170.3823
4657675000		0.43181	170.3253
4682662500		0.43142	170.3152
4707650000		0.43116	170.2435
4732637500		0.43151	170.1948
4757625000		0.43215	170.1029
4782612500		0.43235	170.0719
4807600000		0.43157	170.0601
4832587500		0.43189	169.9417
4857575000		0.43198	169.9379
4882562500		0.43203	169.8764
4907550000		0.43205	169.885
4932537500		0.43229	169.8082
4957525000		0.43227	169.7766
4982512500		0.43188	169.751
5007500000		0.43218	169.6849
5032487500		0.43274	169.6554
5057475000		0.43256	169.6387
5082462500		0.43271	169.5647
5107450000		0.43253	169.5316
5132437500		0.43295	169.4024
5157425000		0.43315	169.4141
5182412500		0.43224	169.3966
5207400000		0.43252	169.3224
5232387500		0.43251	169.2893
5257375000		0.43225	169.2356
5282362500		0.43284	169.1985
5307350000		0.43257	169.172
5332337500		0.43265	169.1142
5357325000		0.43309	169.0625
5382312500		0.43284	169.0025
5407300000		0.4331	168.9789
5432287500		0.43348	168.9595
5457275000		0.43343	168.9138
5482262500		0.43338	168.8844
5507250000		0.43324	168.8356
5532237500		0.43376	168.762
5557225000		0.43391	168.7268
5582212500		0.43302	168.7093
5607200000		0.43361	168.6389
5632187500		0.43391	168.5853
5657175000		0.43327	168.5203
5682162500		0.43357	168.4949
5707150000		0.43441	168.3976
5732137500		0.43468	168.3852
5757125000		0.43417	168.3768
5782112500		0.43438	168.2765
5807100000		0.43483	168.2467
5832087500		0.43462	168.1727
5857075000		0.43543	168.1439
5882062500		0.43535	168.1372
5907050000		0.43447	168.0832
5932037500		0.43477	168.0308
5957025000		0.43488	167.975
5982012500		0.43478	167.9306
6007000000		0.43476	167.8919
6031987500		0.43463	167.794
6056975000		0.43496	167.7513
6081962500		0.43506	167.6871
6106950000		0.43558	167.6685
6131937500		0.43634	167.6292
6156925000		0.43609	167.6185
6181912500		0.43547	167.6065
6206900000		0.43616	167.4824
6231887500		0.43628	167.4693
6256875000		0.43556	167.5467
6281862500		0.43539	167.4657
6306850000		0.43511	167.3948
6331837500		0.43521	167.2809
6356825000		0.43554	167.2294
6381812500		0.43565	167.1636
6406800000		0.43566	167.1083
6431787500		0.43552	167.0984
6456775000		0.43586	166.9984
6481762500		0.43637	166.9639
6506750000		0.43672	166.9631
6531737500		0.43723	166.9153
6556725000		0.43702	166.8576
6581712500		0.43691	166.8532
6606700000		0.43702	166.794
6631687500		0.437	166.791
6656675000		0.43671	166.7811
6681662500		0.43654	166.7053
6706650000		0.43656	166.6395
6731637500		0.43701	166.5535
6756625000		0.43685	166.4835
6781612500		0.4367	166.4648
6806600000		0.43705	166.3728
6831587500		0.43724	166.3472
6856575000		0.43728	166.2956
6881562500		0.43805	166.2473
6906550000		0.43824	166.2239
6931537500		0.43825	166.1639
6956525000		0.43792	166.1603
6981512500		0.438	166.1382
7006500000		0.43825	166.1454
7031487500		0.43785	166.1194
7056475000		0.43783	166.0525
7081462500		0.43763	166.0179
7106450000		0.43753	165.9656
7131437500		0.43787	165.8694
7156425000		0.43744	165.8588
7181412500		0.43794	165.7415
7206400000		0.43855	165.6708
7231387500		0.43856	165.6217
7256375000		0.43925	165.5554
7281362500		0.43937	165.4965
7306350000		0.43932	165.4876
7331337500		0.43962	165.4452
7356325000		0.43942	165.4532
7381312500		0.43967	165.4285
7406300000		0.44023	165.3903
7431287500		0.4395	165.381
7456275000		0.43908	165.3656
7481262500		0.43932	165.2847
7506250000		0.43903	165.2122
7531237500		0.43907	165.1488
7556225000		0.43947	165.0557
7581212500		0.43997	164.9797
7606200000		0.43994	164.9521
7631187500		0.43988	164.8973
7656175000		0.44027	164.7815
7681162500		0.44071	164.7991
7706150000		0.44155	164.7913
7731137500		0.44128	164.8415
7756125000		0.44037	164.8137
7781112500		0.44058	164.7716
7806100000		0.44041	164.7363
7831087500		0.44051	164.7102
7856075000		0.44051	164.6657
7881062500		0.43988	164.6277
7906050000		0.44013	164.4882
7931037500		0.44052	164.382
7956025000		0.44084	164.3427
7981012500		0.44156	164.2952
8006000000		0.44118	164.2478
8030987500		0.44084	164.1957
8055975000		0.44197	164.0899
8080962500		0.44266	164.084
8105950000		0.44224	164.1714
8130937500		0.44192	164.1886
8155925000		0.44142	164.1541
8180912500		0.44184	164.022
8205900000		0.44233	163.9839
8230887500		0.44191	164.0284
8255875000		0.44178	163.9521
8280862500		0.4417	163.8739
8305850000		0.44185	163.7479
8330837500		0.44232	163.6477
8355825000		0.44271	163.61
8380812500		0.44289	163.5617
8405800000		0.44253	163.5308
8430787500		0.44296	163.4335
8455775000		0.44381	163.4148
8480762500		0.44434	163.4305
8505750000		0.44409	163.4727
8530737500		0.44332	163.4642
8555725000		0.44358	163.3971
8580712500		0.44396	163.3076
8605700000		0.44403	163.3092
8630687500		0.44407	163.2973
8655675000		0.44365	163.232
8680662500		0.44333	163.1439
8705650000		0.44378	163.0167
8730637500		0.44427	162.9079
8755625000		0.44429	162.88
8780612500		0.44427	162.8046
8805600000		0.44418	162.8168
8830587500		0.44472	162.7523
8855575000		0.44582	162.7077
8880562500		0.44548	162.748
8905550000		0.44519	162.7536
8930537500		0.44564	162.7232
8955525000		0.4456	162.6727
8980512500		0.44534	162.6283
9005500000		0.44539	162.5685
9030487500		0.44551	162.4606
9055475000		0.44556	162.427
9080462500		0.44502	162.3647
9105450000		0.44577	162.2217
9130437500		0.44601	162.1058
9155425000		0.44592	162.054
9180412500		0.44654	162.039
9205400000		0.4471	162.0169
9230387500		0.44678	162.0347
9255375000		0.447	161.9828
9280362500		0.44748	161.9237
9305350000		0.44747	161.9589
9330337500		0.44749	161.994
9355325000		0.44797	161.9115
9380312500		0.44743	161.8494
9405300000		0.44682	161.7976
9430287500		0.44748	161.7391
9455275000		0.44777	161.6994
9480262500		0.44702	161.6439
9505250000		0.4473	161.5299
9530237500		0.44772	161.3766
9555225000		0.44734	161.3609
9580212500		0.44753	161.3773
9605200000		0.44871	161.2537
9630187500		0.44899	161.1532
9655175000		0.44855	161.2106
9680162500		0.44946	161.1736
9705150000		0.45036	161.0963
9730137500		0.44924	161.1812
9755125000		0.4489	161.1778
9780112500		0.44987	161.0253
9805100000		0.4493	161.0205
9830087500		0.44861	161.088
9855075000		0.44903	160.9491
9880062500		0.44856	160.8186
9905050000		0.44844	160.749
9930037500		0.44927	160.66
9955025000		0.44927	160.644
9980012500		0.449	160.6547
10005000000		0.44978	160.5076
10029987500		0.45084	160.443
10054975000		0.45098	160.498
10079962500		0.45098	160.4957
10104950000		0.45139	160.4697
10129937500		0.45122	160.3892
10154925000		0.45067	160.3928
10179912500		0.45142	160.352
10204900000		0.45178	160.3121
10229887500		0.45037	160.3253
10254875000		0.45031	160.1828
10279862500		0.45162	159.9875
10304850000		0.45208	159.9433
10329837500		0.4513	160.075
10354825000		0.45186	159.9552
10379812500		0.45213	159.8336
10404800000		0.45233	159.7876
10429787500		0.45365	159.7543
10454775000		0.4538	159.8147
10479762500		0.45274	159.8664
10504750000		0.45297	159.7646
10529737500		0.45356	159.6526
10554725000		0.45391	159.6427
10579712500		0.45354	159.7482
10604700000		0.45284	159.7024
10629687500		0.45258	159.5294
10654675000		0.4529	159.4155
10679662500		0.45391	159.3377
10704650000		0.45468	159.3116
10729637500		0.45371	159.3408
10754625000		0.45358	159.2106
10779612500		0.45455	159.05
10804600000		0.45549	159.0481
10829587500		0.45622	159.1333
10854575000		0.45606	159.1406
10879562500		0.45517	159.1525
10904550000		0.45548	159.0548
10929537500		0.45611	158.9696
10954525000		0.45604	159.0139
10979512500		0.45532	159.0768
11004500000		0.45467	158.921
11029487500		0.45454	158.79
11054475000		0.45548	158.6311
11079462500		0.45655	158.604
11104450000		0.45652	158.6128
11129437500		0.45615	158.5493
11154425000		0.45736	158.3947
11179412500		0.45818	158.3823
11204400000		0.45811	158.4258
11229387500		0.45835	158.475
11254375000		0.45802	158.4168
11279362500		0.45778	158.4197
11304350000		0.45785	158.3599
11329337500		0.45824	158.3051
11354325000		0.45801	158.2442
11379312500		0.45708	158.271
11404300000		0.45792	158.1016
11429287500		0.45849	157.971
11454275000		0.45792	157.9924
11479262500		0.45885	157.9198
11504250000		0.45928	157.808
11529237500		0.45893	157.8744
11554225000		0.45957	157.8626
11579212500		0.4608	157.6967
11604200000		0.46021	157.7492
11629187500		0.45971	157.7256
11654175000		0.46041	157.6794
11679162500		0.46051	157.6105
11704150000		0.45962	157.6279
11729137500		0.45988	157.5385
11754125000		0.46098	157.3365
11779112500		0.46061	157.4107
11804100000		0.46029	157.4685
11829087500		0.46111	157.263
11854075000		0.46066	157.2439
11879062500		0.46046	157.2334
11904050000		0.46215	157.0935
11929037500		0.46229	157.0991
11954025000		0.46148	157.1956
11979012500		0.46173	157.1437
12004000000		0.4624	156.979
12028987500		0.46214	157.0091
12053975000		0.46239	157.0691
12078962500		0.46281	156.9297
12103950000		0.46226	156.9012
12128937500		0.46186	156.881
12153925000		0.46331	156.7447
12178912500		0.46364	156.7039
12203900000		0.4626	156.7193
12228887500		0.46263	156.5834
12253875000		0.464	156.3638
12278862500		0.46424	156.3803
12303850000		0.46385	156.5373
12328837500		0.46432	156.4635
12353825000		0.46442	156.3454
12378812500		0.46378	156.3664
12403800000		0.46489	156.3016
12428787500		0.46551	156.3028
12453775000		0.46439	156.4403
12478762500		0.46486	156.2121
12503750000		0.46526	156.0369
12528737500		0.46512	156.0606
12553725000		0.46543	156.1147
12578712500		0.46525	156.0042
12603700000		0.4649	155.9407
12628687500		0.46569	155.8266
12653675000		0.46695	155.7349
12678662500		0.46735	155.8103
12703650000		0.46646	155.8632
12728637500		0.46618	155.7801
12753625000		0.46647	155.6836
12778612500		0.46659	155.6956
12803600000		0.46644	155.7513
12828587500		0.46634	155.6396
12853575000		0.46624	155.4924
12878562500		0.46628	155.3936
12903550000		0.46725	155.317
12928537500		0.46802	155.3214
12953525000		0.46774	155.3588
12978512500		0.46774	155.2516
13003500000		0.46836	155.1264
13028487500		0.46896	155.1664
13053475000		0.46902	155.2672
13078462500		0.46833	155.2237
13103450000		0.4678	155.1619
13128437500		0.46923	154.9129
13153425000		0.46946	154.8977
13178412500		0.46824	155.0833
13203400000		0.46875	154.8962
13228387500		0.46895	154.6975
13253375000		0.46927	154.6045
13278362500		0.47098	154.602
13303350000		0.47146	154.6245
13328337500		0.47045	154.6761
13353325000		0.46986	154.6017
13378312500		0.47071	154.5297
13403300000		0.47158	154.5539
13428287500		0.47132	154.6138
13453275000		0.47031	154.6479
13478262500		0.46994	154.4718
13503250000		0.47061	154.3328
13528237500		0.47152	154.3212
13553225000		0.47205	154.2172
13578212500		0.47129	154.2455
13603200000		0.47095	154.1287
13628187500		0.47278	153.8927
13653175000		0.4736	153.7732
13678162500		0.47342	153.9393
13703150000		0.47421	153.8854
13728137500		0.4744	153.6343
13753125000		0.47386	153.6745
13778112500		0.47418	153.8399
13803100000		0.47503	153.7209
13828087500		0.4736	153.8327
13853075000		0.47317	153.757
13878062500		0.47443	153.6211
13903050000		0.4747	153.6041
13928037500		0.4743	153.5979
13953025000		0.47385	153.5618
13978012500		0.47395	153.3548
14003000000		0.47466	153.2428
14027987500		0.47539	153.1814
14052975000		0.47599	153.1592
14077962500		0.47594	153.1166
14102950000		0.47555	153.1173
14127937500		0.47643	153.0812
14152925000		0.47745	153.0093
14177912500		0.47707	153.1415
14202900000		0.47701	153.0906
14227887500		0.47702	153.0726
14252875000		0.47683	153.0928
14277862500		0.47722	153.096
14302850000		0.47703	152.9863
14327837500		0.47615	152.93
14352825000		0.47665	152.7756
14377812500		0.47796	152.6327
14402800000		0.47848	152.6385
14427787500		0.47803	152.6617
14452775000		0.47764	152.6091
14477762500		0.47848	152.4797
14502750000		0.47958	152.4057
14527737500		0.47971	152.5525
14552725000		0.47946	152.5956
14577712500		0.47904	152.5434
14602700000		0.47929	152.4441
14627687500		0.47969	152.4295
14652675000		0.48026	152.4532
14677662500		0.47976	152.4106
14702650000		0.47892	152.32
14727637500		0.47945	152.1137
14752625000		0.48099	152.0518
14777612500		0.48216	151.9884
14802600000		0.48124	152.0539
14827587500		0.48057	151.966
14852575000		0.48169	151.7196
14877562500		0.48283	151.6879
14902550000		0.48305	151.8703
14927537500		0.48282	151.9197
14952525000		0.48172	151.848
14977512500		0.48163	151.7294
15002500000		0.48319	151.676
15027487500		0.48431	151.694
15052475000		0.48359	151.7529
15077462500		0.48289	151.7069
15102450000		0.48325	151.4802
15127437500		0.48393	151.4097
15152425000		0.48457	151.4723
15177412500		0.48477	151.4064
15202400000		0.48402	151.2844
15227387500		0.48396	151.1447
15252375000		0.4855	151.0911
15277362500		0.48661	151.091
15302350000		0.48583	151.1551
15327337500		0.48581	151.1296
15352325000		0.48721	150.8667
15377312500		0.48772	150.8166
15402300000		0.48757	151.0808
15427287500		0.48779	151.074
15452275000		0.4867	151.0123
15477262500		0.48585	150.9145
15502250000		0.48705	150.6712
15527237500		0.48786	150.5776
15552225000		0.48715	150.5861
15577212500		0.48667	150.5726
15602200000		0.48779	150.3406
15627187500		0.4887	150.2181
15652175000		0.48962	150.2977
15677162500		0.49005	150.3246
15702150000		0.48987	150.3126
15727137500		0.49003	150.2519
15752125000		0.49083	150.282
15777112500		0.49123	150.2258
15802100000		0.49051	150.2196
15827087500		0.48925	150.2856
15852075000		0.48992	150.1082
15877062500		0.49024	149.9675
15902050000		0.49013	149.9827
15927037500		0.49003	149.9045
15952025000		0.48976	149.8604
15977012500		0.48995	149.7663
16002000000		0.49143	149.5682
16026987500		0.49176	149.4894
16051975000		0.49146	149.5362
16076962500		0.49154	149.5278
16101950000		0.49276	149.2859
16126937500		0.49343	149.3342
16151925000		0.49327	149.4326
16176912500		0.49295	149.4167
16201900000		0.49307	149.3082
16226887500		0.49376	149.2456
16251875000		0.49394	149.3734
16276862500		0.49364	149.3173
16301850000		0.49308	149.2064
16326837500		0.49269	149.1201
16351825000		0.49319	149.0601
16376812500		0.49445	148.9354
16401800000		0.49409	148.8957
16426787500		0.49336	148.8311
16451775000		0.4937	148.6088
16476762500		0.49518	148.5063
16501750000		0.49641	148.5825
16526737500		0.49677	148.5746
16551725000		0.49645	148.5921
16576712500		0.49663	148.5646
16601700000		0.4973	148.4615
16626687500		0.49773	148.6234
16651675000		0.49738	148.6125
16676662500		0.49608	148.4594
16701650000		0.4957	148.3579
16726637500		0.49692	148.1713
16751625000		0.49733	148.0939
16776612500		0.497	148.1181
16801600000		0.49707	147.9396
16826587500		0.49789	147.6525
16851575000		0.4987	147.7102
16876562500		0.50046	147.7617
16901550000		0.50106	147.7903
16926537500		0.50012	147.8929
16951525000		0.49996	147.8531
16976512500		0.50083	147.918
17001500000		0.50064	147.9339
17026487500		0.49919	147.9624
17051475000		0.49845	147.8182
17076462500		0.49905	147.4433
17101450000		0.4995	147.4203
17126437500		0.49968	147.4472
17151425000		0.49973	147.343
17176412500		0.49955	147.0893
17201400000		0.50094	146.9388
17226387500		0.5031	146.9423
17251375000		0.50382	147.0158
