! Infineon Technologies  Discrete & RF Semiconductors
! BAT24-02ELS
! IAC = 0.6 mA
! One-Port S-Parameters
# Hz  S  MA  R  50
!f									S11
!Hz							Mag  Ang
309850000		0.09778	-2.5506
334837500		0.09761	-4.7504
359825000		0.09864	-4.4494
384812500		0.09887	-4.7177
409800000		0.09706	-5.0721
434787500		0.09659	-5.9467
459775000		0.09919	-6.0136
484762500		0.09764	-5.986
509750000		0.09368	-8.1254
534737500		0.09428	-8.352
559725000		0.09485	-7.5026
584712500		0.09471	-8.9134
609700000		0.0951	-9.0564
634687500		0.0946	-9.784
659675000		0.09689	-10.0031
684662500		0.09731	-10.8002
709650000		0.1	-10.9787
734637500		0.09882	-11.7936
759625000		0.10067	-12.5441
784612500		0.10072	-12.2078
809600000		0.09859	-13.5284
834587500		0.09706	-14.5401
859575000		0.09945	-16.2213
884562500		0.09735	-14.7961
909550000		0.09769	-16.7966
934537500		0.10058	-17.2112
959525000		0.09865	-16.7285
984512500		0.10012	-17.961
1009500000		0.0985	-18.421
1034487500		0.097	-18.66
1059475000		0.10087	-19.6965
1084462500		0.09962	-18.7391
1109450000		0.1	-20.3217
1134437500		0.10189	-20.13
1159425000		0.09854	-21.4092
1184412500		0.10096	-22.0704
1209400000		0.09649	-21.4972
1234387500		0.09944	-23.4591
1259375000		0.09896	-22.8009
1284362500		0.09964	-23.3129
1309350000		0.10182	-23.7738
1334337500		0.10029	-24.3424
1359325000		0.10208	-24.9838
1384312500		0.10072	-25.2975
1409300000		0.09965	-25.2199
1434287500		0.10072	-26.6655
1459275000		0.09952	-26.3266
1484262500		0.10149	-27.0119
1509250000		0.10031	-26.7322
1534237500		0.09868	-28.4741
1559225000		0.09932	-28.4514
1584212500		0.0981	-29.0901
1609200000		0.09946	-28.8645
1634187500		0.09946	-29.7307
1659175000		0.10071	-29.7044
1684162500		0.10115	-30.521
1709150000		0.1043	-30.3319
1734137500		0.0996	-31.0359
1759125000		0.10102	-32.3392
1784112500		0.10223	-31.4619
1809100000		0.1002	-31.7972
1834087500		0.10009	-32.941
1859075000		0.10253	-32.9129
1884062500		0.10111	-33.7453
1909050000		0.10037	-33.9397
1934037500		0.09863	-35.0225
1959025000		0.10072	-35.7249
1984012500		0.09817	-35.2038
2009000000		0.10088	-36.8703
2033987500		0.10117	-35.799
2058975000		0.10029	-37.6895
2083962500		0.10335	-37.3369
2108950000		0.10297	-37.8089
2133937500		0.10292	-37.6618
2158925000		0.10323	-38.4
2183912500		0.10553	-38.4008
2208900000		0.10575	-38.3534
2233887500		0.10305	-39.1851
2258875000		0.10473	-40.8137
2283862500		0.10612	-39.7908
2308850000		0.10286	-41.192
2333837500		0.1053	-40.7755
2358825000		0.10506	-41.6242
2383812500		0.10539	-42.1442
2408800000		0.10467	-43.35
2433787500		0.10918	-42.8529
2458775000		0.1092	-42.3701
2483762500		0.10983	-43.7537
2508750000		0.1105	-42.8295
2533737500		0.11281	-43.3417
2558725000		0.112	-43.5465
2583712500		0.11359	-44.2796
2608700000		0.11405	-44.4203
2633687500		0.11234	-44.9298
2658675000		0.1117	-45.8731
2683662500		0.11404	-46.0336
2708650000		0.11455	-45.3704
2733637500		0.11495	-46.5108
2758625000		0.11418	-46.5245
2783612500		0.11514	-48.0752
2808600000		0.1152	-47.4516
2833587500		0.11483	-48.4376
2858575000		0.11696	-47.9606
2883562500		0.11487	-48.8948
2908550000		0.11697	-49.4991
2933537500		0.11812	-49.5658
2958525000		0.11659	-50.1244
2983512500		0.11675	-50.9119
3008500000		0.11368	-49.5967
3033487500		0.11573	-49.791
3058475000		0.11453	-50.1069
3083462500		0.11467	-51.6
3108450000		0.11737	-50.8788
3133437500		0.11532	-52.0872
3158425000		0.1159	-52.5772
3183412500		0.1166	-52.6298
3208400000		0.11827	-52.5784
3233387500		0.11897	-52.5904
3258375000		0.11905	-53.2263
3283362500		0.11976	-54.4236
3308350000		0.12141	-54.4694
3333337500		0.12108	-55.1248
3358325000		0.11988	-55.4094
3383312500		0.11924	-55.939
3408300000		0.12129	-56.1641
3433287500		0.11997	-56.583
3458275000		0.12131	-57.2833
3483262500		0.1214	-57.4898
3508250000		0.12186	-58.0552
3533237500		0.12021	-58.9049
3558225000		0.12091	-58.4346
3583212500		0.12075	-58.8074
3608200000		0.12256	-59.3505
3633187500		0.12422	-58.7926
3658175000		0.12402	-59.9423
3683162500		0.12333	-60.5503
3708150000		0.12543	-60.7882
3733137500		0.1233	-60.8336
3758125000		0.12441	-61.2173
3783112500		0.12454	-61.3754
3808100000		0.12632	-61.9165
3833087500		0.12629	-62.2079
3858075000		0.126	-63.4224
3883062500		0.12507	-63.2379
3908050000		0.12671	-63.4882
3933037500		0.1259	-64.2977
3958025000		0.126	-64.071
3983012500		0.12746	-64.1823
4008000000		0.12767	-65.4869
4032987500		0.12819	-65.5025
4057975000		0.12825	-65.9567
4082962500		0.1284	-65.7575
4107950000		0.12903	-66.805
4132937500		0.12973	-66.353
4157925000		0.13175	-66.5056
4182912500		0.13259	-66.8538
4207900000		0.13212	-67.4089
4232887500		0.13327	-67.5264
4257875000		0.13351	-68.0224
4282862500		0.13444	-67.6055
4307850000		0.13427	-68.2867
4332837500		0.13525	-68.7776
4357825000		0.13661	-68.4577
4382812500		0.13623	-69.3756
4407800000		0.13545	-69.5078
4432787500		0.13812	-69.9077
4457775000		0.1356	-69.9815
4482762500		0.13871	-70.0091
4507750000		0.13847	-70.8022
4532737500		0.13782	-72.0156
4557725000		0.14074	-70.998
4582712500		0.13798	-72.3113
4607700000		0.13813	-72.8738
4632687500		0.1396	-72.7052
4657675000		0.14	-73.182
4682662500		0.14282	-72.9385
4707650000		0.13994	-73.9218
4732637500		0.14033	-74.8351
4757625000		0.14166	-74.2413
4782612500		0.1396	-75.5389
4807600000		0.14244	-74.4628
4832587500		0.14064	-75.5631
4857575000		0.14444	-75.7144
4882562500		0.14313	-75.4832
4907550000		0.14254	-77.3603
4932537500		0.14478	-76.3657
4957525000		0.14364	-76.8025
4982512500		0.14299	-77.5336
5007500000		0.14548	-76.8581
5032487500		0.14564	-78.1542
5057475000		0.14756	-77.9484
5082462500		0.14535	-78.7557
5107450000		0.14657	-79.9211
5132437500		0.14566	-78.4504
5157425000		0.14739	-80.2053
5182412500		0.14864	-78.6362
5207400000		0.14971	-78.9753
5232387500		0.15042	-80.0292
5257375000		0.15166	-79.7748
5282362500		0.15201	-80.5516
5307350000		0.15089	-80.5262
5332337500		0.15135	-80.7914
5357325000		0.15235	-81.0722
5382312500		0.15231	-80.8741
5407300000		0.15354	-81.7535
5432287500		0.15448	-81.9659
5457275000		0.15463	-82.1141
5482262500		0.15439	-82.9906
5507250000		0.15438	-83.0053
5532237500		0.15546	-82.7886
5557225000		0.15502	-83.7377
5582212500		0.15677	-83.2573
5607200000		0.15713	-83.7111
5632187500		0.15836	-83.9997
5657175000		0.15722	-84.3165
5682162500		0.15747	-85.2824
5707150000		0.15877	-84.4139
5732137500		0.1571	-85.563
5757125000		0.15971	-85.9784
5782112500		0.15968	-85.0549
5807100000		0.15981	-86.4498
5832087500		0.16049	-85.994
5857075000		0.1597	-87.0219
5882062500		0.16246	-87.3828
5907050000		0.16054	-87.0459
5932037500		0.16252	-87.9996
5957025000		0.1634	-87.2752
5982012500		0.16172	-87.8029
6007000000		0.16531	-88.1838
6031987500		0.16389	-87.1534
6056975000		0.16587	-88.3329
6081962500		0.16627	-88.2292
6106950000		0.16459	-89.1275
6131937500		0.16779	-89.4782
6156925000		0.16338	-89.7422
6181912500		0.16718	-90.2601
6206900000		0.16783	-89.3267
6231887500		0.16655	-89.9562
6256875000		0.17154	-90.5241
6281862500		0.17113	-89.8795
6306850000		0.17167	-90.5649
6331837500		0.17095	-90.8458
6356825000		0.16977	-90.9824
6381812500		0.17238	-91.1337
6406800000		0.17115	-90.9641
6431787500		0.17418	-91.3936
6456775000		0.1744	-91.37
6481762500		0.17381	-92.1958
6506750000		0.17478	-92.6303
6531737500		0.17412	-93.0075
6556725000		0.172	-92.9817
6581712500		0.17452	-93.889
6606700000		0.17609	-93.0383
6631687500		0.17621	-93.7855
6656675000		0.17801	-94.2356
6681662500		0.17711	-94.3915
6706650000		0.17757	-94.6645
6731637500		0.17579	-94.7019
6756625000		0.17745	-94.8571
6781612500		0.17929	-94.6821
6806600000		0.17946	-94.3962
6831587500		0.18085	-95.7474
6856575000		0.18179	-95.2963
6881562500		0.17965	-96.3154
6906550000		0.18173	-96.572
6931537500		0.17985	-96.3262
6956525000		0.18161	-96.8359
6981512500		0.18344	-96.4382
7006500000		0.18519	-97.0688
7031487500		0.18566	-96.9432
7056475000		0.18487	-97.4998
7081462500		0.18604	-97.7585
7106450000		0.18713	-97.1456
7131437500		0.18659	-97.368
7156425000		0.18859	-97.5742
7181412500		0.1877	-97.8033
7206400000		0.18772	-98.8592
7231387500		0.18721	-99.0444
7256375000		0.18813	-99.491
7281362500		0.18812	-99.2697
7306350000		0.18924	-99.585
7331337500		0.19007	-99.6645
7356325000		0.18992	-100.2344
7381312500		0.19144	-100.4209
7406300000		0.19101	-100.9083
7431287500		0.19251	-101.0421
7456275000		0.19265	-100.8155
7481262500		0.19479	-100.7002
7506250000		0.19565	-100.8028
7531237500		0.19434	-101.068
7556225000		0.19534	-101.3052
7581212500		0.19482	-101.7356
7606200000		0.19622	-101.7399
7631187500		0.19754	-101.6906
7656175000		0.19617	-102.288
7681162500		0.1989	-102.546
7706150000		0.19712	-103.2727
7731137500		0.19858	-103.7928
7756125000		0.20064	-102.9836
7781112500		0.20037	-103.1434
7806100000		0.20251	-103.0272
7831087500		0.20247	-103.452
7856075000		0.20402	-103.5839
7881062500		0.20369	-103.7531
7906050000		0.20421	-104.0549
7931037500		0.20454	-103.8453
7956025000		0.20359	-104.2837
7981012500		0.20449	-104.6644
8006000000		0.20505	-104.8104
8030987500		0.20518	-105.2305
8055975000		0.20696	-105.2049
8080962500		0.20636	-106.0207
8105950000		0.20841	-106.1183
8130937500		0.20807	-105.9975
8155925000		0.20953	-106.0865
8180912500		0.20899	-105.8306
8205900000		0.20986	-106.4806
8230887500		0.21126	-106.8139
8255875000		0.2121	-106.676
8280862500		0.21178	-107.0834
8305850000		0.21053	-107.4564
8330837500		0.21092	-107.6366
8355825000		0.21112	-107.8239
8380812500		0.21114	-108.2229
8405800000		0.21268	-108.293
8430787500		0.21174	-108.8622
8455775000		0.21361	-109.1417
8480762500		0.21315	-109.4146
8505750000		0.21483	-109.7065
8530737500		0.21567	-109.0791
8555725000		0.21603	-109.4724
8580712500		0.21672	-109.251
8605700000		0.21735	-109.8194
8630687500		0.21831	-110.0308
8655675000		0.21896	-110.0288
8680662500		0.21793	-110.4525
8705650000		0.21897	-110.4331
8730637500		0.21725	-110.7538
8755625000		0.21904	-111.2476
8780612500		0.21859	-110.6288
8805600000		0.22025	-111.5985
8830587500		0.22162	-110.932
8855575000		0.22183	-111.8274
8880562500		0.22202	-112.3898
8905550000		0.22272	-111.9689
8930537500		0.22455	-112.166
8955525000		0.22421	-111.9953
8980512500		0.22505	-111.9892
9005500000		0.22564	-112.5492
9030487500		0.22518	-112.4928
9055475000		0.22579	-113.6181
9080462500		0.22589	-113.1633
9105450000		0.22587	-113.6378
9130437500		0.22536	-114.0567
9155425000		0.22379	-114.327
9180412500		0.22694	-114.3711
9205400000		0.22687	-114.5359
9230387500		0.22885	-114.7205
9255375000		0.2301	-114.7654
9280362500		0.22958	-115.2094
9305350000		0.22978	-115.4687
9330337500		0.23137	-115.2883
9355325000		0.23066	-115.3692
9380312500		0.23183	-115.7442
9405300000		0.23148	-115.7638
9430287500		0.23432	-115.9899
9455275000		0.23309	-116.8075
9480262500		0.23351	-116.76
9505250000		0.23344	-116.7079
9530237500		0.23246	-117.0716
9555225000		0.23336	-117.2186
9580212500		0.23531	-117.0551
9605200000		0.23702	-117.2491
9630187500		0.23523	-118.118
9655175000		0.23577	-118.4353
9680162500		0.23711	-118.3068
9705150000		0.23787	-118.4556
9730137500		0.23787	-118.5869
9755125000		0.24021	-117.9941
9780112500		0.24059	-118.7344
9805100000		0.2389	-119.3422
9830087500		0.24262	-119.0079
9855075000		0.24319	-118.8105
9880062500		0.24163	-119.0596
9905050000		0.2427	-119.101
9930037500		0.24219	-119.2959
9955025000		0.24503	-119.3942
9980012500		0.2457	-119.3246
10005000000		0.24614	-119.6846
10029987500		0.24556	-120.335
10054975000		0.24394	-121.0972
10079962500		0.24638	-121.0113
10104950000		0.24629	-120.9766
10129937500		0.24524	-121.5967
10154925000		0.24767	-121.4411
10179912500		0.2484	-121.4861
10204900000		0.24799	-122.244
10229887500		0.24782	-122.2554
10254875000		0.24889	-121.9207
10279862500		0.24987	-121.9351
10304850000		0.24799	-122.9313
10329837500		0.25115	-122.6524
10354825000		0.2525	-122.3089
10379812500		0.2508	-122.8357
10404800000		0.25231	-122.9931
10429787500		0.25222	-123.1536
10454775000		0.25399	-123.5848
10479762500		0.25563	-123.2326
10504750000		0.25472	-123.4401
10529737500		0.25493	-123.9647
10554725000		0.25425	-124.3023
10579712500		0.25711	-124.3055
10604700000		0.25798	-123.844
10629687500		0.25743	-123.9879
10654675000		0.25745	-124.5909
10679662500		0.25715	-124.8223
10704650000		0.25894	-125.2131
10729637500		0.25935	-124.9496
10754625000		0.25949	-124.6549
10779612500		0.25986	-125.1751
10804600000		0.25962	-125.4671
10829587500		0.26209	-125.8424
10854575000		0.26288	-125.9761
10879562500		0.26299	-125.9283
10904550000		0.26367	-126.026
10929537500		0.26392	-126.1604
10954525000		0.26464	-126.3517
10979512500		0.26689	-126.2381
11004500000		0.26674	-125.8636
11029487500		0.2675	-126.3097
11054475000		0.26707	-126.5042
11079462500		0.26697	-127.1141
11104450000		0.26699	-127.6543
11129437500		0.26651	-127.478
11154425000		0.26692	-127.8387
11179412500		0.26717	-128.4396
11204400000		0.26889	-128.2244
11229387500		0.27122	-128.4704
11254375000		0.27107	-128.173
11279362500		0.27101	-128.7304
11304350000		0.27247	-128.4516
11329337500		0.27213	-128.5593
11354325000		0.27333	-128.9493
11379312500		0.27445	-128.5118
11404300000		0.27568	-128.6347
11429287500		0.27496	-129.3232
11454275000		0.27484	-129.2687
11479262500		0.27707	-129.4746
11504250000		0.2766	-129.5902
11529237500		0.27616	-130.1642
11554225000		0.27883	-130.0226
11579212500		0.27632	-130.5385
11604200000		0.27784	-131.1084
11629187500		0.27866	-130.5534
11654175000		0.28082	-130.5758
11679162500		0.28125	-130.7842
11704150000		0.28121	-130.897
11729137500		0.28252	-130.8102
11754125000		0.28205	-131.3165
11779112500		0.28088	-131.6597
11804100000		0.28487	-131.2963
11829087500		0.2839	-131.2363
11854075000		0.28365	-132.1245
11879062500		0.28456	-131.9672
11904050000		0.28525	-132.3953
11929037500		0.28483	-132.8335
11954025000		0.28582	-132.7749
11979012500		0.28664	-132.3269
12004000000		0.28657	-133.0175
12028987500		0.28714	-133.1062
12053975000		0.29002	-132.9162
12078962500		0.29042	-133.0368
12103950000		0.28874	-133.4714
12128937500		0.29098	-133.2265
12153925000		0.29039	-133.4358
12178912500		0.28981	-133.9655
12203900000		0.29101	-134.1218
12228887500		0.2912	-133.9341
12253875000		0.29096	-134.7297
12278862500		0.29113	-135.0681
12303850000		0.29291	-134.8333
12328837500		0.29569	-134.5371
12353825000		0.29163	-134.9836
12378812500		0.2948	-135.0045
12403800000		0.29628	-134.6925
12428787500		0.29717	-135.3211
12453775000		0.29957	-135.0374
12478762500		0.29738	-135.2642
12503750000		0.29609	-136.1483
12528737500		0.29684	-135.9679
12553725000		0.29879	-135.5772
12578712500		0.3015	-135.6403
12603700000		0.29865	-136.0239
12628687500		0.29984	-136.6922
12653675000		0.29941	-137.1851
12678662500		0.29988	-137.5293
12703650000		0.30198	-137.0526
12728637500		0.30177	-136.7485
12753625000		0.3039	-136.6804
12778612500		0.30481	-136.7563
12803600000		0.30685	-136.6863
12828587500		0.30791	-136.696
12853575000		0.30523	-137.1955
12878562500		0.30604	-137.2693
12903550000		0.30744	-137.2403
12928537500		0.30679	-137.7258
12953525000		0.30791	-137.8616
12978512500		0.30839	-137.8987
13003500000		0.30817	-138.382
13028487500		0.31008	-138.594
13053475000		0.31168	-138.4925
13078462500		0.31169	-138.5316
13103450000		0.3121	-138.489
13128437500		0.31161	-138.6106
13153425000		0.31174	-139.2101
13178412500		0.31413	-138.6164
13203400000		0.31603	-138.4759
13228387500		0.31445	-139.0508
13253375000		0.31349	-139.2686
13278362500		0.31565	-139.7194
13303350000		0.31538	-139.9298
13328337500		0.31618	-139.9508
13353325000		0.31751	-139.7952
13378312500		0.31712	-139.9985
13403300000		0.31898	-140.3954
13428287500		0.31931	-140.4177
13453275000		0.32084	-140.2661
13478262500		0.32203	-139.925
13503250000		0.3199	-140.3491
13528237500		0.32216	-140.618
13553225000		0.32193	-140.5639
13578212500		0.32195	-140.9323
13603200000		0.32394	-140.5324
13628187500		0.32148	-141.3613
13653175000		0.32115	-142.228
13678162500		0.32236	-142.2036
13703150000		0.32246	-142.4245
13728137500		0.3206	-143.1573
13753125000		0.32059	-143.1592
13778112500		0.32584	-142.5788
13803100000		0.32607	-142.6128
13828087500		0.32741	-142.7209
13853075000		0.32891	-142.2882
13878062500		0.3282	-142.6396
13903050000		0.32928	-142.8557
13928037500		0.33089	-142.4533
13953025000		0.33185	-142.415
13978012500		0.33118	-142.7623
14003000000		0.32968	-143.5458
14027987500		0.33065	-143.8984
14052975000		0.33142	-143.9881
14077962500		0.3304	-144.4895
14102950000		0.33092	-144.2846
14127937500		0.33274	-144.2902
14152925000		0.33296	-144.7016
14177912500		0.33421	-144.7476
14202900000		0.33596	-144.4829
14227887500		0.33615	-144.6957
14252875000		0.33848	-144.4698
14277862500		0.34009	-144.1688
14302850000		0.34021	-144.4928
14327837500		0.33868	-144.5986
14352825000		0.33933	-144.8187
14377812500		0.33964	-145.1895
14402800000		0.34018	-145.5077
14427787500		0.3413	-145.5822
14452775000		0.34159	-145.4071
14477762500		0.34067	-145.9198
14502750000		0.34164	-146.1704
14527737500		0.34374	-146.0681
14552725000		0.34673	-145.8318
14577712500		0.34596	-145.8278
14602700000		0.34577	-146.2138
14627687500		0.34764	-146.1637
14652675000		0.34827	-146.2326
14677662500		0.34908	-146.3204
14702650000		0.34807	-146.3662
14727637500		0.34762	-146.7774
14752625000		0.34774	-147.2435
14777612500		0.34837	-147.5629
14802600000		0.34942	-147.5292
14827587500		0.34942	-147.3725
14852575000		0.349	-147.799
14877562500		0.34974	-148.309
14902550000		0.35176	-148.1505
14927537500		0.35435	-147.9972
14952525000		0.35269	-148.0138
14977512500		0.35353	-148.0649
15002500000		0.35403	-148.3124
15027487500		0.35475	-148.7918
15052475000		0.35684	-148.6056
15077462500		0.35581	-148.6141
15102450000		0.3552	-148.9947
15127437500		0.35483	-149.4548
15152425000		0.35563	-149.6162
15177412500		0.35653	-149.5827
15202400000		0.35587	-149.7519
15227387500		0.35539	-149.9623
15252375000		0.3576	-150.0853
15277362500		0.35786	-150.5315
15302350000		0.3595	-150.3498
15327337500		0.35979	-150.265
15352325000		0.35812	-150.8467
15377312500		0.35826	-151.2583
15402300000		0.36155	-151.1062
15427287500		0.36282	-150.8148
15452275000		0.36211	-151.1366
15477262500		0.36106	-151.2101
15502250000		0.3618	-151.4042
15527237500		0.36074	-151.92
15552225000		0.3621	-151.8826
15577212500		0.36351	-151.4321
15602200000		0.3632	-151.9603
15627187500		0.36272	-152.4367
15652175000		0.36442	-152.6839
15677162500		0.36528	-152.5892
15702150000		0.36603	-152.7657
15727137500		0.36541	-152.9028
15752125000		0.36724	-153.0397
15777112500		0.3682	-153.1723
15802100000		0.36675	-153.5043
15827087500		0.368	-153.1963
15852075000		0.36761	-153.4627
15877062500		0.36725	-153.7234
15902050000		0.3692	-153.6075
15927037500		0.36966	-153.5661
15952025000		0.36951	-153.7242
15977012500		0.37038	-153.6591
16002000000		0.37079	-154.0487
16026987500		0.37169	-154.3373
16051975000		0.37113	-154.4648
16076962500		0.37288	-154.4552
16101950000		0.37236	-154.8149
16126937500		0.37281	-155.1922
16151925000		0.37369	-155.0254
16176912500		0.37443	-155.0772
16201900000		0.37427	-155.3287
16226887500		0.37446	-155.5481
16251875000		0.37601	-155.5659
16276862500		0.37803	-155.4081
16301850000		0.37654	-155.5541
16326837500		0.37702	-155.6997
16351825000		0.3777	-155.5907
16376812500		0.37883	-155.98
16401800000		0.37855	-155.9864
16426787500		0.37829	-156.1982
16451775000		0.3776	-156.5184
16476762500		0.3783	-156.8464
16501750000		0.38031	-157.051
16526737500		0.3806	-157.1684
16551725000		0.38028	-157.2793
16576712500		0.38077	-157.4229
16601700000		0.38188	-157.4678
16626687500		0.38437	-157.509
16651675000		0.38503	-157.344
16676662500		0.38421	-157.4818
16701650000		0.38376	-157.5574
16726637500		0.38374	-157.8191
16751625000		0.38503	-158.0095
16776612500		0.38567	-157.9106
16801600000		0.38556	-158.128
16826587500		0.38437	-158.7093
16851575000		0.3858	-158.951
16876562500		0.38811	-158.9238
16901550000		0.38867	-159.1224
16926537500		0.38868	-159.169
16951525000		0.38998	-158.9852
16976512500		0.39235	-158.9527
