! Infineon Technologies  Discrete & RF Semiconductors
! BAT24-02ELS
! IAC = 30 mA
! One-Port S-Parameters
# Hz  S  MA  R  50
!f									S11
!Hz							Mag  Ang
309850000		0.73353	178.8788
334837500		0.7333	178.8309
359825000		0.73293	178.7698
384812500		0.73283	178.6487
409800000		0.73271	178.5743
434787500		0.73266	178.5304
459775000		0.73271	178.497
484762500		0.73259	178.377
509750000		0.73215	178.3414
534737500		0.73253	178.2049
559725000		0.73214	178.1901
584712500		0.7319	178.1292
609700000		0.73198	178.0586
634687500		0.7314	177.9443
659675000		0.73131	177.8944
684662500		0.73129	177.8109
709650000		0.73096	177.7883
734637500		0.73117	177.6979
759625000		0.73106	177.6171
784612500		0.73105	177.553
809600000		0.73118	177.4894
834587500		0.73125	177.4151
859575000		0.73126	177.3394
884562500		0.73104	177.2645
909550000		0.73095	177.1902
934537500		0.73077	177.1134
959525000		0.73054	177.0376
984512500		0.73041	176.9673
1009500000		0.73026	176.8921
1034487500		0.73003	176.8301
1059475000		0.72995	176.7577
1084462500		0.72975	176.6965
1109450000		0.72982	176.6473
1134437500		0.73006	176.5826
1159425000		0.73027	176.5129
1184412500		0.7302	176.4347
1209400000		0.73026	176.3535
1234387500		0.73018	176.2569
1259375000		0.73002	176.1813
1284362500		0.72992	176.1323
1309350000		0.7298	176.0764
1334337500		0.72952	175.9899
1359325000		0.72934	175.9129
1384312500		0.72941	175.8341
1409300000		0.72916	175.7625
1434287500		0.72895	175.7326
1459275000		0.72888	175.6675
1484262500		0.7287	175.6001
1509250000		0.72902	175.5391
1534237500		0.72948	175.4615
1559225000		0.72955	175.3977
1584212500		0.72966	175.3302
1609200000		0.72968	175.2236
1634187500		0.72938	175.1173
1659175000		0.7291	175.0601
1684162500		0.72918	175.0148
1709150000		0.72896	174.947
1734137500		0.72854	174.876
1759125000		0.72844	174.7969
1784112500		0.72825	174.7074
1809100000		0.7279	174.6543
1834087500		0.72785	174.6211
1859075000		0.72781	174.5276
1884062500		0.7277	174.4985
1909050000		0.72802	174.4384
1934037500		0.72851	174.3685
1959025000		0.72872	174.2919
1984012500		0.72878	174.2317
2009000000		0.72886	174.1462
2033987500		0.72862	174.0427
2058975000		0.7282	174.0036
2083962500		0.72843	173.9134
2108950000		0.72821	173.8333
2133937500		0.72774	173.7719
2158925000		0.72766	173.7121
2183912500		0.72765	173.6061
2208900000		0.72739	173.5021
2233887500		0.72738	173.4911
2258875000		0.72741	173.4268
2283862500		0.72714	173.3782
2308850000		0.72736	173.3138
2333837500		0.72743	173.2576
2358825000		0.72767	173.1678
2383812500		0.72785	173.1116
2408800000		0.72767	173.0426
2433787500		0.72747	172.9278
2458775000		0.72726	172.8767
2483762500		0.72735	172.8002
2508750000		0.72729	172.7357
2533737500		0.72705	172.6804
2558725000		0.72687	172.6059
2583712500		0.72683	172.502
2608700000		0.72684	172.3817
2633687500		0.72677	172.3597
2658675000		0.72652	172.3205
2683662500		0.7261	172.3048
2708650000		0.72623	172.1812
2733637500		0.72624	172.0743
2758625000		0.72634	172.0531
2783612500		0.72644	172.0104
2808600000		0.72632	171.9292
2833587500		0.72628	171.8775
2858575000		0.72604	171.8273
2883562500		0.72627	171.7253
2908550000		0.72634	171.6717
2933537500		0.72632	171.5789
2958525000		0.72591	171.5666
2983512500		0.72611	171.4253
3008500000		0.7261	171.3604
3033487500		0.72609	171.3108
3058475000		0.72609	171.252
3083462500		0.72587	171.17
3108450000		0.72576	171.0766
3133437500		0.72574	171.0097
3158425000		0.72586	170.9661
3183412500		0.72567	170.9296
3208400000		0.72551	170.826
3233387500		0.72542	170.7575
3258375000		0.72557	170.6781
3283362500		0.7255	170.6204
3308350000		0.72541	170.5642
3333337500		0.72516	170.4959
3358325000		0.72509	170.4211
3383312500		0.72515	170.3577
3408300000		0.72523	170.296
3433287500		0.7251	170.2402
3458275000		0.72508	170.1793
3483262500		0.72518	170.0979
3508250000		0.72519	170.0198
3533237500		0.72526	169.9344
3558225000		0.72519	169.9006
3583212500		0.72503	169.8551
3608200000		0.72496	169.743
3633187500		0.72489	169.6844
3658175000		0.72503	169.6205
3683162500		0.72485	169.5495
3708150000		0.72474	169.4572
3733137500		0.72454	169.4536
3758125000		0.72457	169.3645
3783112500		0.72445	169.2828
3808100000		0.72446	169.2359
3833087500		0.72452	169.1659
3858075000		0.72444	169.0985
3883062500		0.72446	169.0387
3908050000		0.7245	168.9748
3933037500		0.72441	168.9168
3958025000		0.72452	168.8556
3983012500		0.72461	168.7749
4008000000		0.72452	168.7032
4032987500		0.7244	168.6539
4057975000		0.72454	168.5758
4082962500		0.72442	168.4848
4107950000		0.72423	168.4233
4132937500		0.72434	168.369
4157925000		0.72428	168.2935
4182912500		0.72402	168.2225
4207900000		0.72395	168.1641
4232887500		0.72413	168.101
4257875000		0.724	168.0382
4282862500		0.72377	167.9877
4307850000		0.72383	167.9265
4332837500		0.72376	167.8394
4357825000		0.72372	167.7826
4382812500		0.72387	167.735
4407800000		0.72377	167.6641
4432787500		0.72353	167.5946
4457775000		0.72364	167.5256
4482762500		0.72375	167.4532
4507750000		0.72372	167.4039
4532737500		0.72377	167.3493
4557725000		0.72363	167.2626
4582712500		0.7234	167.1959
4607700000		0.72357	167.1599
4632687500		0.72378	167.1051
4657675000		0.72352	167.0351
4682662500		0.7232	166.9647
4707650000		0.72317	166.8868
4732637500		0.7233	166.8168
4757625000		0.72331	166.7598
4782612500		0.7231	166.7087
4807600000		0.72297	166.6368
4832587500		0.72302	166.547
4857575000		0.72301	166.4776
4882562500		0.72318	166.4457
4907550000		0.72329	166.4002
4932537500		0.7231	166.3221
4957525000		0.72288	166.2561
4982512500		0.72305	166.2022
5007500000		0.72331	166.1513
5032487500		0.72317	166.0926
5057475000		0.72288	166.0252
5082462500		0.72284	165.9552
5107450000		0.723	165.8705
5132437500		0.72299	165.804
5157425000		0.72284	165.761
5182412500		0.72283	165.6977
5207400000		0.72272	165.6056
5232387500		0.72266	165.5353
5257375000		0.72269	165.4875
5282362500		0.72279	165.4357
5307350000		0.7227	165.3697
5332337500		0.72261	165.2994
5357325000		0.7226	165.2397
5382312500		0.72274	165.1866
5407300000		0.72269	165.1332
5432287500		0.7226	165.0722
5457275000		0.72247	165.0092
5482262500		0.72259	164.9478
5507250000		0.72266	164.8771
5532237500		0.72249	164.802
5557225000		0.72226	164.7527
5582212500		0.72256	164.6964
5607200000		0.72261	164.6104
5632187500		0.72216	164.5427
5657175000		0.72214	164.4955
5682162500		0.72246	164.4163
5707150000		0.72251	164.3367
5732137500		0.72238	164.3052
5757125000		0.72243	164.2732
5782112500		0.72249	164.1927
5807100000		0.72234	164.1118
5832087500		0.72241	164.059
5857075000		0.72263	164.0129
5882062500		0.72259	163.9595
5907050000		0.72219	163.8834
5932037500		0.72207	163.8103
5957025000		0.72226	163.7275
5982012500		0.72231	163.6597
6007000000		0.72213	163.6134
6031987500		0.7221	163.544
6056975000		0.72211	163.4373
6081962500		0.7222	163.3733
6106950000		0.7225	163.339
6131937500		0.72251	163.3127
6156925000		0.72231	163.2745
6181912500		0.72236	163.1908
6206900000		0.72222	163.1048
6231887500		0.72216	163.0773
6256875000		0.72242	163.0523
6281862500		0.7222	162.9586
6306850000		0.72153	162.8649
6331837500		0.72161	162.7987
6356825000		0.7221	162.7149
6381812500		0.72192	162.6412
6406800000		0.72161	162.6029
6431787500		0.72175	162.5249
6456775000		0.72191	162.4265
6481762500		0.72199	162.3808
6506750000		0.72223	162.3575
6531737500		0.7222	162.3111
6556725000		0.722	162.255
6581712500		0.72207	162.1975
6606700000		0.72212	162.1356
6631687500		0.72202	162.0961
6656675000		0.72188	162.041
6681662500		0.72178	161.9652
6706650000		0.72181	161.8871
6731637500		0.72196	161.8173
6756625000		0.72187	161.741
6781612500		0.72162	161.6737
6806600000		0.72168	161.6045
6831587500		0.72201	161.529
6856575000		0.72218	161.464
6881562500		0.722	161.4179
6906550000		0.72178	161.3771
6931537500		0.72187	161.3263
6956525000		0.72204	161.266
6981512500		0.72213	161.2221
7006500000		0.72206	161.1918
7031487500		0.72201	161.138
7056475000		0.72186	161.0574
7081462500		0.72188	160.9867
7106450000		0.72186	160.9259
7131437500		0.72172	160.8631
7156425000		0.72161	160.786
7181412500		0.72144	160.6906
7206400000		0.72154	160.6223
7231387500		0.72194	160.5604
7256375000		0.72204	160.4811
7281362500		0.72188	160.431
7306350000		0.7221	160.3889
7331337500		0.72234	160.3275
7356325000		0.72226	160.2973
7381312500		0.72243	160.2763
7406300000		0.72243	160.2092
7431287500		0.72214	160.1448
7456275000		0.72205	160.1009
7481262500		0.72208	160.0273
7506250000		0.72182	159.9353
7531237500		0.72181	159.8564
7556225000		0.72196	159.7644
7581212500		0.72192	159.6916
7606200000		0.72196	159.6386
7631187500		0.72215	159.5615
7656175000		0.72213	159.4856
7681162500		0.72239	159.4499
7706150000		0.72274	159.4413
7731137500		0.72284	159.4146
7756125000		0.72247	159.3633
7781112500		0.72221	159.3041
7806100000		0.72239	159.2441
7831087500		0.72243	159.1787
7856075000		0.7219	159.1381
7881062500		0.72176	159.0762
7906050000		0.72175	158.9454
7931037500		0.72184	158.8374
7956025000		0.72218	158.785
7981012500		0.72233	158.7288
8006000000		0.72193	158.6566
8030987500		0.72181	158.5853
8055975000		0.72238	158.5108
8080962500		0.72293	158.4733
8105950000		0.72279	158.4745
8130937500		0.72236	158.47
8155925000		0.72215	158.402
8180912500		0.72217	158.3072
8205900000		0.72231	158.2534
8230887500		0.72232	158.224
8255875000		0.72189	158.1593
8280862500		0.72145	158.0634
8305850000		0.7216	157.9522
8330837500		0.72193	157.8547
8355825000		0.72191	157.8055
8380812500		0.72184	157.7704
8405800000		0.72189	157.6771
8430787500		0.72184	157.5925
8455775000		0.72237	157.5743
8480762500		0.72288	157.5612
8505750000		0.7226	157.5352
8530737500		0.72215	157.5083
8555725000		0.72229	157.4416
8580712500		0.72251	157.3593
8605700000		0.72244	157.3162
8630687500		0.72224	157.2778
8655675000		0.722	157.1997
8680662500		0.72188	157.0889
8705650000		0.72186	156.9847
8730637500		0.72207	156.8978
8755625000		0.72219	156.8241
8780612500		0.72216	156.7635
8805600000		0.72233	156.7135
8830587500		0.72269	156.6655
8855575000		0.72281	156.6311
8880562500		0.72283	156.6084
8905550000		0.72292	156.5807
8930537500		0.72286	156.5414
8955525000		0.72278	156.4903
8980512500		0.72264	156.4211
9005500000		0.72249	156.3353
9030487500		0.72234	156.2463
9055475000		0.72225	156.176
9080462500		0.72231	156.0893
9105450000		0.7222	155.9732
9130437500		0.72205	155.8745
9155425000		0.72245	155.8051
9180412500		0.72302	155.7617
9205400000		0.72301	155.7391
9230387500		0.72283	155.7102
9255375000		0.72287	155.6504
9280362500		0.72298	155.5928
9305350000		0.72317	155.5849
9330337500		0.72336	155.5758
9355325000		0.72295	155.5193
9380312500		0.72242	155.4304
9405300000		0.72248	155.3464
9430287500		0.72286	155.273
9455275000		0.72292	155.2044
9480262500		0.72249	155.132
9505250000		0.72223	155.0279
9530237500		0.72235	154.9081
9555225000		0.72266	154.8362
9580212500		0.7231	154.8134
9605200000		0.72317	154.7517
9630187500		0.72264	154.6848
9655175000		0.72296	154.653
9680162500		0.72387	154.6048
9705150000		0.72376	154.5681
9730137500		0.72327	154.5756
9755125000		0.72331	154.5166
9780112500		0.7233	154.398
9805100000		0.72308	154.342
9830087500		0.72324	154.3042
9855075000		0.723	154.219
9880062500		0.72254	154.0996
9905050000		0.7226	153.9902
9930037500		0.7231	153.9204
9955025000		0.72327	153.874
9980012500		0.72299	153.8239
10005000000		0.72294	153.7609
10029987500		0.72338	153.698
10054975000		0.72361	153.6671
10079962500		0.72352	153.6746
10104950000		0.72335	153.6413
10129937500		0.72308	153.5542
10154925000		0.72313	153.4941
10179912500		0.72344	153.4543
10204900000		0.72316	153.4183
10229887500		0.72271	153.3586
10254875000		0.72283	153.2288
10279862500		0.7231	153.0866
10304850000		0.72338	153.0552
10329837500		0.72386	153.0588
10354825000		0.72364	152.9764
10379812500		0.72327	152.8675
10404800000		0.72383	152.8128
10429787500		0.7246	152.796
10454775000		0.72462	152.8129
10479762500		0.72411	152.7911
10504750000		0.72392	152.6968
10529737500		0.72426	152.5988
10554725000		0.72452	152.5636
10579712500		0.72453	152.5745
10604700000		0.72406	152.5135
10629687500		0.72343	152.3711
10654675000		0.72364	152.2489
10679662500		0.72455	152.1914
10704650000		0.72486	152.1491
10729637500		0.72436	152.1302
10754625000		0.72413	152.0015
10779612500		0.72444	151.8963
10804600000		0.72548	151.8944
10829587500		0.72615	151.9088
10854575000		0.72553	151.9027
10879562500		0.72487	151.8599
10904550000		0.72542	151.7673
10929537500		0.72578	151.673
10954525000		0.72559	151.6683
10979512500		0.72526	151.6572
11004500000		0.72477	151.5299
11029487500		0.72454	151.3751
11054475000		0.72514	151.2857
11079462500		0.7257	151.2325
11104450000		0.7255	151.2018
11129437500		0.72535	151.1436
11154425000		0.72581	151.0533
11179412500		0.72638	151.0029
11204400000		0.72659	151.0194
11229387500		0.72656	151.034
11254375000		0.72619	150.9844
11279362500		0.72585	150.9139
11304350000		0.72617	150.8438
11329337500		0.72644	150.7596
11354325000		0.72592	150.7124
11379312500		0.72598	150.6577
11404300000		0.72635	150.5197
11429287500		0.72608	150.4093
11454275000		0.72613	150.3858
11479262500		0.72683	150.336
11504250000		0.7267	150.2492
11529237500		0.72651	150.2294
11554225000		0.72712	150.2219
11579212500		0.72735	150.1432
11604200000		0.72682	150.0852
11629187500		0.72694	150.0714
11654175000		0.72735	150.0185
11679162500		0.72696	149.9339
11704150000		0.72643	149.8905
11729137500		0.72688	149.8039
11754125000		0.72714	149.6547
11779112500		0.72697	149.6471
11804100000		0.72733	149.623
11829087500		0.72704	149.514
11854075000		0.7265	149.4301
11879062500		0.72714	149.3823
11904050000		0.72784	149.3144
11929037500		0.7272	149.3456
11954025000		0.72723	149.3247
11979012500		0.72748	149.224
12004000000		0.72721	149.1312
12028987500		0.72753	149.1412
12053975000		0.72802	149.1341
12078962500		0.72748	149.037
12103950000		0.72686	148.9489
12128937500		0.7272	148.8804
12153925000		0.72815	148.7901
12178912500		0.72772	148.8126
12203900000		0.7272	148.7232
12228887500		0.72724	148.578
12253875000		0.72756	148.5056
12278862500		0.72816	148.4275
12303850000		0.72858	148.4693
12328837500		0.72838	148.4193
12353825000		0.72783	148.337
12378812500		0.72825	148.2756
12403800000		0.72893	148.2347
12428787500		0.72876	148.2331
12453775000		0.72861	148.2399
12478762500		0.72801	148.0788
12503750000		0.72751	147.9679
12528737500		0.72826	147.9346
12553725000		0.72902	147.927
12578712500		0.72833	147.8282
12603700000		0.72774	147.7122
12628687500		0.72842	147.695
12653675000		0.72951	147.5645
12678662500		0.72956	147.5892
12703650000		0.72907	147.6118
12728637500		0.72883	147.5078
12753625000		0.72892	147.3721
12778612500		0.72918	147.395
12803600000		0.72938	147.3637
12828587500		0.72857	147.3091
12853575000		0.72793	147.2327
12878562500		0.7285	147.1176
12903550000		0.72955	146.9912
12928537500		0.72962	146.9953
12953525000		0.72986	146.9794
12978512500		0.72975	146.8667
13003500000		0.73	146.7753
13028487500		0.73079	146.7475
13053475000		0.73094	146.7521
13078462500		0.72984	146.7266
13103450000		0.72986	146.6299
13128437500		0.7305	146.4765
13153425000		0.73015	146.4463
13178412500		0.7299	146.4769
13203400000		0.72999	146.3853
13228387500		0.72976	146.2057
13253375000		0.73031	146.1209
13278362500		0.73156	146.1212
13303350000		0.73182	146.1165
13328337500		0.73083	146.0813
13353325000		0.73035	145.9908
13378312500		0.73103	145.9902
13403300000		0.73186	145.9051
13428287500		0.73121	145.9423
13453275000		0.73067	145.9192
13478262500		0.73028	145.7744
13503250000		0.73047	145.6717
13528237500		0.73155	145.6387
13553225000		0.73186	145.5432
13578212500		0.73068	145.5218
13603200000		0.73091	145.4218
13628187500		0.73192	145.2915
13653175000		0.73208	145.1736
13678162500		0.73232	145.2537
13703150000		0.73251	145.2141
13728137500		0.7316	145.091
13753125000		0.73155	145.0973
13778112500		0.7329	145.0625
13803100000		0.73297	145.0019
13828087500		0.73194	145.004
13853075000		0.7318	144.9686
13878062500		0.73259	144.8289
13903050000		0.73273	144.8087
13928037500		0.73264	144.7449
13953025000		0.73217	144.653
13978012500		0.73168	144.5407
14003000000		0.73199	144.3828
14027987500		0.73266	144.3364
14052975000		0.73278	144.3436
14077962500		0.73201	144.3152
14102950000		0.73241	144.2359
14127937500		0.73305	144.2395
14152925000		0.73371	144.158
14177912500		0.7336	144.2172
14202900000		0.7335	144.1942
14227887500		0.73324	144.0931
14252875000		0.73377	144.0431
14277862500		0.73416	144.0269
14302850000		0.73313	143.954
14327837500		0.73235	143.8216
14352825000		0.7331	143.7354
14377812500		0.73403	143.6345
14402800000		0.73406	143.6147
14427787500		0.73375	143.607
14452775000		0.73352	143.524
14477762500		0.7341	143.404
14502750000		0.73513	143.3687
14527737500		0.73561	143.394
14552725000		0.73492	143.4241
14577712500		0.73432	143.3689
14602700000		0.73457	143.2746
14627687500		0.73518	143.2288
14652675000		0.73528	143.2381
14677662500		0.73483	143.1844
14702650000		0.73387	143.0231
14727637500		0.734	142.9847
14752625000		0.73579	142.8495
14777612500		0.73653	142.8025
14802600000		0.73539	142.8047
14827587500		0.73494	142.7225
14852575000		0.7358	142.5595
14877562500		0.73648	142.5214
14902550000		0.73675	142.6079
14927537500		0.73628	142.6242
14952525000		0.73511	142.5211
14977512500		0.73527	142.4204
15002500000		0.73683	142.3741
15027487500		0.73751	142.3877
15052475000		0.73685	142.3825
15077462500		0.73608	142.3179
15102450000		0.73629	142.1408
15127437500		0.73664	142.0503
15152425000		0.73719	142.0875
15177412500		0.73717	142.0481
15202400000		0.73599	141.9554
15227387500		0.73594	141.8114
15252375000		0.73747	141.7821
15277362500		0.7382	141.7489
15302350000		0.7375	141.7516
15327337500		0.73774	141.7094
15352325000		0.73869	141.559
15377312500		0.73864	141.4941
15402300000		0.73898	141.6067
15427287500		0.73893	141.6244
15452275000		0.73767	141.4651
15477262500		0.73706	141.3631
15502250000		0.73781	141.2785
15527237500		0.7382	141.1537
15552225000		0.73768	141.1123
15577212500		0.73785	141.0535
15602200000		0.7386	140.8507
15627187500		0.73893	140.8169
15652175000		0.73957	140.9028
15677162500		0.74015	140.8351
15702150000		0.73945	140.8195
15727137500		0.73959	140.7868
15752125000		0.74079	140.7255
15777112500		0.74006	140.741
15802100000		0.73874	140.7465
15827087500		0.73845	140.7051
15852075000		0.73918	140.5267
15877062500		0.7392	140.4065
15902050000		0.73941	140.3452
15927037500		0.73934	140.2594
15952025000		0.73887	140.2232
15977012500		0.73953	140.0827
16002000000		0.74067	139.973
16026987500		0.7404	139.8764
16051975000		0.73963	139.9514
16076962500		0.74009	139.8852
16101950000		0.7406	139.7324
16126937500		0.74109	139.7327
16151925000		0.74103	139.8236
16176912500		0.74068	139.7723
16201900000		0.74039	139.681
16226887500		0.74116	139.6664
16251875000		0.74173	139.6309
16276862500		0.74114	139.5578
16301850000		0.74036	139.4202
16326837500		0.74036	139.2812
16351825000		0.74068	139.2828
16376812500		0.74128	139.2105
16401800000		0.74114	139.1131
16426787500		0.74007	138.984
16451775000		0.73993	138.9519
16476762500		0.74136	138.8647
16501750000		0.74306	138.7944
16526737500		0.74279	138.8117
16551725000		0.74226	138.815
16576712500		0.74245	138.8024
16601700000		0.74302	138.6767
16626687500		0.7433	138.8012
16651675000		0.74285	138.7685
16676662500		0.74165	138.5972
16701650000		0.74135	138.453
16726637500		0.7424	138.361
16751625000		0.743	138.2015
16776612500		0.74238	138.2381
16801600000		0.74251	138.0626
16826587500		0.74271	137.8996
16851575000		0.74337	137.8828
16876562500		0.74505	137.9522
16901550000		0.74518	137.9525
16926537500		0.74408	137.9858
16951525000		0.74424	137.9119
16976512500		0.74506	137.9452
17001500000		0.74463	137.9081
17026487500		0.74333	137.8949
17051475000		0.74325	137.6961
17076462500		0.74346	137.4065
17101450000		0.74323	137.4212
17126437500		0.74364	137.4238
17151425000		0.74366	137.2782
17176412500		0.74327	137.0667
17201400000		0.74441	136.9929
17226387500		0.74672	136.939
17251375000		0.74635	137.0609
17276362500		0.74524	137.1256
