! Infineon Technologies  Discrete & RF Semiconductors
! BAT24-02ELS
! IAC = 0.09 mA
! One-Port S-Parameters
# Hz  S  MA  R  50
!f									S11
!Hz							Mag  Ang
309850000		0.7977	-2.2301
334837500		0.79755	-2.5209
359825000		0.79679	-2.6674
384812500		0.80249	-2.8078
409800000		0.79965	-3.031
434787500		0.7934	-3.1757
459775000		0.79974	-3.351
484762500		0.80144	-3.5498
509750000		0.79588	-3.8412
534737500		0.79548	-4.0223
559725000		0.79835	-4.141
584712500		0.79623	-4.3948
609700000		0.79371	-4.5785
634687500		0.79941	-4.7789
659675000		0.79681	-4.963
684662500		0.79367	-5.1618
709650000		0.79918	-5.3602
734637500		0.79883	-5.5762
759625000		0.79786	-5.775
784612500		0.80046	-5.8726
809600000		0.79636	-6.1603
834587500		0.79755	-6.4045
859575000		0.79979	-6.6906
884562500		0.79482	-6.7954
909550000		0.79914	-7.0745
934537500		0.79783	-7.285
959525000		0.79406	-7.4267
984512500		0.80128	-7.6519
1009500000		0.79558	-7.8448
1034487500		0.79235	-8.0249
1059475000		0.80045	-8.228
1084462500		0.79562	-8.3409
1109450000		0.79454	-8.5959
1134437500		0.80113	-8.7239
1159425000		0.7961	-8.9403
1184412500		0.79549	-9.203
1209400000		0.79703	-9.3275
1234387500		0.79694	-9.6207
1259375000		0.79563	-9.7612
1284362500		0.79526	-9.9873
1309350000		0.79726	-10.1973
1334337500		0.79716	-10.3762
1359325000		0.79576	-10.6066
1384312500		0.79416	-10.7771
1409300000		0.79558	-10.9176
1434287500		0.79665	-11.18
1459275000		0.79283	-11.2971
1484262500		0.79459	-11.469
1509250000		0.79845	-11.5914
1534237500		0.79341	-11.8457
1559225000		0.79495	-12.0374
1584212500		0.79763	-12.2691
1609200000		0.7948	-12.4728
1634187500		0.79621	-12.6801
1659175000		0.79404	-12.91
1684162500		0.79457	-13.1442
1709150000		0.80176	-13.3009
1734137500		0.79068	-13.5198
1759125000		0.79021	-13.7535
1784112500		0.80027	-13.8127
1809100000		0.79133	-14.0155
1834087500		0.79046	-14.2149
1859075000		0.79862	-14.3293
1884062500		0.79174	-14.5652
1909050000		0.7906	-14.6929
1934037500		0.7944	-14.8647
1959025000		0.79292	-15.1458
1984012500		0.79099	-15.3069
2009000000		0.79197	-15.5741
2033987500		0.79194	-15.6777
2058975000		0.78953	-15.9361
2083962500		0.79337	-16.1658
2108950000		0.79568	-16.3227
2133937500		0.79021	-16.5266
2158925000		0.79083	-16.7385
2183912500		0.79694	-16.8578
2208900000		0.79472	-17.0361
2233887500		0.79122	-17.256
2258875000		0.79347	-17.4846
2283862500		0.79542	-17.5953
2308850000		0.79023	-17.8609
2333837500		0.79056	-17.9906
2358825000		0.79814	-18.1447
2383812500		0.79169	-18.4701
2408800000		0.78439	-18.7302
2433787500		0.79581	-18.9219
2458775000		0.79831	-19.0064
2483762500		0.79131	-19.336
2508750000		0.79382	-19.4186
2533737500		0.79621	-19.6461
2558725000		0.79543	-19.8278
2583712500		0.79655	-20.0368
2608700000		0.798	-20.1934
2633687500		0.79677	-20.3618
2658675000		0.79172	-20.6319
2683662500		0.7942	-20.7966
2708650000		0.79875	-20.927
2733637500		0.79469	-21.1508
2758625000		0.79461	-21.317
2783612500		0.79385	-21.6128
2808600000		0.79201	-21.7823
2833587500		0.79646	-21.9518
2858575000		0.79644	-22.0782
2883562500		0.79213	-22.3138
2908550000		0.79352	-22.5995
2933537500		0.79586	-22.8135
2958525000		0.79784	-22.9234
2983512500		0.79393	-23.1388
3008500000		0.79114	-23.1518
3033487500		0.7963	-23.3379
3058475000		0.79297	-23.5346
3083462500		0.79021	-23.8034
3108450000		0.79509	-23.9535
3133437500		0.79268	-24.1882
3158425000		0.78922	-24.3768
3183412500		0.78996	-24.5928
3208400000		0.79402	-24.759
3233387500		0.79543	-24.9237
3258375000		0.79196	-25.1838
3283362500		0.7918	-25.4189
3308350000		0.79445	-25.5705
3333337500		0.79489	-25.7879
3358325000		0.7927	-25.9992
3383312500		0.79054	-26.1665
3408300000		0.79458	-26.3341
3433287500		0.79222	-26.5343
3458275000		0.78745	-26.8115
3483262500		0.79295	-26.9213
3508250000		0.79332	-27.1188
3533237500		0.78745	-27.3747
3558225000		0.79078	-27.5187
3583212500		0.7902	-27.7007
3608200000		0.79059	-27.9333
3633187500		0.79506	-28.0657
3658175000		0.79075	-28.3076
3683162500		0.79063	-28.5323
3708150000		0.79336	-28.7481
3733137500		0.79048	-28.8873
3758125000		0.79163	-29.0853
3783112500		0.78999	-29.2617
3808100000		0.79054	-29.5162
3833087500		0.79215	-29.6632
3858075000		0.78622	-29.9425
3883062500		0.78752	-30.0309
3908050000		0.79408	-30.2141
3933037500		0.78732	-30.4971
3958025000		0.7851	-30.6868
3983012500		0.7928	-30.7943
4008000000		0.79265	-31.0739
4032987500		0.78653	-31.3261
4057975000		0.78917	-31.4822
4082962500		0.79404	-31.5647
4107950000		0.78762	-31.8883
4132937500		0.78734	-32.0611
4157925000		0.79274	-32.2096
4182912500		0.79057	-32.4383
4207900000		0.78825	-32.6713
4232887500		0.78774	-32.8702
4257875000		0.78898	-33.0473
4282862500		0.79254	-33.1838
4307850000		0.78862	-33.4341
4332837500		0.78937	-33.6209
4357825000		0.79234	-33.7367
4382812500		0.78849	-34.0394
4407800000		0.79219	-34.1388
4432787500		0.79289	-34.3787
4457775000		0.78661	-34.5581
4482762500		0.7933	-34.7121
4507750000		0.79122	-34.9295
4532737500		0.78474	-35.2709
4557725000		0.79243	-35.334
4582712500		0.79149	-35.5187
4607700000		0.78451	-35.8404
4632687500		0.78645	-36.0188
4657675000		0.79146	-36.1457
4682662500		0.79246	-36.3616
4707650000		0.78746	-36.5673
4732637500		0.78674	-36.8033
4757625000		0.79104	-36.9179
4782612500		0.78961	-37.1225
4807600000		0.78901	-37.306
4832587500		0.78803	-37.4738
4857575000		0.7904	-37.7165
4882562500		0.78809	-37.8761
4907550000		0.78477	-38.1728
4932537500		0.79029	-38.2535
4957525000		0.7895	-38.4205
4982512500		0.78417	-38.7019
5007500000		0.78677	-38.8616
5032487500		0.78865	-39.0789
5057475000		0.79004	-39.2814
5082462500		0.78801	-39.4567
5107450000		0.78477	-39.7493
5132437500		0.78888	-39.7513
5157425000		0.7891	-40.0809
5182412500		0.78749	-40.2145
5207400000		0.79048	-40.3602
5232387500		0.78864	-40.6281
5257375000		0.78716	-40.8454
5282362500		0.78958	-41.0169
5307350000		0.7874	-41.1708
5332337500		0.78816	-41.3446
5357325000		0.79015	-41.5251
5382312500		0.78696	-41.7355
5407300000		0.78764	-41.9879
5432287500		0.79081	-42.1437
5457275000		0.79054	-42.3269
5482262500		0.78782	-42.5808
5507250000		0.78646	-42.7599
5532237500		0.79116	-42.8688
5557225000		0.78987	-43.1122
5582212500		0.78533	-43.3795
5607200000		0.78905	-43.4793
5632187500		0.79235	-43.6389
5657175000		0.78595	-43.9143
5682162500		0.78516	-44.1276
5707150000		0.79184	-44.1535
5732137500		0.78964	-44.3875
5757125000		0.78635	-44.7222
5782112500		0.78962	-44.7621
5807100000		0.79037	-44.9935
5832087500		0.78804	-45.2178
5857075000		0.7894	-45.4003
5882062500		0.78901	-45.6825
5907050000		0.78529	-45.8292
5932037500		0.78789	-46.0523
5957025000		0.78952	-46.1676
5982012500		0.78669	-46.3439
6007000000		0.78815	-46.6251
6031987500		0.7892	-46.6596
6056975000		0.79077	-46.8961
6081962500		0.7895	-47.0966
6106950000		0.78752	-47.3047
6131937500		0.79238	-47.5303
6156925000		0.7873	-47.6829
6181912500		0.78534	-48.0015
6206900000		0.79271	-47.9919
6231887500		0.7902	-48.234
6256875000		0.7871	-48.6514
6281862500		0.78975	-48.6789
6306850000		0.7897	-48.8987
6331837500		0.78805	-49.0992
6356825000		0.78691	-49.2261
6381812500		0.78842	-49.4474
6406800000		0.78936	-49.5598
6431787500		0.78908	-49.8389
6456775000		0.79051	-49.9479
6481762500		0.79023	-50.1518
6506750000		0.79009	-50.3964
6531737500		0.79139	-50.5431
6556725000		0.78811	-50.712
6581712500		0.78669	-51.032
6606700000		0.78973	-51.1503
6631687500		0.78822	-51.3917
6656675000		0.78753	-51.6488
6681662500		0.78621	-51.8006
6706650000		0.78568	-51.9963
6731637500		0.78628	-52.0881
6756625000		0.78552	-52.3239
6781612500		0.78783	-52.4922
6806600000		0.79067	-52.584
6831587500		0.78737	-52.9185
6856575000		0.78812	-53.0764
6881562500		0.78924	-53.2062
6906550000		0.79089	-53.4408
6931537500		0.78859	-53.5735
6956525000		0.78533	-53.88
6981512500		0.78784	-54.0321
7006500000		0.78887	-54.2841
7031487500		0.78716	-54.4928
7056475000		0.78663	-54.6573
7081462500		0.78547	-54.8869
7106450000		0.78746	-55.0044
7131437500		0.78906	-55.1263
7156425000		0.78757	-55.3874
7181412500		0.79007	-55.4635
7206400000		0.78931	-55.7195
7231387500		0.78546	-55.9464
7256375000		0.78917	-56.0671
7281362500		0.79035	-56.2176
7306350000		0.78856	-56.4729
7331337500		0.78864	-56.6666
7356325000		0.78445	-56.9838
7381312500		0.78551	-57.1955
7406300000		0.78775	-57.3037
7431287500		0.78397	-57.6257
7456275000		0.78419	-57.7615
7481262500		0.78781	-57.8741
7506250000		0.78772	-58.0679
7531237500		0.78677	-58.2203
7556225000		0.78781	-58.39
7581212500		0.78887	-58.5321
7606200000		0.78896	-58.7398
7631187500		0.78849	-58.9494
7656175000		0.7876	-59.1167
7681162500		0.7886	-59.4093
7706150000		0.78767	-59.5881
7731137500		0.78401	-59.9137
7756125000		0.78501	-60.0766
7781112500		0.78852	-60.1617
7806100000		0.78698	-60.4183
7831087500		0.78657	-60.5763
7856075000		0.78829	-60.7832
7881062500		0.78553	-60.9997
7906050000		0.78836	-61.0614
7931037500		0.79063	-61.1744
7956025000		0.78803	-61.3991
7981012500		0.79082	-61.5425
8006000000		0.78816	-61.8232
8030987500		0.78584	-62.0704
8055975000		0.79117	-62.1625
8080962500		0.78815	-62.4184
8105950000		0.78643	-62.7195
8130937500		0.787	-62.8777
8155925000		0.78641	-63.0896
8180912500		0.78952	-63.1254
8205900000		0.78879	-63.3853
8230887500		0.78541	-63.6884
8255875000		0.78823	-63.7887
8280862500		0.78949	-63.9207
8305850000		0.78744	-64.0864
8330837500		0.7874	-64.258
8355825000		0.78842	-64.4334
8380812500		0.78705	-64.6693
8405800000		0.78532	-64.9187
8430787500		0.78552	-65.0671
8455775000		0.78692	-65.316
8480762500		0.78551	-65.5076
8505750000		0.78519	-65.7521
8530737500		0.78551	-65.9255
8555725000		0.78686	-66.056
8580712500		0.78826	-66.1839
8605700000		0.78642	-66.446
8630687500		0.78782	-66.6217
8655675000		0.78682	-66.8258
8680662500		0.78474	-66.9823
8705650000		0.78828	-67.0785
8730637500		0.78658	-67.245
8755625000		0.78529	-67.5183
8780612500		0.78595	-67.6373
8805600000		0.78227	-67.9964
8830587500		0.78724	-68.04
8855575000		0.78949	-68.2195
8880562500		0.78303	-68.6046
8905550000		0.78421	-68.7299
8930537500		0.78864	-68.8336
8955525000		0.78881	-68.965
8980512500		0.78803	-69.1632
9005500000		0.78737	-69.379
9030487500		0.78815	-69.5107
9055475000		0.78389	-69.8557
9080462500		0.78312	-69.9972
9105450000		0.78814	-70.0173
9130437500		0.78548	-70.285
9155425000		0.77976	-70.5632
9180412500		0.78286	-70.7642
9205400000		0.78462	-70.9077
9230387500		0.78366	-71.1864
9255375000		0.78622	-71.3001
9280362500		0.78598	-71.4719
9305350000		0.78205	-71.7759
9330337500		0.78422	-71.9059
9355325000		0.7892	-71.902
9380312500		0.7846	-72.2722
9405300000		0.7812	-72.4823
9430287500		0.78477	-72.6518
9455275000		0.78083	-72.9174
9480262500		0.77921	-73.1234
9505250000		0.78454	-73.1162
9530237500		0.7827	-73.3124
9555225000		0.77758	-73.6719
9580212500		0.77947	-73.8418
9605200000		0.78728	-73.8584
9630187500		0.7845	-74.1014
9655175000		0.77776	-74.4826
9680162500		0.78278	-74.504
9705150000		0.78715	-74.6135
9730137500		0.77986	-74.9958
9755125000		0.78461	-75.032
9780112500		0.787	-75.1846
9805100000		0.77731	-75.5988
9830087500		0.77906	-75.7918
9855075000		0.78508	-75.7636
9880062500		0.782	-75.967
9905050000		0.78189	-76.1702
9930037500		0.78278	-76.2961
9955025000		0.78185	-76.5981
9980012500		0.78323	-76.7357
10005000000		0.78747	-76.8079
10029987500		0.7871	-77.0096
10054975000		0.78032	-77.3513
10079962500		0.7811	-77.5743
10104950000		0.78586	-77.5988
10129937500		0.78081	-77.8875
10154925000		0.77919	-78.1525
10179912500		0.78324	-78.2147
10204900000		0.77935	-78.5327
10229887500		0.77388	-78.8393
10254875000		0.77875	-78.8024
10279862500		0.78629	-78.7902
10304850000		0.77671	-79.2613
10329837500		0.77501	-79.5619
10354825000		0.78395	-79.4649
10379812500		0.78362	-79.6154
10404800000		0.78123	-79.9021
10429787500		0.78417	-79.988
10454775000		0.78088	-80.3393
10479762500		0.78086	-80.5252
10504750000		0.78381	-80.5509
10529737500		0.78158	-80.8074
10554725000		0.77863	-81.0642
10579712500		0.77793	-81.3518
10604700000		0.77992	-81.4276
10629687500		0.78149	-81.5066
10654675000		0.77888	-81.7721
10679662500		0.77913	-81.9237
10704650000		0.78025	-82.1604
10729637500		0.77885	-82.3581
10754625000		0.78323	-82.3377
10779612500		0.78469	-82.4889
10804600000		0.78067	-82.8096
10829587500		0.78084	-83.0674
10854575000		0.78135	-83.2798
10879562500		0.78023	-83.4611
10904550000		0.78139	-83.5541
10929537500		0.78173	-83.7117
10954525000		0.77989	-84.0163
10979512500		0.77974	-84.2465
11004500000		0.78163	-84.2787
11029487500		0.78136	-84.4483
11054475000		0.78194	-84.587
11079462500		0.78209	-84.7898
11104450000		0.77821	-85.142
11129437500		0.7781	-85.2901
11154425000		0.78265	-85.3186
11179412500		0.78016	-85.616
11204400000		0.77848	-85.8808
11229387500		0.78055	-86.0378
11254375000		0.78173	-86.1467
11279362500		0.77919	-86.3825
11304350000		0.78077	-86.4985
11329337500		0.78273	-86.5693
11354325000		0.77922	-86.9379
11379312500		0.77832	-87.1415
11404300000		0.78439	-87.09
11429287500		0.78266	-87.3501
11454275000		0.77793	-87.6919
11479262500		0.78237	-87.7399
11504250000		0.78263	-87.9112
11529237500		0.77712	-88.2631
11554225000		0.78159	-88.3752
11579212500		0.78299	-88.4055
11604200000		0.77731	-88.8505
11629187500		0.77776	-89.0292
11654175000		0.78343	-88.9941
11679162500		0.78337	-89.1783
11704150000		0.77899	-89.4806
11729137500		0.78228	-89.5238
11754125000		0.78463	-89.653
11779112500		0.77766	-90.0694
11804100000		0.78062	-90.1719
11829087500		0.78686	-90.0822
11854075000		0.77911	-90.5751
11879062500		0.77723	-90.8036
11904050000		0.78246	-90.8126
11929037500		0.77952	-91.1428
11954025000		0.7768	-91.3871
11979012500		0.7833	-91.2753
12004000000		0.78252	-91.5155
12028987500		0.77629	-91.953
12053975000		0.7806	-91.9599
12078962500		0.78725	-91.887
12103950000		0.781	-92.2084
12128937500		0.78046	-92.4452
12153925000		0.78455	-92.4664
12178912500		0.78046	-92.7918
12203900000		0.77741	-93.1098
12228887500		0.78096	-93.0995
12253875000		0.78154	-93.2415
12278862500		0.77522	-93.7284
12303850000		0.77537	-93.9031
12328837500		0.78483	-93.7802
12353825000		0.78123	-93.9957
12378812500		0.77696	-94.3146
12403800000		0.78429	-94.2734
12428787500		0.78327	-94.5659
12453775000		0.78106	-94.8016
12478762500		0.7876	-94.6315
12503750000		0.78342	-95.0117
12528737500		0.77795	-95.3326
12553725000		0.78248	-95.3182
12578712500		0.78523	-95.5023
12603700000		0.78142	-95.7713
12628687500		0.77849	-96.0603
12653675000		0.77764	-96.3115
12678662500		0.77657	-96.5889
12703650000		0.77801	-96.6744
12728637500		0.78233	-96.5909
12753625000		0.78588	-96.7033
12778612500		0.78242	-96.9933
12803600000		0.78372	-97.1333
12828587500		0.78889	-97.1058
12853575000		0.78667	-97.2702
12878562500		0.78378	-97.5218
12903550000		0.78613	-97.6046
12928537500		0.78415	-97.8844
12953525000		0.78095	-98.2404
12978512500		0.78273	-98.3273
13003500000		0.7817	-98.599
13028487500		0.78023	-98.8716
13053475000		0.78256	-98.9482
13078462500		0.78141	-99.1962
13103450000		0.782	-99.3288
13128437500		0.7881	-99.1759
13153425000		0.78355	-99.5864
13178412500		0.78316	-99.7881
13203400000		0.79086	-99.6002
13228387500		0.78822	-99.8727
13253375000		0.78469	-100.1603
13278362500		0.78667	-100.3324
13303350000		0.78416	-100.6184
13328337500		0.78285	-100.8463
13353325000		0.7838	-100.9863
13378312500		0.78329	-101.1198
13403300000		0.78376	-101.3765
13428287500		0.78183	-101.6205
13453275000		0.78265	-101.7523
13478262500		0.78775	-101.6841
13503250000		0.78668	-101.8455
13528237500		0.78647	-102.0834
13553225000		0.78866	-102.1826
13578212500		0.78618	-102.3889
13603200000		0.78897	-102.4601
13628187500		0.79042	-102.543
13653175000		0.78278	-103.1026
13678162500		0.78063	-103.4068
13703150000		0.78505	-103.3426
13728137500		0.78027	-103.7228
13753125000		0.77578	-104.0434
13778112500		0.78245	-104.057
13803100000		0.78474	-104.1015
13828087500		0.78109	-104.454
13853075000		0.78517	-104.4249
13878062500		0.78769	-104.4531
13903050000		0.786	-104.7268
13928037500		0.78811	-104.8291
13953025000		0.78996	-104.8687
13978012500		0.79044	-105.0203
14003000000		0.78619	-105.4057
14027987500		0.78364	-105.7334
14052975000		0.7863	-105.7852
14077962500		0.78391	-106.0738
14102950000		0.78145	-106.2916
14127937500		0.78446	-106.3556
14152925000		0.78309	-106.6643
14177912500		0.78125	-106.8943
14202900000		0.78586	-106.8782
14227887500		0.78562	-107.0442
14252875000		0.78572	-107.2007
14277862500		0.79071	-107.1691
14302850000		0.79139	-107.313
14327837500		0.78832	-107.5817
14352825000		0.78808	-107.7069
14377812500		0.78935	-107.8579
14402800000		0.78738	-108.1763
14427787500		0.78587	-108.4151
14452775000		0.78778	-108.4276
14477762500		0.78698	-108.6236
14502750000		0.78464	-108.9456
14527737500		0.78526	-109.159
14552725000		0.78916	-109.1847
14577712500		0.79018	-109.2473
14602700000		0.78771	-109.4931
14627687500		0.78869	-109.6359
14652675000		0.79103	-109.742
14677662500		0.79007	-109.9328
14702650000		0.7902	-110.0368
14727637500		0.78935	-110.2062
14752625000		0.78816	-110.4762
14777612500		0.78786	-110.6902
14802600000		0.78709	-110.9165
14827587500		0.78837	-110.9655
14852575000		0.78928	-111.0678
14877562500		0.78557	-111.5272
14902550000		0.78627	-111.7139
14927537500		0.79028	-111.7102
14952525000		0.78906	-111.838
14977512500		0.78916	-111.9815
15002500000		0.78944	-112.155
15027487500		0.78722	-112.4711
15052475000		0.78847	-112.6369
15077462500		0.7893	-112.598
15102450000		0.78906	-112.7834
15127437500		0.78691	-113.1098
15152425000		0.78572	-113.3342
15177412500		0.78741	-113.3955
15202400000		0.78733	-113.5688
15227387500		0.78621	-113.7517
15252375000		0.78876	-113.8561
15277362500		0.78712	-114.1406
15302350000		0.78628	-114.4098
15327337500		0.78932	-114.3647
15352325000		0.7887	-114.5004
15377312500		0.78443	-114.9813
15402300000		0.78505	-115.1335
15427287500		0.78889	-115.1004
15452275000		0.78678	-115.3523
15477262500		0.7849	-115.4582
15502250000		0.78755	-115.5614
15527237500		0.78538	-115.8494
15552225000		0.78381	-116.1201
15577212500		0.78765	-116.0222
15602200000		0.7892	-116.1657
15627187500		0.78578	-116.5129
15652175000		0.78466	-116.8086
15677162500		0.78686	-116.8764
15702150000		0.78797	-117.0206
15727137500		0.78553	-117.2139
15752125000		0.78639	-117.4256
15777112500		0.78767	-117.5622
15802100000		0.78319	-117.886
15827087500		0.78329	-117.925
15852075000		0.78577	-117.9536
15877062500		0.78322	-118.1873
15902050000		0.78412	-118.3813
15927037500		0.78683	-118.4057
15952025000		0.78513	-118.5997
15977012500		0.78609	-118.7023
16002000000		0.78839	-118.7948
16026987500		0.78761	-119.1244
16051975000		0.78543	-119.3153
16076962500		0.78659	-119.4504
16101950000		0.78749	-119.6063
16126937500		0.78461	-119.9345
16151925000		0.7836	-120.0936
16176912500		0.7848	-120.1768
16201900000		0.78433	-120.4303
16226887500		0.78158	-120.6278
16251875000		0.78316	-120.775
16276862500		0.78701	-120.7938
16301850000		0.78609	-120.8809
16326837500		0.78465	-121.1339
16351825000		0.78668	-121.151
16376812500		0.7883	-121.3762
16401800000		0.78708	-121.5583
16426787500		0.78715	-121.6764
16451775000		0.78491	-121.8882
16476762500		0.78372	-122.216
16501750000		0.78526	-122.3478
16526737500		0.78494	-122.5606
16551725000		0.78334	-122.7362
16576712500		0.78264	-122.8922
16601700000		0.78318	-123.1375
16626687500		0.78447	-123.2316
16651675000		0.78629	-123.2497
16676662500		0.78575	-123.4036
16701650000		0.7857	-123.5143
16726637500		0.78532	-123.6663
16751625000		0.78585	-123.9398
16776612500		0.78711	-123.966
16801600000		0.78795	-124.0841
16826587500		0.78485	-124.4498
16851575000		0.78346	-124.8191
16876562500		0.78578	-124.8599
16901550000		0.78722	-125.0218
16926537500		0.78454	-125.2563
16951525000		0.78588	-125.3346
16976512500		0.78869	-125.3854
17001500000		0.78775	-125.6623
17026487500		0.78786	-125.7055
17051475000		0.79041	-125.5708
17076462500		0.78955	-125.814
17101450000		0.78698	-126.1906
17126437500		0.78814	-126.2442
17151425000		0.79118	-126.2403
