! Infineon Technologies  Discrete & RF Semiconductors
! BAT24-02ELS
! IAC = 60 mA
! One-Port S-Parameters
# Hz  S  MA  R  50
!f									S11
!Hz							Mag  Ang
309850000		0.67503	178.7839
334837500		0.67465	178.7354
359825000		0.67422	178.6751
384812500		0.67403	178.5571
409800000		0.67382	178.4835
434787500		0.67376	178.4424
459775000		0.67389	178.3757
484762500		0.67357	178.2943
509750000		0.67329	178.2272
534737500		0.67341	178.1283
559725000		0.67316	178.0821
584712500		0.67291	178.0273
609700000		0.67268	177.9952
634687500		0.67235	177.8484
659675000		0.67201	177.8323
684662500		0.67194	177.7531
709650000		0.67184	177.6988
734637500		0.67181	177.6436
759625000		0.67171	177.568
784612500		0.67167	177.5017
809600000		0.67175	177.4401
834587500		0.6717	177.4033
859575000		0.67178	177.2969
884562500		0.67154	177.2231
909550000		0.67138	177.1518
934537500		0.67119	177.0785
959525000		0.67099	177.0051
984512500		0.67086	176.9365
1009500000		0.67066	176.8653
1034487500		0.67047	176.8042
1059475000		0.67033	176.7354
1084462500		0.6702	176.6748
1109450000		0.67021	176.6243
1134437500		0.6704	176.5651
1159425000		0.67055	176.4979
1184412500		0.67051	176.424
1209400000		0.67049	176.3416
1234387500		0.67044	176.2505
1259375000		0.67031	176.1754
1284362500		0.67015	176.1306
1309350000		0.67003	176.0766
1334337500		0.66979	175.9939
1359325000		0.66962	175.9145
1384312500		0.66963	175.8363
1409300000		0.66946	175.7717
1434287500		0.66921	175.7427
1459275000		0.66912	175.6793
1484262500		0.66896	175.6139
1509250000		0.66923	175.5513
1534237500		0.66963	175.4783
1559225000		0.66971	175.417
1584212500		0.6698	175.3517
1609200000		0.6698	175.2483
1634187500		0.66951	175.1441
1659175000		0.66931	175.089
1684162500		0.66934	175.0487
1709150000		0.66913	174.9834
1734137500		0.66868	174.9157
1759125000		0.66857	174.837
1784112500		0.66845	174.7489
1809100000		0.66816	174.6991
1834087500		0.66807	174.665
1859075000		0.66802	174.5792
1884062500		0.66789	174.5466
1909050000		0.66818	174.4888
1934037500		0.66865	174.4218
1959025000		0.66898	174.3147
1984012500		0.66895	174.2867
2009000000		0.66896	174.2066
2033987500		0.66876	174.1074
2058975000		0.66857	174.0384
2083962500		0.66873	173.9501
2108950000		0.66837	173.908
2133937500		0.66792	173.8482
2158925000		0.66779	173.788
2183912500		0.66777	173.6834
2208900000		0.66768	173.5488
2233887500		0.66745	173.6055
2258875000		0.6676	173.511
2283862500		0.66754	173.4307
2308850000		0.66756	173.4003
2333837500		0.66778	173.3116
2358825000		0.66802	173.2239
2383812500		0.66795	173.2034
2408800000		0.66782	173.1397
2433787500		0.66748	173.0585
2458775000		0.66739	172.9772
2483762500		0.66749	172.8991
2508750000		0.6674	172.8387
2533737500		0.66722	172.7845
2558725000		0.66692	172.7455
2583712500		0.66697	172.609
2608700000		0.66714	172.4646
2633687500		0.66696	172.4729
2658675000		0.66663	172.4691
2683662500		0.66637	172.4211
2708650000		0.66648	172.2967
2733637500		0.66652	172.1961
2758625000		0.66661	172.1749
2783612500		0.66671	172.1345
2808600000		0.66669	172.034
2833587500		0.66652	172.0085
2858575000		0.66632	171.9597
2883562500		0.66645	171.8921
2908550000		0.66665	171.8052
2933537500		0.66658	171.7133
2958525000		0.66631	171.671
2983512500		0.66624	171.6055
3008500000		0.66638	171.503
3033487500		0.66643	171.4562
3058475000		0.66632	171.3992
3083462500		0.66603	171.3576
3108450000		0.66612	171.2282
3133437500		0.66612	171.1616
3158425000		0.66623	171.1222
3183412500		0.66608	171.0883
3208400000		0.66592	170.9896
3233387500		0.66583	170.919
3258375000		0.66583	170.8744
3283362500		0.66594	170.7869
3308350000		0.66579	170.7374
3333337500		0.6656	170.6662
3358325000		0.66551	170.5944
3383312500		0.66559	170.5326
3408300000		0.66566	170.4726
3433287500		0.66559	170.4178
3458275000		0.66557	170.3597
3483262500		0.66561	170.2814
3508250000		0.66553	170.2375
3533237500		0.66574	170.1199
3558225000		0.66568	170.0914
3583212500		0.66563	170.0145
3608200000		0.66549	169.9362
3633187500		0.66545	169.8782
3658175000		0.66556	169.8149
3683162500		0.66537	169.7515
3708150000		0.66526	169.6609
3733137500		0.66523	169.6222
3758125000		0.66526	169.5386
3783112500		0.6651	169.4894
3808100000		0.66506	169.445
3833087500		0.66509	169.3776
3858075000		0.66502	169.3151
3883062500		0.66507	169.2546
3908050000		0.66511	169.1959
3933037500		0.66499	169.1394
3958025000		0.66512	169.0778
3983012500		0.66525	169.001
4008000000		0.66516	168.928
4032987500		0.66503	168.8827
4057975000		0.66511	168.8074
4082962500		0.66503	168.7195
4107950000		0.66488	168.6597
4132937500		0.66482	168.6361
4157925000		0.6649	168.5306
4182912500		0.66469	168.4652
4207900000		0.66466	168.4048
4232887500		0.66479	168.3472
4257875000		0.66471	168.2876
4282862500		0.66451	168.2397
4307850000		0.66451	168.1772
4332837500		0.6645	168.0935
4357825000		0.66446	168.0403
4382812500		0.66458	167.994
4407800000		0.66449	167.9258
4432787500		0.66427	167.862
4457775000		0.66438	167.7893
4482762500		0.66451	167.7177
4507750000		0.66451	167.674
4532737500		0.66454	167.619
4557725000		0.66441	167.5374
4582712500		0.66427	167.4709
4607700000		0.66443	167.4343
4632687500		0.66461	167.3842
4657675000		0.66435	167.3201
4682662500		0.66403	167.25
4707650000		0.66405	167.1707
4732637500		0.66418	167.1003
4757625000		0.6642	167.0511
4782612500		0.66403	166.9998
4807600000		0.66386	166.9309
4832587500		0.6639	166.8421
4857575000		0.66399	166.7724
4882562500		0.66416	166.7425
4907550000		0.66423	166.7002
4932537500		0.66406	166.6267
4957525000		0.66386	166.5579
4982512500		0.66405	166.5065
5007500000		0.66425	166.4585
5032487500		0.66411	166.4064
5057475000		0.66391	166.3391
5082462500		0.66382	166.2668
5107450000		0.664	166.1864
5132437500		0.66405	166.1253
5157425000		0.66391	166.08
5182412500		0.66386	166.0213
5207400000		0.66378	165.9314
5232387500		0.66373	165.8607
5257375000		0.66383	165.8135
5282362500		0.66386	165.7649
5307350000		0.66376	165.6998
5332337500		0.66368	165.6338
5357325000		0.66375	165.5746
5382312500		0.66383	165.5212
5407300000		0.66381	165.4735
5432287500		0.66374	165.4153
5457275000		0.66364	165.3546
5482262500		0.66373	165.2919
5507250000		0.66384	165.2242
5532237500		0.66368	165.1521
5557225000		0.66354	165.1007
5582212500		0.66369	165.047
5607200000		0.66372	164.9662
5632187500		0.6634	164.9015
5657175000		0.66334	164.8529
5682162500		0.66364	164.7731
5707150000		0.66368	164.7004
5732137500		0.66361	164.6682
5757125000		0.66368	164.6363
5782112500		0.66372	164.5596
5807100000		0.66359	164.4794
5832087500		0.66374	164.4282
5857075000		0.66389	164.3845
5882062500		0.66386	164.3338
5907050000		0.66347	164.2619
5932037500		0.66338	164.1869
5957025000		0.66353	164.1055
5982012500		0.66358	164.0409
6007000000		0.6634	163.9954
6031987500		0.66338	163.9239
6056975000		0.66334	163.8194
6081962500		0.66354	163.7557
6106950000		0.66385	163.7241
6131937500		0.66384	163.7012
6156925000		0.6637	163.6656
6181912500		0.66369	163.586
6206900000		0.66362	163.4988
6231887500		0.6636	163.4708
6256875000		0.66379	163.4498
6281862500		0.66352	163.3626
6306850000		0.66295	163.27
6331837500		0.66304	163.1964
6356825000		0.66344	163.1157
6381812500		0.6633	163.0488
6406800000		0.66305	163.0086
6431787500		0.66318	162.9297
6456775000		0.66333	162.834
6481762500		0.66347	162.7906
6506750000		0.66372	162.7654
6531737500		0.66371	162.7226
6556725000		0.66347	162.6698
6581712500		0.66355	162.6141
6606700000		0.66364	162.5541
6631687500		0.66353	162.5137
6656675000		0.66339	162.4623
6681662500		0.66324	162.3854
6706650000		0.66332	162.3048
6731637500		0.66348	162.2392
6756625000		0.66339	162.166
6781612500		0.66319	162.1
6806600000		0.66322	162.0298
6831587500		0.66353	161.9564
6856575000		0.6637	161.8937
6881562500		0.66358	161.8503
6906550000		0.66341	161.8092
6931537500		0.66353	161.7595
6956525000		0.66373	161.7009
6981512500		0.66379	161.661
7006500000		0.66373	161.6326
7031487500		0.66363	161.5791
7056475000		0.6635	161.5018
7081462500		0.66349	161.4301
7106450000		0.66353	161.3693
7131437500		0.66338	161.3078
7156425000		0.66321	161.2329
7181412500		0.6631	161.1385
7206400000		0.66317	161.0684
7231387500		0.66358	161.0042
7256375000		0.66374	160.9325
7281362500		0.66358	160.88
7306350000		0.66384	160.839
7331337500		0.66402	160.7752
7356325000		0.664	160.7504
7381312500		0.66419	160.7294
7406300000		0.66418	160.6656
7431287500		0.66388	160.6064
7456275000		0.66378	160.5609
7481262500		0.66382	160.486
7506250000		0.66354	160.3988
7531237500		0.66351	160.3198
7556225000		0.66368	160.228
7581212500		0.66368	160.1526
7606200000		0.66378	160.0987
7631187500		0.66392	160.0262
7656175000		0.66399	159.9501
7681162500		0.66424	159.9141
7706150000		0.6646	159.9035
7731137500		0.6647	159.8856
7756125000		0.66434	159.8349
7781112500		0.66406	159.7748
7806100000		0.66424	159.7177
7831087500		0.6643	159.6555
7856075000		0.66383	159.6162
7881062500		0.66362	159.5518
7906050000		0.66357	159.4243
7931037500		0.66362	159.317
7956025000		0.664	159.2629
7981012500		0.6642	159.204
8006000000		0.66383	159.137
8030987500		0.66377	159.0629
8055975000		0.66434	158.9893
8080962500		0.66485	158.9535
8105950000		0.66474	158.9615
8130937500		0.66439	158.9558
8155925000		0.66416	158.8895
8180912500		0.66414	158.7959
8205900000		0.66428	158.7431
8230887500		0.6643	158.7161
8255875000		0.66393	158.6545
8280862500		0.66345	158.5541
8305850000		0.66355	158.4446
8330837500		0.66396	158.347
8355825000		0.66397	158.2998
8380812500		0.6639	158.2638
8405800000		0.6639	158.1758
8430787500		0.66394	158.0892
8455775000		0.66449	158.0676
8480762500		0.66499	158.056
8505750000		0.66474	158.0359
8530737500		0.66433	158.0082
8555725000		0.66439	157.939
8580712500		0.66456	157.8602
8605700000		0.66455	157.8201
8630687500		0.6644	157.7827
8655675000		0.66414	157.7013
8680662500		0.66399	157.5947
8705650000		0.66399	157.4894
8730637500		0.66425	157.4024
8755625000		0.66433	157.3296
8780612500		0.66433	157.2654
8805600000		0.66456	157.2164
8830587500		0.6649	157.1724
8855575000		0.66503	157.1376
8880562500		0.66506	157.1164
8905550000		0.66514	157.0898
8930537500		0.66506	157.0536
8955525000		0.66501	157.0034
8980512500		0.66481	156.9388
9005500000		0.6647	156.8519
9030487500		0.66456	156.7594
9055475000		0.66447	156.6903
9080462500		0.66448	156.6065
9105450000		0.66439	156.4916
9130437500		0.66434	156.3897
9155425000		0.66475	156.3165
9180412500		0.66529	156.2757
9205400000		0.66535	156.2574
9230387500		0.66521	156.2275
9255375000		0.66521	156.1691
9280362500		0.6653	156.1131
9305350000		0.66557	156.107
9330337500		0.66571	156.1005
9355325000		0.66535	156.0486
9380312500		0.66479	155.9623
9405300000		0.66485	155.8726
9430287500		0.66521	155.7997
9455275000		0.66526	155.7365
9480262500		0.66486	155.6652
9505250000		0.66464	155.5588
9530237500		0.66476	155.4347
9555225000		0.66508	155.363
9580212500		0.66557	155.3416
9605200000		0.66561	155.2841
9630187500		0.66513	155.2165
9655175000		0.66546	155.184
9680162500		0.6663	155.1329
9705150000		0.66627	155.0981
9730137500		0.66581	155.1113
9755125000		0.66583	155.0511
9780112500		0.66577	154.9359
9805100000		0.66559	154.8791
9830087500		0.66576	154.843
9855075000		0.66548	154.7638
9880062500		0.66508	154.6397
9905050000		0.6652	154.5312
9930037500		0.66565	154.4598
9955025000		0.66583	154.4159
9980012500		0.66563	154.3682
10005000000		0.66564	154.3053
10029987500		0.66602	154.2395
10054975000		0.66625	154.2167
10079962500		0.66622	154.2239
10104950000		0.66605	154.189
10129937500		0.66575	154.1018
10154925000		0.66587	154.0472
10179912500		0.66619	154.007
10204900000		0.66591	153.9754
10229887500		0.66545	153.9158
10254875000		0.66556	153.7822
10279862500		0.66588	153.6393
10304850000		0.66623	153.6059
10329837500		0.66664	153.6112
10354825000		0.66645	153.5321
10379812500		0.66613	153.4195
10404800000		0.66669	153.359
10429787500		0.66747	153.3483
10454775000		0.66749	153.373
10479762500		0.66697	153.3501
10504750000		0.6667	153.2572
10529737500		0.66709	153.1609
10554725000		0.66742	153.128
10579712500		0.66744	153.1412
10604700000		0.66693	153.0796
10629687500		0.66634	152.9386
10654675000		0.66658	152.8132
10679662500		0.66745	152.7541
10704650000		0.66782	152.7139
10729637500		0.66732	152.6984
10754625000		0.66706	152.57
10779612500		0.66739	152.4627
10804600000		0.66842	152.4561
10829587500		0.66913	152.479
10854575000		0.66856	152.4798
10879562500		0.66788	152.4328
10904550000		0.66833	152.3386
10929537500		0.66873	152.2499
10954525000		0.66866	152.2478
10979512500		0.66831	152.234
11004500000		0.6677	152.1424
11029487500		0.66754	151.9533
11054475000		0.6682	151.8608
11079462500		0.66872	151.8111
11104450000		0.66856	151.7813
11129437500		0.66842	151.7238
11154425000		0.6689	151.632
11179412500		0.66949	151.5829
11204400000		0.66969	151.604
11229387500		0.66972	151.6221
11254375000		0.66936	151.5706
11279362500		0.66904	151.502
11304350000		0.66933	151.4343
11329337500		0.66954	151.3503
11354325000		0.66912	151.3033
11379312500		0.66913	151.2464
11404300000		0.66944	151.1118
11429287500		0.66928	151.0051
11454275000		0.6694	150.9784
11479262500		0.67	150.9272
11504250000		0.66992	150.8492
11529237500		0.6698	150.8265
11554225000		0.67034	150.8139
11579212500		0.67053	150.7461
11604200000		0.67016	150.6893
11629187500		0.67026	150.6729
11654175000		0.67059	150.619
11679162500		0.67024	150.541
11704150000		0.66979	150.4959
11729137500		0.67015	150.4101
11754125000		0.6704	150.2641
11779112500		0.67031	150.2565
11804100000		0.67063	150.2308
11829087500		0.67045	150.1289
11854075000		0.66978	150.078
11879062500		0.67051	149.9891
11904050000		0.67119	149.9268
11929037500		0.67071	149.9632
11954025000		0.67068	149.9397
11979012500		0.67084	149.8449
12004000000		0.67064	149.7533
12028987500		0.67093	149.7953
12053975000		0.67146	149.7602
12078962500		0.67093	149.6673
12103950000		0.67028	149.6245
12128937500		0.67076	149.505
12153925000		0.67161	149.4163
12178912500		0.67119	149.4478
12203900000		0.67071	149.3568
12228887500		0.67079	149.2062
12253875000		0.67109	149.1344
12278862500		0.67176	149.0583
12303850000		0.67216	149.1
12328837500		0.67197	149.0545
12353825000		0.67143	148.9717
12378812500		0.67182	148.9108
12403800000		0.67252	148.8717
12428787500		0.67243	148.878
12453775000		0.67223	148.8837
12478762500		0.67168	148.7339
12503750000		0.67133	148.6182
12528737500		0.67195	148.5788
12553725000		0.67265	148.5779
12578712500		0.67202	148.4807
12603700000		0.67154	148.3625
12628687500		0.67214	148.3446
12653675000		0.673	148.2538
12678662500		0.67332	148.2468
12703650000		0.67283	148.2712
12728637500		0.67253	148.1657
12753625000		0.67263	148.033
12778612500		0.67296	148.0543
12803600000		0.67315	148.0297
12828587500		0.67236	147.9784
12853575000		0.67177	147.8499
12878562500		0.67238	147.7304
12903550000		0.67335	147.6564
12928537500		0.6734	147.6618
12953525000		0.6736	147.6494
12978512500		0.67359	147.5412
13003500000		0.67362	147.4935
13028487500		0.67461	147.4181
13053475000		0.67476	147.4336
13078462500		0.67373	147.4103
13103450000		0.67372	147.3096
13128437500		0.67429	147.1628
13153425000		0.67407	147.1327
13178412500		0.67385	147.1662
13203400000		0.67388	147.0769
13228387500		0.67361	146.8998
13253375000		0.67423	146.8128
13278362500		0.67545	146.8143
13303350000		0.67573	146.8144
13328337500		0.67484	146.7862
13353325000		0.67437	146.692
13378312500		0.67518	146.6491
13403300000		0.67587	146.6114
13428287500		0.67532	146.6524
13453275000		0.67476	146.6276
13478262500		0.67435	146.4868
13503250000		0.67453	146.3786
13528237500		0.67558	146.3424
13553225000		0.67587	146.257
13578212500		0.67481	146.242
13603200000		0.67489	146.18
13628187500		0.67605	145.9538
13653175000		0.67616	145.8899
13678162500		0.6764	145.9711
13703150000		0.67652	145.936
13728137500		0.67589	145.778
13753125000		0.67592	145.7768
13778112500		0.67703	145.786
13803100000		0.67689	145.7706
13828087500		0.67618	145.7381
13853075000		0.67613	145.6637
13878062500		0.67675	145.5634
13903050000		0.67707	145.5063
13928037500		0.6768	145.4876
13953025000		0.67641	145.3992
13978012500		0.67609	145.2442
14003000000		0.67627	145.1295
14027987500		0.67675	145.1318
14052975000		0.67688	145.1363
14077962500		0.67657	145.0225
14102950000		0.6768	144.989
14127937500		0.67768	144.9477
14152925000		0.67806	144.9172
14177912500		0.67787	145.0062
14202900000		0.67799	144.9165
14227887500		0.67769	144.8588
14252875000		0.67799	144.8462
14277862500		0.67847	144.7949
14302850000		0.67752	144.7255
14327837500		0.6768	144.5984
14352825000		0.67753	144.5082
14377812500		0.67838	144.4023
14402800000		0.67849	144.3925
14427787500		0.67823	144.3882
14452775000		0.67806	144.3001
14477762500		0.67859	144.1792
14502750000		0.67959	144.1472
14527737500		0.68009	144.1757
14552725000		0.67946	144.2073
14577712500		0.67884	144.1569
14602700000		0.67908	144.0612
14627687500		0.67969	144.0184
14652675000		0.67984	144.0327
14677662500		0.67932	143.9822
14702650000		0.67844	143.8229
14727637500		0.67872	143.7302
14752625000		0.68026	143.651
14777612500		0.68103	143.6069
14802600000		0.67998	143.61
14827587500		0.67957	143.5284
14852575000		0.68037	143.3593
14877562500		0.6811	143.3264
14902550000		0.68144	143.4136
14927537500		0.68099	143.4398
14952525000		0.67985	143.3402
14977512500		0.68	143.2313
15002500000		0.6815	143.1845
15027487500		0.68216	143.207
15052475000		0.6814	143.2411
15077462500		0.6808	143.1438
15102450000		0.6809	142.9727
15127437500		0.68131	142.8774
15152425000		0.68189	142.9167
15177412500		0.68179	142.8831
15202400000		0.68076	142.7946
15227387500		0.68066	142.6448
15252375000		0.68212	142.6103
15277362500		0.68286	142.5917
15302350000		0.68232	142.5963
15327337500		0.68244	142.548
15352325000		0.6833	142.4031
15377312500		0.68319	142.4004
15402300000		0.68353	142.4964
15427287500		0.68359	142.4796
15452275000		0.68233	142.37
15477262500		0.68172	142.2697
15502250000		0.68273	142.0833
15527237500		0.68296	142.0147
15552225000		0.68232	142.0105
15577212500		0.68256	141.9141
15602200000		0.68327	141.71
15627187500		0.68372	141.681
15652175000		0.68463	141.718
15677162500		0.6849	141.705
15702150000		0.68445	141.6444
15727137500		0.68438	141.6635
15752125000		0.68524	141.6513
15777112500		0.68487	141.6305
15802100000		0.68382	141.5889
15827087500		0.68356	141.5165
15852075000		0.68391	141.4162
15877062500		0.68376	141.3453
15902050000		0.68419	141.2394
15927037500		0.68393	141.1974
15952025000		0.68371	141.1224
15977012500		0.6843	140.9811
16002000000		0.68509	140.9213
16026987500		0.685	140.8301
16051975000		0.68455	140.8561
16076962500		0.68512	140.7406
16101950000		0.68546	140.6399
16126937500		0.68587	140.6448
16151925000		0.68586	140.7372
16176912500		0.68554	140.6917
16201900000		0.68548	140.5488
16226887500		0.6862	140.5381
16251875000		0.68669	140.5151
16276862500		0.68611	140.4522
16301850000		0.68521	140.3582
16326837500		0.68512	140.261
16351825000		0.68577	140.1722
16376812500		0.68635	140.1035
16401800000		0.68597	140.0549
16426787500		0.68498	139.9338
16451775000		0.68485	139.8957
16476762500		0.68631	139.8048
16501750000		0.68759	139.7909
16526737500		0.68745	139.8077
16551725000		0.68703	139.8155
16576712500		0.68756	139.7017
16601700000		0.68771	139.6846
16626687500		0.68819	139.7637
16651675000		0.68771	139.7394
16676662500		0.68664	139.5294
16701650000		0.68627	139.4216
16726637500		0.6874	139.2837
16751625000		0.68759	139.2161
16776612500		0.68725	139.2119
16801600000		0.68737	139.0398
16826587500		0.68766	138.8776
16851575000		0.68838	138.86
16876562500		0.69021	138.888
16901550000		0.6903	138.8986
16926537500		0.68922	138.9301
16951525000		0.68913	138.9551
16976512500		0.69035	138.8953
17001500000		0.68986	138.8779
17026487500		0.68841	138.8693
17051475000		0.688	138.7468
17076462500		0.68819	138.4707
17101450000		0.68827	138.4346
17126437500		0.68882	138.4003
17151425000		0.68871	138.257
17176412500		0.68825	138.0835
17201400000		0.68945	138.0041
17226387500		0.69164	137.9524
17251375000		0.6917	138.0433
17276362500		0.69035	138.1511
17301350000		0.69036	138.0101
