! Infineon Technologies  Discrete & RF Semiconductors
! BAT63-02V
! IAC = 0.5 mA
! One-Port S-Parameters
# Hz  S  MA  R  50
!f									S11
!Hz							Mag  Ang
309850000		0.17232	-15.4982
409800000		0.17162	-20.505
509750000		0.17386	-25.4007
609700000		0.17559	-31.2389
709650000		0.18322	-35.9124
809600000		0.18416	-41.8162
909550000		0.19169	-46.9677
1009500000		0.19434	-51.809
1109450000		0.20245	-56.0256
1209400000		0.20125	-60.3956
1309350000		0.20925	-65.466
1409300000		0.21332	-70.0001
1509250000		0.21859	-75.3369
1609200000		0.22421	-79.2447
1709150000		0.23581	-81.9055
1809100000		0.2414	-86.5178
1909050000		0.24649	-90.9784
2009000000		0.24979	-95.196
2108950000		0.26421	-98.4599
2208900000		0.27121	-101.8846
2308850000		0.28136	-105.5867
2408800000		0.28958	-107.9994
2508750000		0.30013	-111.0716
2608700000		0.30947	-114.0741
2708650000		0.3179	-117.3593
2808600000		0.33005	-119.9447
2908550000		0.33863	-122.9323
3008500000		0.34294	-125.9769
3108450000		0.35303	-128.6522
3208400000		0.36363	-131.0906
3308350000		0.37424	-133.5876
3408300000		0.38274	-136.3348
3508250000		0.39215	-138.8916
3608200000		0.40036	-141.3291
3708150000		0.40932	-143.855
3808100000		0.41794	-146.0709
3908050000		0.42601	-148.405
4008000000		0.43379	-150.8299
4107950000		0.44246	-153.1243
4207900000		0.45333	-154.7838
4307850000		0.46264	-156.6805
4407800000		0.47063	-158.9382
4507750000		0.47744	-161.0525
4607700000		0.48622	-163.1155
4707650000		0.49549	-164.7972
4807600000		0.50401	-166.8057
4907550000		0.51215	-168.7474
5007500000		0.52023	-170.7854
5107450000		0.52682	-173.1202
5207400000		0.53618	-174.9631
5307350000		0.54524	-177.0173
5407300000		0.55159	-178.9505
5507250000		0.55755	178.8543
5607200000		0.56373	177.1132
5707150000		0.57203	175.221
5807100000		0.5786	173.4695
5907050000		0.58559	171.3458
6007000000		0.59254	169.7149
6106950000		0.59915	167.8565
6206900000		0.60648	166.1489
6306850000		0.61291	164.3244
6406800000		0.61965	162.4484
6506750000		0.62684	160.6816
6606700000		0.63259	158.8862
6706650000		0.63934	157.1819
6806600000		0.64456	155.312
6906550000		0.65042	153.6139
7006500000		0.65554	151.7228
7106450000		0.66278	150.2672
7206400000		0.66866	148.2488
7306350000		0.67456	146.7311
7406300000		0.67843	144.7152
7506250000		0.68329	143.3367
7606200000		0.68884	141.6513
7706150000		0.69077	140.2268
7806100000		0.69867	138.7263
!
!				Infineon Technologies AG
