! Infineon Technologies  Discrete & RF Semiconductors
! BAT63-02V
! VCA = 0.2 V
! One-Port S-Parameters
# Hz  S  MA  R  50
!f									S11
!Hz							Mag  Ang
309850000		1.0016	-6.6467
409800000		1.0003	-8.7585
509750000		1.0009	-10.8159
609700000		1.0006	-13.0773
709650000		1.0009	-15.0915
809600000		1.0003	-17.345
909550000		0.99971	-19.5422
1009500000		0.99954	-21.7162
1109450000		0.9994	-23.9876
1209400000		0.99823	-26.1316
1309350000		0.99777	-28.4713
1409300000		0.99689	-30.6461
1509250000		0.99545	-33.1224
1609200000		0.99335	-35.2512
1709150000		0.99185	-37.7292
1809100000		0.9898	-39.9192
1909050000		0.98829	-42.4133
2009000000		0.98644	-44.4771
2108950000		0.985	-47.0808
2208900000		0.98422	-49.2469
2308850000		0.98224	-51.845
2408800000		0.98218	-54.0754
2508750000		0.98197	-56.581
2608700000		0.98194	-58.8685
2708650000		0.98141	-61.4113
2808600000		0.9815	-63.8937
2908550000		0.98096	-66.4313
3008500000		0.98054	-68.9751
3108450000		0.97879	-71.5523
3208400000		0.97765	-74.1209
3308350000		0.97651	-76.7132
3408300000		0.97566	-79.3386
3508250000		0.97232	-81.9134
3608200000		0.97022	-84.5541
3708150000		0.96709	-87.112
3808100000		0.96473	-89.6719
3908050000		0.96161	-92.1908
4008000000		0.95901	-94.7009
4107950000		0.95588	-97.1744
4207900000		0.9532	-99.654
4307850000		0.95066	-102.0387
4407800000		0.94882	-104.4845
4507750000		0.94711	-106.7556
4607700000		0.94583	-109.2357
4707650000		0.94455	-111.5636
4807600000		0.94434	-114.0199
4907550000		0.94321	-116.3908
5007500000		0.94324	-118.8177
5107450000		0.94242	-121.2872
5207400000		0.94269	-123.8185
5307350000		0.94215	-126.4907
5407300000		0.94064	-129.002
5507250000		0.93869	-131.5893
5607200000		0.93703	-134.0115
5707150000		0.93717	-136.6343
5807100000		0.93592	-139.1013
5907050000		0.93521	-141.7902
6007000000		0.93368	-144.263
6106950000		0.93089	-146.8985
6206900000		0.92913	-149.4544
6306850000		0.9275	-151.9796
6406800000		0.92614	-154.48
6506750000		0.92494	-157.0277
6606700000		0.92312	-159.4836
6706650000		0.92252	-161.9176
6806600000		0.92018	-164.4458
6906550000		0.91982	-166.8698
7006500000		0.91691	-169.4896
7106450000		0.91701	-171.8749
7206400000		0.91383	-174.5766
7306350000		0.9127	-176.8983
7406300000		0.90843	-179.5157
7506250000		0.90659	178.2783
7606200000		0.90444	175.8222
7706150000		0.90194	173.7923
7806100000		0.90358	171.4416
!
!				Infineon Technologies AG
