! Infineon Technologies  Discrete & RF Semiconductors
! BAT63-02V
! IAC = 90 mA
! One-Port S-Parameters
# Hz  S  MA  R  50
!f									S11
!Hz							Mag  Ang
309850000		0.80677	176.3096
409800000		0.80609	175.3109
509750000		0.80526	174.1487
609700000		0.8047	173.1917
709650000		0.80364	172.0047
809600000		0.80347	171.011
909550000		0.80226	169.9917
1009500000		0.80273	168.9804
1109450000		0.80178	167.9814
1209400000		0.8018	166.8984
1309350000		0.80158	166.0141
1409300000		0.80203	164.9137
1509250000		0.80186	164.0921
1609200000		0.80205	162.9721
1709150000		0.80299	162.2383
1809100000		0.80398	161.1154
1909050000		0.80395	160.3592
2009000000		0.80448	159.1349
2108950000		0.8054	158.4951
2208900000		0.80607	157.3439
2308850000		0.807	156.6799
2408800000		0.80693	155.582
2508750000		0.80763	154.828
2608700000		0.80765	153.7725
2708650000		0.80827	152.8877
2808600000		0.80764	151.9546
2908550000		0.8079	151.15
3008500000		0.80736	150.1889
3108450000		0.80771	149.3766
3208400000		0.80782	148.5207
3308350000		0.80756	147.6748
3408300000		0.80713	146.8414
3508250000		0.80798	146.0374
3608200000		0.8081	145.2905
3708150000		0.80912	144.486
3808100000		0.80928	143.6955
3908050000		0.8103	142.85
4008000000		0.81136	142.0674
4107950000		0.81297	141.2439
4207900000		0.81416	140.4941
4307850000		0.81585	139.5427
4407800000		0.81734	138.8116
4507750000		0.81848	137.751
4607700000		0.82018	136.9207
4707650000		0.82119	135.8485
4807600000		0.82248	134.9999
4907550000		0.82387	133.9013
5007500000		0.82478	132.9507
5107450000		0.8261	131.7973
5207400000		0.82663	130.8476
5307350000		0.82748	129.7679
5407300000		0.82587	128.6846
5507250000		0.82532	127.6958
5607200000		0.82379	126.88
5707150000		0.82362	125.9714
5807100000		0.82243	125.002
5907050000		0.823	124.07
6007000000		0.82231	123.1628
6106950000		0.82189	122.1969
6206900000		0.82209	121.4515
6306850000		0.8224	120.6368
6406800000		0.82454	119.6787
6506750000		0.82577	118.7889
6606700000		0.82617	117.8183
6706650000		0.8275	116.9871
6806600000		0.82727	115.8305
6906550000		0.82707	114.9691
7006500000		0.82624	113.822
7106450000		0.826	113.2088
7206400000		0.82786	112.1166
7306350000		0.82882	111.3776
7406300000		0.82978	110.2605
7506250000		0.82895	109.4634
7606200000		0.82989	108.544
7706150000		0.82701	107.6845
7806100000		0.82939	106.8826
!
!				Infineon Technologies AG
