! Infineon Technologies  Discrete & RF Semiconductors
! BAT63-02V
! VCA = 0.8 V
! One-Port S-Parameters
# Hz  S  MA  R  50
!f									S11
!Hz							Mag  Ang
309850000		1.0014	-5.3145
409800000		1.0005	-7.0366
509750000		1.0012	-8.6752
609700000		1.0009	-10.5117
709650000		1.0014	-12.1077
809600000		1.0011	-13.9664
909550000		1.0005	-15.7064
1009500000		1.0005	-17.4456
1109450000		1.0005	-19.2936
1209400000		0.99953	-21.0024
1309350000		0.9992	-22.8883
1409300000		0.99884	-24.6559
1509250000		0.99781	-26.7065
1609200000		0.99606	-28.3988
1709150000		0.99482	-30.4483
1809100000		0.99313	-32.2097
1909050000		0.99188	-34.2941
2009000000		0.99026	-35.914
2108950000		0.98908	-38.084
2208900000		0.98838	-39.7858
2308850000		0.98703	-42.0464
2408800000		0.98719	-43.8225
2508750000		0.98706	-45.9021
2608700000		0.98735	-47.773
2708650000		0.98714	-49.8974
2808600000		0.98773	-51.961
2908550000		0.98756	-54.099
3008500000		0.988	-56.2373
3108450000		0.98668	-58.4298
3208400000		0.9863	-60.6315
3308350000		0.98565	-62.8012
3408300000		0.98563	-65.0991
3508250000		0.98306	-67.3662
3608200000		0.98145	-69.6596
3708150000		0.97877	-71.9068
3808100000		0.97689	-74.1834
3908050000		0.97406	-76.4085
4008000000		0.97177	-78.6508
4107950000		0.96876	-80.866
4207900000		0.96616	-83.117
4307850000		0.96357	-85.2353
4407800000		0.96148	-87.4817
4507750000		0.95964	-89.5001
4607700000		0.95796	-91.7695
4707650000		0.95661	-93.8327
4807600000		0.95594	-96.0923
4907550000		0.95456	-98.2219
5007500000		0.95443	-100.462
5107450000		0.95334	-102.6741
5207400000		0.95346	-105.023
5307350000		0.95272	-107.4895
5407300000		0.95171	-109.8341
5507250000		0.94981	-112.251
5607200000		0.94856	-114.5836
5707150000		0.94875	-117.0897
5807100000		0.94803	-119.4575
5907050000		0.94737	-122.0519
6007000000		0.94613	-124.48
6106950000		0.94345	-127.0528
6206900000		0.94167	-129.6248
6306850000		0.94013	-132.1567
6406800000		0.93833	-134.6571
6506750000		0.93673	-137.2568
6606700000		0.93478	-139.7436
6706650000		0.93376	-142.2728
6806600000		0.93134	-144.8233
6906550000		0.93067	-147.3625
7006500000		0.92757	-150.0235
7106450000		0.92733	-152.5813
7206400000		0.9235	-155.3507
7306350000		0.92204	-157.8697
7406300000		0.91723	-160.6069
7506250000		0.91544	-163.0046
7606200000		0.91247	-165.6509
7706150000		0.9104	-167.863
7806100000		0.91153	-170.4436
!
!				Infineon Technologies AG
