! Infineon Technologies  Discrete & RF Semiconductors
! BAT63-02V
! VCA = 1 V
! One-Port S-Parameters
# Hz  S  MA  R  50
!f									S11
!Hz							Mag  Ang
309850000		1.0016	-5.1635
409800000		1.0005	-6.7933
509750000		1.001	-8.34
609700000		1.001	-10.1501
709650000		1.0015	-11.6834
809600000		1.001	-13.4488
909550000		1.0006	-15.1657
1009500000		1.0004	-16.8096
1109450000		1.0007	-18.6275
1209400000		0.99972	-20.2753
1309350000		0.99965	-22.1328
1409300000		0.99909	-23.8032
1509250000		0.99808	-25.7955
1609200000		0.99638	-27.4245
1709150000		0.99527	-29.4131
1809100000		0.99353	-31.1098
1909050000		0.99228	-33.1318
2009000000		0.99072	-34.6888
2108950000		0.98958	-36.7974
2208900000		0.9891	-38.4686
2308850000		0.98759	-40.6314
2408800000		0.98778	-42.3454
2508750000		0.98766	-44.3574
2608700000		0.98802	-46.1676
2708650000		0.98778	-48.2277
2808600000		0.98841	-50.2287
2908550000		0.98842	-52.3012
3008500000		0.98888	-54.3764
3108450000		0.98742	-56.4719
3208400000		0.98731	-58.6468
3308350000		0.98702	-60.7897
3408300000		0.98683	-62.9924
3508250000		0.9842	-65.1677
3608200000		0.98284	-67.4408
3708150000		0.98027	-69.6348
3808100000		0.9785	-71.8552
3908050000		0.97574	-74.0313
4008000000		0.97349	-76.2245
4107950000		0.97045	-78.3907
4207900000		0.96786	-80.5978
4307850000		0.96526	-82.6676
4407800000		0.96319	-84.8724
4507750000		0.96129	-86.8432
4607700000		0.95963	-89.0712
4707650000		0.95833	-91.0826
4807600000		0.95758	-93.3011
4907550000		0.95626	-95.3831
5007500000		0.95597	-97.5807
5107450000		0.95486	-99.743
5207400000		0.95499	-102.049
5307350000		0.95426	-104.4684
5407300000		0.95335	-106.77
5507250000		0.95141	-109.1487
5607200000		0.95027	-111.4524
5707150000		0.9504	-113.9213
5807100000		0.94982	-116.2592
5907050000		0.94922	-118.8209
6007000000		0.94803	-121.227
6106950000		0.94538	-123.7746
6206900000		0.94357	-126.3269
6306850000		0.94207	-128.8455
6406800000		0.94026	-131.3311
6506750000		0.93865	-133.9229
6606700000		0.93667	-136.3962
6706650000		0.9356	-138.9264
6806600000		0.93321	-141.4634
6906550000		0.93245	-144.0115
7006500000		0.92932	-146.6582
7106450000		0.92907	-149.2324
7206400000		0.92517	-151.9907
7306350000		0.92356	-154.5298
7406300000		0.91882	-157.2677
7506250000		0.91701	-159.6884
7606200000		0.91398	-162.3549
7706150000		0.912	-164.5904
7806100000		0.91296	-167.1965
!
!				Infineon Technologies AG
