! Infineon Technologies  Discrete & RF Semiconductors
! BAT63-02V
! IAC = 20 mA
! One-Port S-Parameters
# Hz  S  MA  R  50
!f									S11
!Hz							Mag  Ang
309850000		0.84561	176.3029
409800000		0.84481	175.3031
509750000		0.84398	174.1388
609700000		0.84324	173.1764
709650000		0.84211	171.9953
809600000		0.84172	171.0018
909550000		0.84047	169.9836
1009500000		0.84077	168.9674
1109450000		0.83975	167.9715
1209400000		0.83963	166.8872
1309350000		0.83929	166.0057
1409300000		0.83959	164.9008
1509250000		0.83929	164.0791
1609200000		0.83933	162.9619
1709150000		0.84031	162.2225
1809100000		0.84111	161.0944
1909050000		0.84076	160.3698
2009000000		0.84132	159.1142
2108950000		0.8421	158.4713
2208900000		0.84262	157.3131
2308850000		0.84336	156.646
2408800000		0.84319	155.5487
2508750000		0.84394	154.7574
2608700000		0.84384	153.6973
2708650000		0.844	152.8446
2808600000		0.84299	151.941
2908550000		0.84348	151.0663
3008500000		0.84256	150.1344
3108450000		0.84266	149.3227
3208400000		0.84267	148.4678
3308350000		0.84208	147.6215
3408300000		0.84153	146.7837
3508250000		0.84217	145.9799
3608200000		0.84215	145.2351
3708150000		0.84292	144.4284
3808100000		0.843	143.6353
3908050000		0.84391	142.7923
4008000000		0.84485	142.0096
4107950000		0.84638	141.1858
4207900000		0.84746	140.4361
4307850000		0.84885	139.5116
4407800000		0.85054	138.7451
4507750000		0.85169	137.686
4607700000		0.85321	136.851
4707650000		0.85414	135.7726
4807600000		0.85533	134.9157
4907550000		0.85658	133.8173
5007500000		0.85731	132.865
5107450000		0.85849	131.7071
5207400000		0.85886	130.7497
5307350000		0.85948	129.6643
5407300000		0.85762	128.5823
5507250000		0.85667	127.5905
5607200000		0.85489	126.7728
5707150000		0.85437	125.8565
5807100000		0.85302	124.8873
5907050000		0.85324	123.9548
6007000000		0.85225	123.047
6106950000		0.85148	122.0798
6206900000		0.85149	121.327
6306850000		0.85156	120.5155
6406800000		0.85344	119.5593
6506750000		0.85439	118.6702
6606700000		0.85452	117.6929
6706650000		0.8558	116.8623
6806600000		0.85534	115.7061
6906550000		0.85487	114.8466
7006500000		0.85359	113.6928
7106450000		0.85304	113.073
7206400000		0.85462	111.9872
7306350000		0.8554	111.2532
7406300000		0.85597	110.1399
7506250000		0.85471	109.3388
7606200000		0.85543	108.4161
7706150000		0.85246	107.551
7806100000		0.85451	106.7588
!
!				Infineon Technologies AG
