! Infineon Technologies  Discrete & RF Semiconductors
! BAT63-02V
! IAC = 100 mA
! One-Port S-Parameters
# Hz  S  MA  R  50
!f									S11
!Hz							Mag  Ang
309850000		0.79082	176.3119
409800000		0.79038	175.287
509750000		0.7894	174.1556
609700000		0.78888	173.2023
709650000		0.78789	172.0116
809600000		0.78774	171.0233
909550000		0.78658	169.9988
1009500000		0.78713	168.9949
1109450000		0.78618	167.9969
1209400000		0.78629	166.9125
1309350000		0.78607	166.0281
1409300000		0.78659	164.9304
1509250000		0.78648	164.1083
1609200000		0.78671	162.9907
1709150000		0.78751	162.2906
1809100000		0.78874	161.1364
1909050000		0.78874	160.3821
2009000000		0.78935	159.1577
2108950000		0.79033	158.5225
2208900000		0.79103	157.3752
2308850000		0.79204	156.7123
2408800000		0.792	155.6159
2508750000		0.79295	154.8337
2608700000		0.79288	153.812
2708650000		0.79356	152.9301
2808600000		0.79307	151.9963
2908550000		0.79357	151.1642
3008500000		0.79292	150.2352
3108450000		0.79319	149.4562
3208400000		0.79356	148.5698
3308350000		0.79335	147.7263
3408300000		0.79301	146.8924
3508250000		0.79374	146.1209
3608200000		0.79411	145.3418
3708150000		0.79519	144.5367
3808100000		0.79542	143.7501
3908050000		0.79648	142.9052
4008000000		0.79759	142.1218
4107950000		0.79925	141.2999
4207900000		0.80045	140.5549
4307850000		0.80209	139.6033
4407800000		0.80363	138.8756
4507750000		0.80485	137.8146
4607700000		0.80658	136.9878
4707650000		0.8076	135.9165
4807600000		0.809	135.0733
4907550000		0.81038	133.9742
5007500000		0.81134	133.0271
5107450000		0.81278	131.8758
5207400000		0.81347	130.9311
5307350000		0.81437	129.8491
5407300000		0.81283	128.767
5507250000		0.81247	127.7803
5607200000		0.81102	126.9658
5707150000		0.81097	126.0593
5807100000		0.80985	125.0919
5907050000		0.81056	124.1582
6007000000		0.81001	123.2548
6106950000		0.8097	122.2902
6206900000		0.81006	121.544
6306850000		0.81048	120.7309
6406800000		0.81262	119.7718
6506750000		0.81399	118.8837
6606700000		0.8145	117.9136
6706650000		0.81595	117.0836
6806600000		0.8158	115.9262
6906550000		0.81575	115.069
7006500000		0.81498	113.9219
7106450000		0.81497	113.3129
7206400000		0.81693	112.2143
7306350000		0.81797	111.4848
7406300000		0.8191	110.3586
7506250000		0.81832	109.568
7606200000		0.81944	108.6399
7706150000		0.81659	107.7836
7806100000		0.81916	106.9832
!
!				Infineon Technologies AG
