! Infineon Technologies  Discrete & RF Semiconductors
! BAT63-02V
! IAC = 8 mA
! One-Port S-Parameters
# Hz  S  MA  R  50
!f									S11
!Hz							Mag  Ang
309850000		0.78269	176.3687
409800000		0.78213	175.3459
509750000		0.78141	174.1931
609700000		0.78093	173.2457
709650000		0.77987	172.0742
809600000		0.77976	171.0924
909550000		0.77862	170.0842
1009500000		0.77919	169.0824
1109450000		0.77835	168.0958
1209400000		0.77846	167.0236
1309350000		0.77828	166.1521
1409300000		0.77881	165.0567
1509250000		0.77871	164.2465
1609200000		0.77899	163.1358
1709150000		0.78013	162.4097
1809100000		0.78112	161.2905
1909050000		0.78109	160.551
2009000000		0.78163	159.3695
2108950000		0.78283	158.7118
2208900000		0.78354	157.5677
2308850000		0.78452	156.9181
2408800000		0.78447	155.8303
2508750000		0.78559	155.0586
2608700000		0.78572	154.0122
2708650000		0.7862	153.1754
2808600000		0.78574	152.248
2908550000		0.78637	151.4215
3008500000		0.78588	150.4922
3108450000		0.78632	149.6912
3208400000		0.78661	148.8493
3308350000		0.78642	148.0092
3408300000		0.78606	147.218
3508250000		0.78719	146.3882
3608200000		0.78748	145.6499
3708150000		0.78852	144.8501
3808100000		0.78883	144.0664
3908050000		0.78996	143.2318
4008000000		0.7911	142.4598
4107950000		0.79276	141.6463
4207900000		0.79405	140.9032
4307850000		0.79573	139.9565
4407800000		0.79736	139.238
4507750000		0.7986	138.1865
4607700000		0.80034	137.3667
4707650000		0.8015	136.2995
4807600000		0.80292	135.4595
4907550000		0.80441	134.3714
5007500000		0.80539	133.4349
5107450000		0.80692	132.286
5207400000		0.80762	131.3398
5307350000		0.8087	130.2664
5407300000		0.80731	129.1936
5507250000		0.80699	128.2151
5607200000		0.80555	127.3955
5707150000		0.80568	126.4964
5807100000		0.80471	125.5316
5907050000		0.80557	124.607
6007000000		0.80493	123.7086
6106950000		0.80477	122.7422
6206900000		0.80526	121.9966
6306850000		0.80586	121.1865
6406800000		0.80799	120.2373
6506750000		0.80938	119.3511
6606700000		0.80995	118.3787
6706650000		0.81156	117.5482
6806600000		0.81152	116.3962
6906550000		0.81154	115.5507
7006500000		0.81086	114.3965
7106450000		0.81076	113.7931
7206400000		0.81308	112.6858
7306350000		0.81426	111.9672
7406300000		0.81525	110.8333
7506250000		0.8146	110.0426
7606200000		0.81571	109.1177
7706150000		0.81321	108.2573
7806100000		0.8158	107.4684
!
!				Infineon Technologies AG
