! Infineon Technologies  Discrete & RF Semiconductors
! BAT63-02V
! IAC = 70 mA
! One-Port S-Parameters
# Hz  S  MA  R  50
!f									S11
!Hz							Mag  Ang
309850000		0.83265	176.3401
409800000		0.83208	175.3026
509750000		0.83116	174.1385
609700000		0.83052	173.1797
709650000		0.82945	171.9912
809600000		0.82914	170.9971
909550000		0.82792	169.9775
1009500000		0.82826	168.9645
1109450000		0.82726	167.9643
1209400000		0.82719	166.88
1309350000		0.82688	165.9974
1409300000		0.8272	164.8948
1509250000		0.82693	164.0707
1609200000		0.82703	162.9499
1709150000		0.82799	162.2133
1809100000		0.82887	161.0883
1909050000		0.82874	160.3305
2009000000		0.82917	159.1046
2108950000		0.83001	158.4625
2208900000		0.83063	157.3101
2308850000		0.83144	156.6405
2408800000		0.83124	155.5418
2508750000		0.83205	154.7509
2608700000		0.83198	153.6945
2708650000		0.83226	152.8379
2808600000		0.83126	151.9365
2908550000		0.83187	151.0619
3008500000		0.831	150.1288
3108450000		0.83118	149.3161
3208400000		0.83118	148.4609
3308350000		0.83065	147.617
3408300000		0.83016	146.7784
3508250000		0.83091	145.974
3608200000		0.83092	145.2268
3708150000		0.83183	144.4209
3808100000		0.83188	143.631
3908050000		0.83267	142.8149
4008000000		0.83377	141.999
4107950000		0.83537	141.1772
4207900000		0.83648	140.4247
4307850000		0.83788	139.5025
4407800000		0.83956	138.7358
4507750000		0.84071	137.6744
4607700000		0.84229	136.8402
4707650000		0.84325	135.765
4807600000		0.84448	134.9104
4907550000		0.84575	133.8099
5007500000		0.84656	132.8569
5107450000		0.84776	131.7021
5207400000		0.84816	130.7462
5307350000		0.84885	129.6626
5407300000		0.84707	128.5798
5507250000		0.84632	127.5917
5607200000		0.84455	126.7696
5707150000		0.84417	125.8567
5807100000		0.8429	124.889
5907050000		0.84325	123.9537
6007000000		0.84233	123.0503
6106950000		0.84165	122.0796
6206900000		0.84174	121.3296
6306850000		0.84184	120.5175
6406800000		0.84381	119.5614
6506750000		0.84488	118.6698
6606700000		0.84509	117.694
6706650000		0.84634	116.8631
6806600000		0.84593	115.7063
6906550000		0.84563	114.8457
7006500000		0.84447	113.6936
7106450000		0.84402	113.0748
7206400000		0.84563	111.9841
7306350000		0.84651	111.2543
7406300000		0.84721	110.1354
7506250000		0.84605	109.336
7606200000		0.84693	108.4139
7706150000		0.84394	107.5534
7806100000		0.84615	106.757
!
!				Infineon Technologies AG
