! Infineon Technologies  Discrete & RF Semiconductors
! BAT63-02V
! IAC = 6 mA
! One-Port S-Parameters
# Hz  S  MA  R  50
!f									S11
!Hz							Mag  Ang
309850000		0.74691	176.3549
409800000		0.74659	175.351
509750000		0.74568	174.2406
609700000		0.74528	173.3085
709650000		0.7441	172.1798
809600000		0.74426	171.1817
909550000		0.74322	170.183
1009500000		0.74397	169.1906
1109450000		0.74324	168.2165
1209400000		0.74351	167.1528
1309350000		0.74331	166.2942
1409300000		0.74407	165.2045
1509250000		0.74408	164.4032
1609200000		0.74436	163.3325
1709150000		0.74581	162.5879
1809100000		0.74685	161.4778
1909050000		0.74679	160.7863
2009000000		0.74775	159.5448
2108950000		0.74904	158.9388
2208900000		0.74983	157.8042
2308850000		0.75094	157.1677
2408800000		0.75097	156.0904
2508750000		0.75226	155.3333
2608700000		0.75237	154.3339
2708650000		0.75324	153.473
2808600000		0.75286	152.5919
2908550000		0.75383	151.7422
3008500000		0.75348	150.851
3108450000		0.75425	150.0271
3208400000		0.75471	149.1912
3308350000		0.75483	148.3622
3408300000		0.75481	147.5464
3508250000		0.75594	146.7588
3608200000		0.75624	146.0642
3708150000		0.75764	145.2336
3808100000		0.75806	144.4637
3908050000		0.75925	143.6334
4008000000		0.76056	142.8698
4107950000		0.76245	142.0654
4207900000		0.76378	141.3304
4307850000		0.76557	140.393
4407800000		0.76735	139.684
4507750000		0.76866	138.6441
4607700000		0.77062	137.8326
4707650000		0.77182	136.7726
4807600000		0.77344	135.9447
4907550000		0.77506	134.865
5007500000		0.7762	133.9425
5107450000		0.77798	132.797
5207400000		0.77892	131.8621
5307350000		0.78027	130.7954
5407300000		0.77913	129.7311
5507250000		0.77916	128.756
5607200000		0.77805	127.9468
5707150000		0.77852	127.0536
5807100000		0.77779	126.0963
5907050000		0.77897	125.1759
6007000000		0.77864	124.2811
6106950000		0.77876	123.3213
6206900000		0.77961	122.5775
6306850000		0.78043	121.7708
6406800000		0.78284	120.8205
6506750000		0.78447	119.9375
6606700000		0.78531	118.9681
6706650000		0.78708	118.1411
6806600000		0.78732	116.9943
6906550000		0.78774	116.1503
7006500000		0.7873	115.0055
7106450000		0.78769	114.3986
7206400000		0.79017	113.2935
7306350000		0.79168	112.5653
7406300000		0.79309	111.4364
7506250000		0.79257	110.6408
7606200000		0.79404	109.7153
7706150000		0.79178	108.8626
7806100000		0.7946	108.0738
!
!				Infineon Technologies AG
