! Infineon Technologies  Discrete & RF Semiconductors
! BAT63-02V
! VCA = 0.7 V
! One-Port S-Parameters
# Hz  S  MA  R  50
!f									S11
!Hz							Mag  Ang
309850000		1.0014	-5.4352
409800000		1.0004	-7.1933
509750000		1.0011	-8.8713
609700000		1.0009	-10.7484
709650000		1.0014	-12.3812
809600000		1.0011	-14.2816
909550000		1.0004	-16.0627
1009500000		1.0004	-17.8398
1109450000		1.0004	-19.7265
1209400000		0.99941	-21.4782
1309350000		0.99929	-23.4351
1409300000		0.99868	-25.209
1509250000		0.99759	-27.3016
1609200000		0.99586	-29.0337
1709150000		0.99462	-31.1231
1809100000		0.99288	-32.9292
1909050000		0.99154	-35.0492
2009000000		0.98993	-36.7134
2108950000		0.98878	-38.9273
2208900000		0.98818	-40.7051
2308850000		0.98647	-42.9341
2408800000		0.98675	-44.7837
2508750000		0.98667	-46.9044
2608700000		0.98688	-48.8187
2708650000		0.98686	-51.019
2808600000		0.987	-53.057
2908550000		0.98684	-55.2318
3008500000		0.98715	-57.4164
3108450000		0.98604	-59.683
3208400000		0.98533	-61.8867
3308350000		0.98503	-64.164
3408300000		0.9847	-66.4643
3508250000		0.98209	-68.77
3608200000		0.98039	-71.0948
3708150000		0.97773	-73.3779
3808100000		0.97577	-75.6847
3908050000		0.97289	-77.9461
4008000000		0.97054	-80.2182
4107950000		0.96746	-82.4639
4207900000		0.96492	-84.7418
4307850000		0.96228	-86.8903
4407800000		0.96024	-89.162
4507750000		0.95837	-91.2094
4607700000		0.95679	-93.5067
4707650000		0.9554	-95.6009
4807600000		0.9548	-97.8844
4907550000		0.9535	-100.0443
5007500000		0.95331	-102.3093
5107450000		0.95223	-104.5531
5207400000		0.95239	-106.9272
5307350000		0.95168	-109.4216
5407300000		0.95063	-111.7901
5507250000		0.94869	-114.2299
5607200000		0.94738	-116.5799
5707150000		0.9476	-119.1066
5807100000		0.94683	-121.4921
5907050000		0.9462	-124.0998
6007000000		0.94486	-126.5414
6106950000		0.94218	-129.1325
6206900000		0.9404	-131.708
6306850000		0.93885	-134.2534
6406800000		0.93705	-136.7577
6506750000		0.93554	-139.363
6606700000		0.93355	-141.8515
6706650000		0.9326	-144.3797
6806600000		0.93014	-146.9343
6906550000		0.9295	-149.4695
7006500000		0.92638	-152.1326
7106450000		0.92623	-154.6812
7206400000		0.92241	-157.4489
7306350000		0.92095	-159.9563
7406300000		0.91631	-162.6868
7506250000		0.91441	-165.0654
7606200000		0.91158	-167.7028
7706150000		0.90946	-169.9001
7806100000		0.9106	-172.4624
!
!				Infineon Technologies AG
