! Infineon Technologies  Discrete & RF Semiconductors
! BAT63-02V
! VCA = 0.4 V
! One-Port S-Parameters
# Hz  S  MA  R  50
!f									S11
!Hz							Mag  Ang
309850000		1.0016	-6.0114
409800000		1.0004	-7.9128
509750000		1.001	-9.7658
609700000		1.0007	-11.8191
709650000		1.0012	-13.6307
809600000		1.0009	-15.7055
909550000		1.0002	-17.6648
1009500000		1.0001	-19.6249
1109450000		1	-21.6898
1209400000		0.99897	-23.6229
1309350000		0.99867	-25.7572
1409300000		0.99792	-27.7185
1509250000		0.99671	-29.9908
1609200000		0.99475	-31.9066
1709150000		0.9935	-34.1735
1809100000		0.99166	-36.1615
1909050000		0.99017	-38.4574
2009000000		0.98834	-40.3081
2108950000		0.98722	-42.7014
2208900000		0.98633	-44.6318
2308850000		0.98479	-47.1071
2408800000		0.9846	-49.061
2508750000		0.98466	-51.4035
2608700000		0.9848	-53.497
2708650000		0.98461	-55.8782
2808600000		0.98475	-58.1277
2908550000		0.98442	-60.4828
3008500000		0.98441	-62.8385
3108450000		0.98264	-65.2053
3208400000		0.98213	-67.6402
3308350000		0.98128	-70.0564
3408300000		0.98075	-72.5169
3508250000		0.97768	-74.9447
3608200000		0.97586	-77.4444
3708150000		0.97294	-79.8701
3808100000		0.9708	-82.3032
3908050000		0.96782	-84.6989
4008000000		0.96535	-87.0956
4107950000		0.96222	-89.4598
4207900000		0.95955	-91.8421
4307850000		0.95697	-94.1159
4407800000		0.95496	-96.4834
4507750000		0.95316	-98.6459
4607700000		0.95169	-101.0429
4707650000		0.95038	-103.2632
4807600000		0.94989	-105.644
4907550000		0.94874	-107.9178
5007500000		0.94868	-110.2739
5107450000		0.94765	-112.6404
5207400000		0.94786	-115.1052
5307350000		0.94724	-117.7015
5407300000		0.94595	-120.1543
5507250000		0.94397	-122.6834
5607200000		0.94249	-125.0827
5707150000		0.94269	-127.675
5807100000		0.94164	-130.1151
5907050000		0.94092	-132.7861
6007000000		0.93949	-135.2562
6106950000		0.93672	-137.8889
6206900000		0.93492	-140.4722
6306850000		0.93333	-143.0225
6406800000		0.93172	-145.547
6506750000		0.93028	-148.1361
6606700000		0.92834	-150.6273
6706650000		0.92758	-153.122
6806600000		0.92519	-155.6827
6906550000		0.92468	-158.1738
7006500000		0.92166	-160.8352
7106450000		0.92165	-163.3182
7206400000		0.91812	-166.0728
7306350000		0.91679	-168.4945
7406300000		0.91226	-171.1874
7506250000		0.91047	-173.4885
7606200000		0.9079	-176.0514
7706150000		0.90553	-178.1719
7806100000		0.90699	179.3608
!
!				Infineon Technologies AG
