! Infineon Technologies  Discrete & RF Semiconductors
! BAT63-02V
! IAC = 5 mA
! One-Port S-Parameters
# Hz  S  MA  R  50
!f									S11
!Hz							Mag  Ang
309850000		0.71889	176.3853
409800000		0.71848	175.426
509750000		0.71782	174.291
609700000		0.71745	173.3699
709650000		0.71646	172.2185
809600000		0.71656	171.2668
909550000		0.71565	170.2799
1009500000		0.71651	169.2987
1109450000		0.71586	168.336
1209400000		0.71622	167.2817
1309350000		0.7161	166.4344
1409300000		0.71696	165.3533
1509250000		0.71708	164.5665
1609200000		0.71769	163.4701
1709150000		0.71902	162.7684
1809100000		0.72023	161.667
1909050000		0.7204	160.9571
2009000000		0.72128	159.7573
2108950000		0.72255	159.1985
2208900000		0.72355	158.0377
2308850000		0.72481	157.4203
2408800000		0.72491	156.3508
2508750000		0.72632	155.6083
2608700000		0.72656	154.6181
2708650000		0.72761	153.7707
2808600000		0.72755	152.8665
2908550000		0.72854	152.0624
3008500000		0.72856	151.1396
3108450000		0.72931	150.3603
3208400000		0.73	149.5346
3308350000		0.73024	148.7118
3408300000		0.73043	147.9095
3508250000		0.73165	147.1272
3608200000		0.73238	146.4047
3708150000		0.7337	145.617
3808100000		0.73426	144.8572
3908050000		0.73556	144.0352
4008000000		0.73706	143.2787
4107950000		0.73896	142.4818
4207900000		0.74046	141.7571
4307850000		0.74216	140.8568
4407800000		0.74426	140.1252
4507750000		0.74569	139.0954
4607700000		0.74769	138.293
4707650000		0.749	137.2411
4807600000		0.75079	136.4272
4907550000		0.75253	135.3533
5007500000		0.75379	134.4388
5107450000		0.75582	133.2978
5207400000		0.75695	132.3737
5307350000		0.75849	131.3128
5407300000		0.75755	130.2561
5507250000		0.75788	129.2844
5607200000		0.75701	128.4833
5707150000		0.75774	127.5932
5807100000		0.75722	126.6428
5907050000		0.75874	125.7257
6007000000		0.75856	124.838
6106950000		0.75898	123.8762
6206900000		0.76011	123.1377
6306850000		0.76115	122.3322
6406800000		0.76377	121.3843
6506750000		0.7656	120.5051
6606700000		0.76664	119.5333
6706650000		0.76862	118.7116
6806600000		0.76908	117.5663
6906550000		0.76967	116.7246
7006500000		0.76965	115.5786
7106450000		0.7703	114.9798
7206400000		0.77304	113.8713
7306350000		0.77476	113.1402
7406300000		0.77636	112.0036
7506250000		0.7761	111.2108
7606200000		0.7778	110.2886
7706150000		0.77572	109.4298
7806100000		0.77878	108.6463
!
!				Infineon Technologies AG
