! Infineon Technologies  Discrete & RF Semiconductors
! BAT63-02V
! IAC = 40 mA
! One-Port S-Parameters
# Hz  S  MA  R  50
!f									S11
!Hz							Mag  Ang
309850000		0.85354	176.301
409800000		0.85278	175.298
509750000		0.85187	174.1332
609700000		0.85113	173.1717
709650000		0.84999	171.9884
809600000		0.84964	170.9935
909550000		0.84831	169.9705
1009500000		0.8486	168.958
1109450000		0.84755	167.9579
1209400000		0.84739	166.8728
1309350000		0.84702	165.99
1409300000		0.84729	164.8842
1509250000		0.84693	164.0636
1609200000		0.84696	162.9426
1709150000		0.84789	162.2016
1809100000		0.84871	161.0755
1909050000		0.84848	160.316
2009000000		0.84886	159.0908
2108950000		0.84962	158.4453
2208900000		0.85013	157.2879
2308850000		0.8508	156.62
2408800000		0.85065	155.5206
2508750000		0.85115	154.7627
2608700000		0.85121	153.6661
2708650000		0.85134	152.8124
2808600000		0.85041	151.8743
2908550000		0.85051	151.0641
3008500000		0.84976	150.0962
3108450000		0.84985	149.2844
3208400000		0.84979	148.4312
3308350000		0.84895	147.6109
3408300000		0.84854	146.7413
3508250000		0.84917	145.9416
3608200000		0.84912	145.1938
3708150000		0.84984	144.3847
3808100000		0.84989	143.5931
3908050000		0.85079	142.7451
4008000000		0.85165	141.9644
4107950000		0.85321	141.1416
4207900000		0.85429	140.387
4307850000		0.85586	139.4322
4407800000		0.85729	138.6979
4507750000		0.85839	137.6332
4607700000		0.8599	136.7979
4707650000		0.86081	135.7216
4807600000		0.86197	134.8626
4907550000		0.86322	133.7619
5007500000		0.86399	132.8064
5107450000		0.8651	131.6484
5207400000		0.86537	130.6887
5307350000		0.86591	129.603
5407300000		0.86402	128.5191
5507250000		0.86304	127.528
5607200000		0.86119	126.7062
5707150000		0.86065	125.7903
5807100000		0.8592	124.8207
5907050000		0.85938	123.8854
6007000000		0.8583	122.9785
6106950000		0.85749	122.0098
6206900000		0.85741	121.2568
6306850000		0.8574	120.4456
6406800000		0.85919	119.4917
6506750000		0.86011	118.5978
6606700000		0.86027	117.6209
6706650000		0.86144	116.7891
6806600000		0.8609	115.6348
6906550000		0.86044	114.7728
7006500000		0.85904	113.6203
7106450000		0.85843	112.9986
7206400000		0.85993	111.9107
7306350000		0.86063	111.1828
7406300000		0.8611	110.0646
7506250000		0.85984	109.2681
7606200000		0.86051	108.3431
7706150000		0.85746	107.4808
7806100000		0.85949	106.6833
!
!				Infineon Technologies AG
