! Infineon Technologies  Discrete & RF Semiconductors
! BAT63-02V
! IAC = 80 mA
! One-Port S-Parameters
# Hz  S  MA  R  50
!f									S11
!Hz							Mag  Ang
309850000		0.82077	176.3417
409800000		0.82018	175.3072
509750000		0.81936	174.1408
609700000		0.81875	173.1829
709650000		0.81767	171.9971
809600000		0.8174	171.0041
909550000		0.81622	169.981
1009500000		0.8166	168.9708
1109450000		0.81563	167.9725
1209400000		0.8156	166.888
1309350000		0.81527	166.0036
1409300000		0.81569	164.9032
1509250000		0.81548	164.0778
1609200000		0.81562	162.959
1709150000		0.81657	162.227
1809100000		0.81751	161.0989
1909050000		0.81736	160.3421
2009000000		0.8177	159.1497
2108950000		0.81878	158.4781
2208900000		0.81918	157.354
2308850000		0.82022	156.6574
2408800000		0.82012	155.5578
2508750000		0.82094	154.7704
2608700000		0.82093	153.7132
2708650000		0.82126	152.861
2808600000		0.82056	151.9243
2908550000		0.82098	151.0847
3008500000		0.82022	150.1536
3108450000		0.82045	149.341
3208400000		0.82051	148.4878
3308350000		0.82012	147.641
3408300000		0.81967	146.8045
3508250000		0.82043	146.0006
3608200000		0.82047	145.2531
3708150000		0.82147	144.4492
3808100000		0.82156	143.6578
3908050000		0.82254	142.8105
4008000000		0.82354	142.0282
4107950000		0.82514	141.2066
4207900000		0.82628	140.4566
4307850000		0.82788	139.5017
4407800000		0.82937	138.7701
4507750000		0.83059	137.7077
4607700000		0.83217	136.8738
4707650000		0.8331	135.8012
4807600000		0.83442	134.9475
4907550000		0.83574	133.8496
5007500000		0.83652	132.8996
5107450000		0.83782	131.7432
5207400000		0.83832	130.7913
5307350000		0.83911	129.7073
5407300000		0.83737	128.623
5507250000		0.83674	127.6363
5607200000		0.83508	126.8159
5707150000		0.83481	125.9046
5807100000		0.83347	124.9362
5907050000		0.83398	123.9999
6007000000		0.83313	123.0977
6106950000		0.8326	122.1273
6206900000		0.83275	121.3819
6306850000		0.83299	120.5646
6406800000		0.83492	119.61
6506750000		0.83614	118.7204
6606700000		0.83647	117.7473
6706650000		0.83776	116.9158
6806600000		0.83745	115.7573
6906550000		0.83714	114.9015
7006500000		0.83614	113.747
7106450000		0.83583	113.1358
7206400000		0.83749	112.0382
7306350000		0.83841	111.3114
7406300000		0.83926	110.1897
7506250000		0.83825	109.3962
7606200000		0.83912	108.4698
7706150000		0.83621	107.6122
7806100000		0.83843	106.8094
!
!				Infineon Technologies AG
