! Infineon Technologies  Discrete & RF Semiconductors
! BAT63-02V
! IAC = 0.8 mA
! One-Port S-Parameters
# Hz  S  MA  R  50
!f									S11
!Hz							Mag  Ang
309850000		0.08846	-169.7895
409800000		0.09336	-167.0654
509750000		0.09664	-164.378
609700000		0.10263	-161.3563
709650000		0.10473	-157.9311
809600000		0.1119	-155.5838
909550000		0.11814	-152.9807
1009500000		0.12687	-152.999
1109450000		0.13305	-151.5208
1209400000		0.14023	-152.539
1309350000		0.1488	-151.0815
1409300000		0.15683	-151.617
1509250000		0.16773	-151.8986
1609200000		0.17515	-152.568
1709150000		0.18277	-152.2353
1809100000		0.19252	-153.3535
1909050000		0.20279	-154.1978
2009000000		0.21109	-155.6667
2108950000		0.22247	-155.4908
2208900000		0.23049	-156.3968
2308850000		0.24203	-157.017
2408800000		0.24823	-157.4035
2508750000		0.25881	-158.2251
2608700000		0.26771	-159.2284
2708650000		0.27767	-160.4224
2808600000		0.28751	-161.2911
2908550000		0.29714	-162.4156
3008500000		0.30389	-164.262
3108450000		0.31371	-165.2545
3208400000		0.32302	-166.4067
3308350000		0.33272	-167.346
3408300000		0.342	-168.6495
3508250000		0.35145	-169.8608
3608200000		0.35994	-171.2678
3708150000		0.36944	-172.5563
3808100000		0.37784	-173.6094
3908050000		0.38648	-174.8785
4008000000		0.39535	-176.3197
4107950000		0.40411	-177.6473
4207900000		0.41312	-178.5236
4307850000		0.42109	-179.6526
4407800000		0.43035	178.9779
4507750000		0.43747	177.5699
4607700000		0.4463	176.2453
4707650000		0.45375	175.0671
4807600000		0.46247	173.7961
4907550000		0.47008	172.4286
5007500000		0.47828	171.0514
5107450000		0.48567	169.1991
5207400000		0.49426	167.9825
5307350000		0.50286	166.5022
5407300000		0.50885	165.0722
5507250000		0.51559	163.3843
5607200000		0.52169	162.1303
5707150000		0.52966	160.7324
5807100000		0.53572	159.4336
5907050000		0.54349	157.811
6007000000		0.54984	156.6039
6106950000		0.55637	155.1615
6206900000		0.56366	153.8862
6306850000		0.57064	152.5111
6406800000		0.5779	151.0149
6506750000		0.58522	149.6299
6606700000		0.59127	148.1852
6706650000		0.5984	146.8518
6806600000		0.60382	145.2939
6906550000		0.60998	143.9371
7006500000		0.61527	142.3509
7106450000		0.62259	141.2607
7206400000		0.62932	139.5366
7306350000		0.63561	138.3229
7406300000		0.64052	136.5707
7506250000		0.64541	135.4585
7606200000		0.65141	134.0473
7706150000		0.6537	132.8531
7806100000		0.66173	131.6207
!
!				Infineon Technologies AG
