! Infineon Technologies  Discrete & RF Semiconductors
! BAT63-02V
! IAC = 0.6 mA
! One-Port S-Parameters
# Hz  S  MA  R  50
!f									S11
!Hz							Mag  Ang
309850000		0.07614	-26.5694
409800000		0.07735	-35.1556
509750000		0.08174	-42.6324
609700000		0.08696	-51.4041
709650000		0.09658	-56.4715
809600000		0.10283	-64.1545
909550000		0.11321	-69.4885
1009500000		0.11895	-75.4111
1109450000		0.12885	-79.1703
1209400000		0.13191	-84.346
1309350000		0.14362	-88.7349
1409300000		0.15092	-93.113
1509250000		0.16072	-98.1682
1609200000		0.16856	-101.6073
1709150000		0.17956	-103.3884
1809100000		0.18853	-107.5594
1909050000		0.19756	-111.4959
2009000000		0.2044	-115.3018
2108950000		0.21924	-117.468
2208900000		0.22804	-120.1865
2308850000		0.24039	-123.0963
2408800000		0.24913	-124.7826
2508750000		0.26075	-127.1929
2608700000		0.27086	-129.5269
2708650000		0.28107	-132.2364
2808600000		0.29305	-134.207
2908550000		0.30321	-136.6683
3008500000		0.30888	-139.3496
3108450000		0.3199	-141.5062
3208400000		0.33046	-143.4918
3308350000		0.34166	-145.4794
3408300000		0.3512	-147.7234
3508250000		0.36138	-149.8237
3608200000		0.37011	-151.9408
3708150000		0.37999	-154.0334
3808100000		0.38917	-155.8336
3908050000		0.39812	-157.8241
4008000000		0.40695	-159.9451
4107950000		0.41597	-161.8581
4207900000		0.42661	-163.237
4307850000		0.43559	-164.8046
4407800000		0.44467	-166.7891
4507750000		0.45212	-168.6851
4607700000		0.46115	-170.4589
4707650000		0.47006	-171.9716
4807600000		0.47899	-173.6855
4907550000		0.48721	-175.4194
5007500000		0.49568	-177.2221
5107450000		0.50278	-179.4023
5207400000		0.51221	178.9893
5307350000		0.52138	177.1471
5407300000		0.52787	175.3987
5507250000		0.53441	173.3765
5607200000		0.54079	171.8108
5707150000		0.54921	170.0963
5807100000		0.55586	168.514
5907050000		0.5634	166.5665
6007000000		0.57034	165.0957
6106950000		0.57716	163.3864
6206900000		0.5847	161.8366
6306850000		0.59155	160.1716
6406800000		0.5987	158.4292
6506750000		0.60614	156.7988
6606700000		0.61221	155.13
6706650000		0.61926	153.5605
6806600000		0.62473	151.8031
6906550000		0.63089	150.2251
7006500000		0.63627	148.4428
7106450000		0.64372	147.1211
7206400000		0.65006	145.2051
7306350000		0.65631	143.7991
7406300000		0.66068	141.8702
7506250000		0.66572	140.5917
7606200000		0.67158	139.0021
7706150000		0.6738	137.6612
7806100000		0.68187	136.2588
!
!				Infineon Technologies AG
