! Infineon Technologies  Discrete & RF Semiconductors
! BAT63-02V
! IAC = 0.9 mA
! One-Port S-Parameters
# Hz  S  MA  R  50
!f									S11
!Hz							Mag  Ang
309850000		0.1489	-176.6661
409800000		0.15258	-175.5351
509750000		0.1545	-174.4945
609700000		0.15848	-172.9474
709650000		0.1585	-171.4157
809600000		0.16287	-169.9141
909550000		0.16646	-168.3437
1009500000		0.17365	-168.1512
1109450000		0.17756	-167.179
1209400000		0.18354	-167.644
1309350000		0.18906	-166.3701
1409300000		0.19547	-166.5701
1509250000		0.20415	-166.3012
1609200000		0.21016	-166.6972
1709150000		0.21626	-166.3602
1809100000		0.22447	-166.9533
1909050000		0.23315	-167.1789
2009000000		0.2403	-168.1289
2108950000		0.24961	-167.7207
2208900000		0.2562	-168.3014
2308850000		0.26608	-168.4478
2408800000		0.27061	-168.6641
2508750000		0.27997	-169.1428
2608700000		0.28752	-169.8132
2708650000		0.29646	-170.6265
2808600000		0.30485	-171.2094
2908550000		0.31341	-172.0038
3008500000		0.31985	-173.4828
3108450000		0.32854	-174.208
3208400000		0.3369	-175.1157
3308350000		0.3454	-175.8077
3408300000		0.35366	-176.7327
3508250000		0.36231	-177.7033
3608200000		0.37037	-178.9019
3708150000		0.37896	-179.8771
3808100000		0.38647	179.2971
3908050000		0.39443	178.2755
4008000000		0.40275	177.1211
4107950000		0.41108	175.9621
4207900000		0.41913	175.2347
4307850000		0.42651	174.2177
4407800000		0.43538	173.078
4507750000		0.44189	171.8676
4607700000		0.4503	170.7223
4707650000		0.45708	169.6403
4807600000		0.46532	168.5459
4907550000		0.47239	167.3025
5007500000		0.48014	166.0867
5107450000		0.48745	164.3767
5207400000		0.49538	163.2958
5307350000		0.50343	161.9509
5407300000		0.50904	160.6384
5507250000		0.51569	159.0908
5607200000		0.52129	157.9609
5707150000		0.52886	156.6922
5807100000		0.53453	155.5005
5907050000		0.5421	154.0103
6007000000		0.54801	152.9109
6106950000		0.55419	151.5723
6206900000		0.56116	150.4055
6306850000		0.56791	149.1493
6406800000		0.57509	147.7577
6506750000		0.58212	146.471
6606700000		0.58798	145.1175
6706650000		0.59496	143.8849
6806600000		0.60015	142.4113
6906550000		0.60615	141.144
7006500000		0.61129	139.6357
7106450000		0.61832	138.65
7206400000		0.62489	137.0041
7306350000		0.63112	135.8655
7406300000		0.63608	134.1853
7506250000		0.64072	133.1447
7606200000		0.64657	131.8021
7706150000		0.64885	130.6697
7806100000		0.65661	129.5048
!
!				Infineon Technologies AG
