! Infineon Technologies  Discrete & RF Semiconductors
! BAT63-02V
! VCA = 3 V
! One-Port S-Parameters
# Hz  S  MA  R  50
!f									S11
!Hz							Mag  Ang
309850000		1.0017	-4.5743
409800000		1.0005	-6.0155
509750000		1.0012	-7.4041
609700000		1.001	-8.9891
709650000		1.0015	-10.3323
809600000		1.0013	-11.9354
909550000		1.0007	-13.4289
1009500000		1.0008	-14.9065
1109450000		1.001	-16.499
1209400000		1.0002	-17.9463
1309350000		1.0001	-19.6074
1409300000		0.9996	-21.0754
1509250000		0.99875	-22.8712
1609200000		0.99722	-24.294
1709150000		0.99616	-26.0842
1809100000		0.99454	-27.5789
1909050000		0.99337	-29.4025
2009000000		0.99189	-30.7496
2108950000		0.99093	-32.6525
2208900000		0.99031	-34.081
2308850000		0.98897	-36.0735
2408800000		0.98913	-37.5424
2508750000		0.98929	-39.3872
2608700000		0.98972	-40.9864
2708650000		0.9895	-42.8274
2808600000		0.99038	-44.617
2908550000		0.99045	-46.4801
3008500000		0.99122	-48.3367
3108450000		0.99021	-50.2572
3208400000		0.99011	-52.1956
3308350000		0.98987	-54.0866
3408300000		0.99024	-56.1199
3508250000		0.98814	-58.1283
3608200000		0.98682	-60.1751
3708150000		0.98455	-62.1809
3808100000		0.98302	-64.2172
3908050000		0.98048	-66.2111
4008000000		0.97842	-68.225
4107950000		0.97559	-70.2169
4207900000		0.97314	-72.263
4307850000		0.97064	-74.1568
4407800000		0.96846	-76.2115
4507750000		0.96654	-78.0097
4607700000		0.96473	-80.0738
4707650000		0.96336	-81.9035
4807600000		0.96245	-83.9592
4907550000		0.96105	-85.8639
5007500000		0.96065	-87.9061
5107450000		0.95941	-89.8696
5207400000		0.9595	-92.0107
5307350000		0.95873	-94.2478
5407300000		0.95803	-96.3924
5507250000		0.95604	-98.5943
5607200000		0.95523	-100.7774
5707150000		0.95541	-103.0943
5807100000		0.95508	-105.2984
5907050000		0.9545	-107.7084
6007000000		0.95361	-110.0091
6106950000		0.95114	-112.4305
6206900000		0.94941	-114.8877
6306850000		0.94806	-117.3151
6406800000		0.94618	-119.7048
6506750000		0.94452	-122.2364
6606700000		0.94254	-124.6307
6706650000		0.94139	-127.1289
6806600000		0.93897	-129.5866
6906550000		0.93804	-132.1142
7006500000		0.9349	-134.6786
7106450000		0.93438	-137.2591
7206400000		0.93031	-139.9477
7306350000		0.9287	-142.5178
7406300000		0.92382	-145.2224
7506250000		0.922	-147.6874
7606200000		0.91871	-150.3764
7706150000		0.91715	-152.6577
7806100000		0.91763	-155.3228
!
!				Infineon Technologies AG
