! Infineon Technologies  Discrete & RF Semiconductors
! BAT63-02V
! IAC = 2 mA
! One-Port S-Parameters
# Hz  S  MA  R  50
!f									S11
!Hz							Mag  Ang
309850000		0.49419	176.9197
409800000		0.49495	176.132
509750000		0.49493	175.1934
609700000		0.49545	174.5048
709650000		0.49432	173.577
809600000		0.4946	172.9207
909550000		0.49457	172.174
1009500000		0.49703	171.3736
1109450000		0.49732	170.6223
1209400000		0.49885	169.7257
1309350000		0.49911	169.1294
1409300000		0.50107	168.2056
1509250000		0.50255	167.6396
1609200000		0.50435	166.6823
1709150000		0.50685	166.1652
1809100000		0.50926	165.2257
1909050000		0.51088	164.741
2009000000		0.51285	163.6683
2108950000		0.51595	163.3055
2208900000		0.51753	162.3547
2308850000		0.52021	162.0048
2408800000		0.52065	161.1026
2508750000		0.52367	160.6173
2608700000		0.52574	159.7022
2708650000		0.52826	159.1244
2808600000		0.53034	158.3745
2908550000		0.53299	157.6996
3008500000		0.53532	156.7926
3108450000		0.5378	156.1767
3208400000		0.54044	155.5
3308350000		0.54268	154.8003
3408300000		0.5448	154.1745
3508250000		0.5479	153.4704
3608200000		0.55112	152.7927
3708150000		0.55402	152.1247
3808100000		0.55612	151.5038
3908050000		0.55884	150.8327
4008000000		0.56247	150.1073
4107950000		0.56612	149.3884
4207900000		0.56912	148.7769
4307850000		0.57228	147.9423
4407800000		0.57626	147.3244
4507750000		0.57898	146.3858
4607700000		0.58296	145.6568
4707650000		0.58579	144.6916
4807600000		0.58945	143.9734
4907550000		0.59262	142.9758
5007500000		0.59598	142.144
5107450000		0.60035	140.9694
5207400000		0.60348	140.1448
5307350000		0.60724	139.1335
5407300000		0.60864	138.1267
5507250000		0.61191	137.1201
5607200000		0.61352	136.3458
5707150000		0.61693	135.4728
5807100000		0.61868	134.5695
5907050000		0.62289	133.6075
6007000000		0.62489	132.7648
6106950000		0.62767	131.7903
6206900000		0.63121	131.0244
6306850000		0.63474	130.2028
6406800000		0.63927	129.2161
6506750000		0.64327	128.3102
6606700000		0.64639	127.3103
6706650000		0.65052	126.4712
6806600000		0.65297	125.3084
6906550000		0.65614	124.4338
7006500000		0.65839	123.2481
7106450000		0.66199	122.6468
7206400000		0.66662	121.4176
7306350000		0.67064	120.6348
7406300000		0.67424	119.3688
7506250000		0.676	118.577
7606200000		0.67981	117.5846
7706150000		0.67978	116.7163
7806100000		0.68508	115.8845
!
!				Infineon Technologies AG
