! Infineon Technologies  Discrete & RF Semiconductors
! BAT63-02V
! IAC = 3 mA
! One-Port S-Parameters
# Hz  S  MA  R  50
!f									S11
!Hz							Mag  Ang
309850000		0.61348	176.5485
409800000		0.61362	175.6254
509750000		0.61324	174.5534
609700000		0.61324	173.705
709650000		0.61206	172.6552
809600000		0.61234	171.7846
909550000		0.61177	170.8742
1009500000		0.61331	169.953
1109450000		0.61302	169.0563
1209400000		0.61385	168.0591
1309350000		0.61394	167.2868
1409300000		0.61527	166.2525
1509250000		0.61587	165.5383
1609200000		0.61697	164.4871
1709150000		0.61878	163.8467
1809100000		0.62041	162.7972
1909050000		0.62106	162.1664
2009000000		0.62233	161.0227
2108950000		0.62442	160.507
2208900000		0.6255	159.4393
2308850000		0.62732	158.9031
2408800000		0.62735	157.9303
2508750000		0.62969	157.2271
2608700000		0.63058	156.2644
2708650000		0.63212	155.5505
2808600000		0.63303	154.6657
2908550000		0.63463	153.9205
3008500000		0.6356	153.0115
3108450000		0.63703	152.2942
3208400000		0.63849	151.5119
3308350000		0.63949	150.7464
3408300000		0.64051	149.9988
3508250000		0.64241	149.2572
3608200000		0.6441	148.5623
3708150000		0.64598	147.8213
3808100000		0.64706	147.1149
3908050000		0.64886	146.3387
4008000000		0.65114	145.6189
4107950000		0.6537	144.858
4207900000		0.65572	144.1782
4307850000		0.65803	143.2867
4407800000		0.66066	142.6311
4507750000		0.66253	141.6429
4607700000		0.66523	140.8823
4707650000		0.66714	139.8679
4807600000		0.66963	139.1006
4907550000		0.67186	138.0659
5007500000		0.67395	137.1956
5107450000		0.67697	136.0577
5207400000		0.67887	135.1789
5307350000		0.68133	134.1472
5407300000		0.68137	133.1168
5507250000		0.68297	132.1517
5607200000		0.68318	131.369
5707150000		0.68501	130.5013
5807100000		0.68546	129.5803
5907050000		0.68816	128.658
6007000000		0.68888	127.7994
6106950000		0.69035	126.8406
6206900000		0.69251	126.1081
6306850000		0.69466	125.3066
6406800000		0.69806	124.3562
6506750000		0.70086	123.4756
6606700000		0.70283	122.5069
6706650000		0.70569	121.6951
6806600000		0.70696	120.5486
6906550000		0.70874	119.716
7006500000		0.70978	118.5591
7106450000		0.71167	117.978
7206400000		0.71544	116.8242
7306350000		0.718	116.0939
7406300000		0.72069	114.9041
7506250000		0.7212	114.1284
7606200000		0.72396	113.1832
7706150000		0.72278	112.3404
7806100000		0.72686	111.5468
!
!				Infineon Technologies AG
