! Infineon Technologies  Discrete & RF Semiconductors
! BAT63-02V
! IAC = 9 mA
! One-Port S-Parameters
# Hz  S  MA  R  50
!f									S11
!Hz							Mag  Ang
309850000		0.79488	176.3239
409800000		0.79419	175.3363
509750000		0.79338	174.1769
609700000		0.79292	173.2293
709650000		0.79181	172.0525
809600000		0.79166	171.0694
909550000		0.79052	170.0589
1009500000		0.79099	169.0544
1109450000		0.79016	168.0647
1209400000		0.79023	166.9896
1309350000		0.79003	166.1177
1409300000		0.79052	165.0169
1509250000		0.7904	164.2028
1609200000		0.79065	163.0893
1709150000		0.79172	162.3629
1809100000		0.79269	161.2411
1909050000		0.79259	160.4974
2009000000		0.79321	159.2819
2108950000		0.79406	158.6861
2208900000		0.79492	157.5022
2308850000		0.79563	156.8816
2408800000		0.79579	155.7595
2508750000		0.79677	154.9844
2608700000		0.79674	153.9642
2708650000		0.79728	153.0928
2808600000		0.79662	152.1984
2908550000		0.79738	151.3326
3008500000		0.7968	150.4033
3108450000		0.79715	149.599
3208400000		0.79716	148.7901
3308350000		0.79711	147.9107
3408300000		0.79682	147.0848
3508250000		0.79776	146.2863
3608200000		0.79796	145.5459
3708150000		0.79893	144.7427
3808100000		0.7992	143.9582
3908050000		0.80028	143.1214
4008000000		0.80139	142.3466
4107950000		0.80305	141.5297
4207900000		0.80427	140.7839
4307850000		0.80577	139.8683
4407800000		0.80756	139.1135
4507750000		0.80876	138.0606
4607700000		0.81044	137.2375
4707650000		0.81158	136.1667
4807600000		0.81294	135.3248
4907550000		0.81441	134.2344
5007500000		0.81532	133.2925
5107450000		0.81679	132.1416
5207400000		0.81739	131.193
5307350000		0.81842	130.1179
5407300000		0.81692	129.0413
5507250000		0.81648	128.0624
5607200000		0.81498	127.2418
5707150000		0.81498	126.3399
5807100000		0.81391	125.373
5907050000		0.81463	124.4481
6007000000		0.81399	123.5467
6106950000		0.8136	122.581
6206900000		0.81404	121.8332
6306850000		0.81452	121.0244
6406800000		0.81663	120.072
6506750000		0.81795	119.1839
6606700000		0.81845	118.2097
6706650000		0.81995	117.3789
6806600000		0.81985	116.2257
6906550000		0.81974	115.3787
7006500000		0.81895	114.2236
7106450000		0.81877	113.6167
7206400000		0.82098	112.5131
7306350000		0.82204	111.795
7406300000		0.82297	110.6642
7506250000		0.8222	109.8679
7606200000		0.82321	108.9466
7706150000		0.82061	108.0845
7806100000		0.82309	107.296
!
!				Infineon Technologies AG
