! Infineon Technologies  Discrete & RF Semiconductors
! BAT63-02V
! VCA = 2 V
! One-Port S-Parameters
# Hz  S  MA  R  50
!f									S11
!Hz							Mag  Ang
309850000		1.0014	-4.7109
409800000		1.0005	-6.2375
509750000		1.0012	-7.6803
609700000		1.0009	-9.3229
709650000		1.0015	-10.7202
809600000		1.0013	-12.3776
909550000		1.0007	-13.9249
1009500000		1.0007	-15.458
1109450000		1.0009	-17.107
1209400000		0.99996	-18.6134
1309350000		0.99997	-20.3307
1409300000		0.99954	-21.8541
1509250000		0.99859	-23.7047
1609200000		0.99704	-25.1892
1709150000		0.99592	-27.0379
1809100000		0.99431	-28.5879
1909050000		0.99312	-30.4692
2009000000		0.99165	-31.8753
2108950000		0.99053	-33.8377
2208900000		0.98993	-35.3265
2308850000		0.98861	-37.3774
2408800000		0.98894	-38.9479
2508750000		0.9888	-40.8097
2608700000		0.98923	-42.4684
2708650000		0.98909	-44.3766
2808600000		0.98992	-46.2261
2908550000		0.9899	-48.1485
3008500000		0.99059	-50.0724
3108450000		0.98944	-52.0535
3208400000		0.98938	-54.0504
3308350000		0.98912	-56.0045
3408300000		0.98929	-58.1009
3508250000		0.98707	-60.1679
3608200000		0.98575	-62.272
3708150000		0.98342	-64.334
3808100000		0.98176	-66.4269
3908050000		0.97916	-68.4724
4008000000		0.97709	-70.5435
4107950000		0.97418	-72.5867
4207900000		0.97175	-74.6814
4307850000		0.96917	-76.629
4407800000		0.96708	-78.7297
4507750000		0.96513	-80.5807
4607700000		0.96334	-82.6963
4707650000		0.96198	-84.5795
4807600000		0.96115	-86.6868
4907550000		0.95966	-88.6445
5007500000		0.95935	-90.7346
5107450000		0.9582	-92.7601
5207400000		0.95824	-94.9534
5307350000		0.95746	-97.2476
5407300000		0.95673	-99.4437
5507250000		0.95479	-101.6999
5607200000		0.95388	-103.9233
5707150000		0.95404	-106.289
5807100000		0.95368	-108.5387
5907050000		0.9531	-110.9956
6007000000		0.95204	-113.3352
6106950000		0.94955	-115.7952
6206900000		0.94786	-118.2931
6306850000		0.94641	-120.7492
6406800000		0.94454	-123.1785
6506750000		0.94288	-125.7278
6606700000		0.94091	-128.156
6706650000		0.93981	-130.6675
6806600000		0.93738	-133.153
6906550000		0.93651	-135.6936
7006500000		0.93333	-138.293
7106450000		0.9329	-140.8755
7206400000		0.92888	-143.59
7306350000		0.92728	-146.1622
7406300000		0.92239	-148.8854
7506250000		0.92058	-151.3362
7606200000		0.91738	-154.0278
7706150000		0.91566	-156.3008
7806100000		0.91633	-158.9553
!
!				Infineon Technologies AG
