! Infineon Technologies  Discrete & RF Semiconductors
! BAT63-02V
! IAC = 0.4 mA
! One-Port S-Parameters
# Hz  S  MA  R  50
!f									S11
!Hz							Mag  Ang
309850000		0.28759	-12.1298
409800000		0.28664	-15.9849
509750000		0.28814	-19.8763
609700000		0.28867	-24.3344
709650000		0.29533	-28.2561
809600000		0.29276	-32.9097
909550000		0.29868	-37.267
1009500000		0.30049	-41.19
1109450000		0.30751	-44.9926
1209400000		0.30348	-48.604
1309350000		0.30821	-53.1789
1409300000		0.30965	-57.1802
1509250000		0.31129	-61.8623
1609200000		0.31479	-65.5513
1709150000		0.32703	-68.4135
1809100000		0.32939	-72.6995
1909050000		0.33058	-76.8799
2009000000		0.33008	-80.8454
2108950000		0.34336	-84.4575
2208900000		0.34772	-87.9886
2308850000		0.35485	-91.8707
2408800000		0.36154	-94.7211
2508750000		0.37038	-98.0403
2608700000		0.378	-101.2578
2708650000		0.38388	-104.7855
2808600000		0.39557	-107.7078
2908550000		0.40181	-111.0342
3008500000		0.40425	-114.1535
3108450000		0.41256	-117.1937
3208400000		0.42267	-119.9046
3308350000		0.43185	-122.8236
3408300000		0.43839	-125.8379
3508250000		0.44612	-128.7107
3608200000		0.45338	-131.3751
3708150000		0.46052	-134.2097
3808100000		0.46762	-136.7294
3908050000		0.47424	-139.4341
4008000000		0.48046	-142.1128
4107950000		0.48777	-144.5725
4207900000		0.49851	-146.5731
4307850000		0.5074	-148.6792
4407800000		0.51394	-151.2119
4507750000		0.51963	-153.5384
4607700000		0.52752	-155.8309
4707650000		0.5369	-157.7118
4807600000		0.5445	-159.9584
4907550000		0.55211	-162.1001
5007500000		0.55925	-164.3457
5107450000		0.56501	-166.813
5207400000		0.57388	-168.8851
5307350000		0.58239	-171.1425
5407300000		0.58817	-173.2565
5507250000		0.5932	-175.6124
5607200000		0.5988	-177.5199
5707150000		0.6067	-179.5879
5807100000		0.61274	178.4881
5907050000		0.61886	176.2019
6007000000		0.62549	174.4053
6106950000		0.63153	172.3902
6206900000		0.63826	170.5227
6306850000		0.64384	168.5451
6406800000		0.64994	166.5338
6506750000		0.65659	164.6308
6606700000		0.66174	162.7092
6706650000		0.6678	160.8728
6806600000		0.6725	158.8918
6906550000		0.67782	157.0709
7006500000		0.68257	155.0647
7106450000		0.68911	153.4758
7206400000		0.69425	151.3672
7306350000		0.69971	149.7249
7406300000		0.70284	147.6201
7506250000		0.70715	146.1385
7606200000		0.71203	144.3622
7706150000		0.71384	142.8546
7806100000		0.72112	141.2477
!
!				Infineon Technologies AG
