! Infineon Technologies  Discrete & RF Semiconductors
! BAT63-02V
! VCA = 0.6 V
! One-Port S-Parameters
# Hz  S  MA  R  50
!f									S11
!Hz							Mag  Ang
309850000		1.0016	-5.6128
409800000		1.0004	-7.3857
509750000		1.0011	-9.111
609700000		1.0008	-11.0337
709650000		1.0014	-12.7141
809600000		1.0008	-14.6279
909550000		1.0003	-16.4902
1009500000		1.0003	-18.3172
1109450000		1.0003	-20.2513
1209400000		0.99933	-22.0505
1309350000		0.99912	-24.0564
1409300000		0.99846	-25.8807
1509250000		0.99733	-28.0232
1609200000		0.99556	-29.8043
1709150000		0.99431	-31.942
1809100000		0.99256	-33.7945
1909050000		0.99119	-35.9623
2009000000		0.98951	-37.6756
2108950000		0.98836	-39.9383
2208900000		0.98777	-41.7652
2308850000		0.98613	-44.078
2408800000		0.98621	-45.9424
2508750000		0.98613	-48.114
2608700000		0.98638	-50.0741
2708650000		0.98624	-52.3241
2808600000		0.98655	-54.447
2908550000		0.98635	-56.6714
3008500000		0.98657	-58.8994
3108450000		0.98518	-61.1809
3208400000		0.98466	-63.4624
3308350000		0.9838	-65.7204
3408300000		0.98369	-68.1007
3508250000		0.98103	-70.4494
3608200000		0.97919	-72.8131
3708150000		0.97644	-75.1384
3808100000		0.97447	-77.4796
3908050000		0.97156	-79.78
4008000000		0.96921	-82.0877
4107950000		0.9661	-84.3682
4207900000		0.96353	-86.6757
4307850000		0.96089	-88.8638
4407800000		0.95886	-91.1611
4507750000		0.95704	-93.2438
4607700000		0.95549	-95.5694
4707650000		0.95402	-97.7012
4807600000		0.95348	-100.0113
4907550000		0.95219	-102.2073
5007500000		0.95207	-104.4983
5107450000		0.95095	-106.7776
5207400000		0.95112	-109.1808
5307350000		0.95051	-111.7072
5407300000		0.9494	-114.1005
5507250000		0.94743	-116.569
5607200000		0.94609	-118.9366
5707150000		0.94628	-121.4823
5807100000		0.94539	-123.8874
5907050000		0.94474	-126.5157
6007000000		0.94338	-128.9713
6106950000		0.94068	-131.5752
6206900000		0.93887	-134.1557
6306850000		0.93726	-136.7068
6406800000		0.93555	-139.2212
6506750000		0.93404	-141.8252
6606700000		0.93206	-144.3151
6706650000		0.93118	-146.839
6806600000		0.92872	-149.396
6906550000		0.92807	-151.9241
7006500000		0.92506	-154.5887
7106450000		0.92485	-157.1255
7206400000		0.92121	-159.8905
7306350000		0.91979	-162.377
7406300000		0.91514	-165.1003
7506250000		0.91325	-167.4622
7606200000		0.91045	-170.08
7706150000		0.90834	-172.2572
7806100000		0.90946	-174.7946
!
!				Infineon Technologies AG
