! Infineon Technologies  Discrete & RF Semiconductors
! BAT63-02V
! VCA = 0.1 V
! One-Port S-Parameters
# Hz  S  MA  R  50
!f									S11
!Hz							Mag  Ang
309850000		1.0013	-7.1339
409800000		1.0001	-9.4032
509750000		1.0007	-11.6184
609700000		1.0003	-14.0374
709650000		1.0006	-16.209
809600000		1.0002	-18.6586
909550000		0.99925	-20.9763
1009500000		0.99898	-23.3128
1109450000		0.99871	-25.7418
1209400000		0.99744	-28.0449
1309350000		0.99689	-30.5387
1409300000		0.99586	-32.8747
1509250000		0.99433	-35.505
1609200000		0.99206	-37.794
1709150000		0.99041	-40.4235
1809100000		0.98817	-42.7688
1909050000		0.98652	-45.4048
2009000000		0.9846	-47.6268
2108950000		0.98309	-50.3764
2208900000		0.98218	-52.6988
2308850000		0.9801	-55.4355
2408800000		0.97971	-57.7668
2508750000		0.97962	-60.4545
2608700000		0.97944	-62.8826
2708650000		0.97896	-65.5967
2808600000		0.97861	-68.18
2908550000		0.97798	-70.8473
3008500000		0.97718	-73.5204
3108450000		0.97534	-76.2137
3208400000		0.97396	-78.8962
3308350000		0.97234	-81.5715
3408300000		0.97152	-84.334
3508250000		0.96794	-87.0059
3608200000		0.96562	-89.732
3708150000		0.96241	-92.3717
3808100000		0.95993	-95.0059
3908050000		0.95679	-97.5993
4008000000		0.95417	-100.1731
4107950000		0.95106	-102.7106
4207900000		0.94821	-105.2105
4307850000		0.94599	-107.6902
4407800000		0.9443	-110.1741
4507750000		0.94274	-112.5033
4607700000		0.94159	-115.0256
4707650000		0.94035	-117.4181
4807600000		0.94026	-119.909
4907550000		0.9393	-122.3337
5007500000		0.93947	-124.7863
5107450000		0.93863	-127.313
5207400000		0.93893	-129.8685
5307350000		0.93847	-132.571
5407300000		0.93689	-135.1018
5507250000		0.93498	-137.7075
5607200000		0.93321	-140.1248
5707150000		0.93328	-142.7505
5807100000		0.93192	-145.2131
5907050000		0.93125	-147.8934
6007000000		0.92965	-150.3454
6106950000		0.92691	-152.9652
6206900000		0.92517	-155.4815
6306850000		0.9237	-157.9664
6406800000		0.92242	-160.4338
6506750000		0.92134	-162.9331
6606700000		0.91963	-165.3533
6706650000		0.91919	-167.7235
6806600000		0.91693	-170.2205
6906550000		0.91664	-172.5753
7006500000		0.91383	-175.1573
7106450000		0.914	-177.4612
7206400000		0.91103	179.8896
7306350000		0.91002	177.6521
7406300000		0.90612	175.0931
7506250000		0.90432	172.9655
7606200000		0.90229	170.5856
7706150000		0.89972	168.624
7806100000		0.90147	166.3621
!
!				Infineon Technologies AG
