! Infineon Technologies  Discrete & RF Semiconductors
! BAT63-02V
! VCA = 0.9 V
! One-Port S-Parameters
# Hz  S  MA  R  50
!f									S11
!Hz							Mag  Ang
309850000		1.0016	-5.247
409800000		1.0004	-6.9019
509750000		1.0012	-8.5092
609700000		1.0009	-10.3147
709650000		1.0015	-11.876
809600000		1.0011	-13.7002
909550000		1.0005	-15.4123
1009500000		1.0006	-17.1159
1109450000		1.0006	-18.9315
1209400000		0.99964	-20.6051
1309350000		0.99956	-22.4893
1409300000		0.99894	-24.1894
1509250000		0.99793	-26.2099
1609200000		0.99625	-27.8669
1709150000		0.99509	-29.8829
1809100000		0.99336	-31.6088
1909050000		0.9919	-33.629
2009000000		0.99051	-35.2479
2108950000		0.98938	-37.3839
2208900000		0.98884	-39.0847
2308850000		0.98727	-41.2749
2408800000		0.98727	-42.979
2508750000		0.98743	-45.0632
2608700000		0.98764	-46.8995
2708650000		0.98743	-48.9879
2808600000		0.98809	-51.0178
2908550000		0.98795	-53.1213
3008500000		0.9882	-55.1931
3108450000		0.98719	-57.3871
3208400000		0.98682	-59.5537
3308350000		0.98641	-61.7229
3408300000		0.98613	-63.9201
3508250000		0.98379	-66.19
3608200000		0.98211	-68.4542
3708150000		0.97961	-70.6733
3808100000		0.97773	-72.9177
3908050000		0.97498	-75.1186
4008000000		0.97267	-77.3351
4107950000		0.96965	-79.5241
4207900000		0.96708	-81.7484
4307850000		0.9645	-83.8429
4407800000		0.96241	-86.0662
4507750000		0.96052	-88.0606
4607700000		0.95886	-90.3049
4707650000		0.95755	-92.3437
4807600000		0.95681	-94.5799
4907550000		0.95552	-96.6851
5007500000		0.95533	-98.903
5107450000		0.95412	-101.0867
5207400000		0.95428	-103.4131
5307350000		0.95365	-105.8548
5407300000		0.95263	-108.1759
5507250000		0.95061	-110.572
5607200000		0.94948	-112.8889
5707150000		0.94969	-115.3776
5807100000		0.94902	-117.7292
5907050000		0.94836	-120.305
6007000000		0.94716	-122.7228
6106950000		0.94451	-125.2844
6206900000		0.94268	-127.8428
6306850000		0.94115	-130.3699
6406800000		0.93942	-132.8681
6506750000		0.93779	-135.4602
6606700000		0.93579	-137.9384
6706650000		0.93483	-140.4698
6806600000		0.93236	-143.0127
6906550000		0.93164	-145.5594
7006500000		0.92851	-148.2111
7106450000		0.92828	-150.7799
7206400000		0.92441	-153.5423
7306350000		0.92285	-156.0736
7406300000		0.91809	-158.8115
7506250000		0.91623	-161.2211
7606200000		0.9133	-163.8811
7706150000		0.91126	-166.1013
7806100000		0.91229	-168.7014
!
!				Infineon Technologies AG
