! Infineon Technologies  Discrete & RF Semiconductors
! BAT63-02V
! IAC = 0.2 mA
! One-Port S-Parameters
# Hz  S  MA  R  50
!f									S11
!Hz							Mag  Ang
309850000		0.58493	-9.6269
409800000		0.5846	-12.7363
509750000		0.5851	-15.7982
609700000		0.58517	-19.1478
709650000		0.59027	-22.2734
809600000		0.58347	-25.8293
909550000		0.58659	-29.1811
1009500000		0.58934	-32.3025
1109450000		0.59469	-35.505
1209400000		0.58776	-38.5418
1309350000		0.58777	-42.0882
1409300000		0.58594	-45.3985
1509250000		0.58381	-49.0497
1609200000		0.58403	-52.1807
1709150000		0.59646	-55.0513
1809100000		0.59456	-58.4839
1909050000		0.59073	-62.0088
2009000000		0.58502	-65.2612
2108950000		0.59482	-68.6432
2208900000		0.59435	-71.8236
2308850000		0.59592	-75.3783
2408800000		0.59749	-78.3638
2508750000		0.60258	-81.5781
2608700000		0.60641	-84.6849
2708650000		0.60681	-88.0868
2808600000		0.6163	-91.0954
2908550000		0.61668	-94.4452
3008500000		0.61599	-97.5327
3108450000		0.61913	-100.7459
3208400000		0.62708	-103.5901
3308350000		0.63092	-106.6941
3408300000		0.63246	-109.8998
3508250000		0.63504	-112.9637
3608200000		0.63943	-115.8052
3708150000		0.64114	-118.8332
3808100000		0.64331	-121.7255
3908050000		0.64477	-124.6445
4008000000		0.64633	-127.5514
4107950000		0.64986	-130.2415
4207900000		0.65758	-132.6274
4307850000		0.66363	-135.0343
4407800000		0.66562	-137.7873
4507750000		0.66772	-140.3613
4607700000		0.67221	-142.929
4707650000		0.67999	-145.1173
4807600000		0.68407	-147.6752
4907550000		0.68891	-150.0931
5007500000		0.69289	-152.6169
5107450000		0.69629	-155.2379
5207400000		0.70216	-157.6591
5307350000		0.70784	-160.2205
5407300000		0.71098	-162.6147
5507250000		0.7131	-165.1966
5607200000		0.71599	-167.3907
5707150000		0.72159	-169.7407
5807100000		0.72512	-171.9559
5907050000		0.72833	-174.4973
6007000000		0.73251	-176.5897
6106950000		0.73598	-178.8687
6206900000		0.74015	178.994
6306850000		0.74277	176.7489
6406800000		0.74637	174.5179
6506750000		0.75063	172.3731
6606700000		0.75338	170.2328
6706650000		0.75704	168.1673
6806600000		0.75947	165.9775
6906550000		0.7628	163.9368
7006500000		0.76526	161.729
7106450000		0.76962	159.8894
7206400000		0.77229	157.5976
7306350000		0.77557	155.7538
7406300000		0.7764	153.4953
7506250000		0.77877	151.8058
7606200000		0.78151	149.8542
7706150000		0.78163	148.185
7806100000		0.78708	146.3836
!
!				Infineon Technologies AG
