! Infineon Technologies  Discrete & RF Semiconductors
! BAT63-02V
! VCA = 0.5 V
! One-Port S-Parameters
# Hz  S  MA  R  50
!f									S11
!Hz							Mag  Ang
309850000		1.0013	-5.7599
409800000		1.0004	-7.619
509750000		1.0011	-9.4053
609700000		1.0008	-11.3847
709650000		1.0013	-13.1218
809600000		1.001	-15.1279
909550000		1.0002	-17.0147
1009500000		1.0002	-18.902
1109450000		1.0002	-20.8947
1209400000		0.99915	-22.7532
1309350000		0.99889	-24.8176
1409300000		0.99816	-26.7015
1509250000		0.99703	-28.9021
1609200000		0.99525	-30.7436
1709150000		0.99396	-32.9407
1809100000		0.99216	-34.8521
1909050000		0.99076	-37.0799
2009000000		0.98898	-38.8557
2108950000		0.98768	-41.146
2208900000		0.98717	-43.0631
2308850000		0.98554	-45.4341
2408800000		0.9856	-47.3575
2508750000		0.98549	-49.5888
2608700000		0.98567	-51.6104
2708650000		0.98551	-53.9182
2808600000		0.98576	-56.0966
2908550000		0.98537	-58.3449
3008500000		0.98565	-60.6686
3108450000		0.98421	-63.0034
3208400000		0.98355	-65.3393
3308350000		0.98279	-67.689
3408300000		0.98225	-70.0547
3508250000		0.97963	-72.4866
3608200000		0.97769	-74.9007
3708150000		0.97491	-77.27
3808100000		0.97281	-79.6562
3908050000		0.96989	-81.9972
4008000000		0.96747	-84.3482
4107950000		0.96436	-86.6664
4207900000		0.96168	-89.0099
4307850000		0.95916	-91.2372
4407800000		0.95713	-93.5688
4507750000		0.95527	-95.6887
4607700000		0.95374	-98.0494
4707650000		0.95238	-100.2212
4807600000		0.95183	-102.5666
4907550000		0.9506	-104.7972
5007500000		0.95046	-107.1184
5107450000		0.94947	-109.4412
5207400000		0.94965	-111.8726
5307350000		0.94901	-114.4321
5407300000		0.9478	-116.8562
5507250000		0.94589	-119.3562
5607200000		0.94445	-121.7381
5707150000		0.94465	-124.3063
5807100000		0.94369	-126.7295
5907050000		0.94299	-129.3813
6007000000		0.94164	-131.8452
6106950000		0.93888	-134.4633
6206900000		0.93703	-137.0485
6306850000		0.9355	-139.6016
6406800000		0.93382	-142.1204
6506750000		0.93231	-144.7227
6606700000		0.93033	-147.215
6706650000		0.92957	-149.725
6806600000		0.92715	-152.2879
6906550000		0.92654	-154.801
7006500000		0.92349	-157.4654
7106450000		0.9234	-159.9773
7206400000		0.91987	-162.7393
7306350000		0.91839	-165.2017
7406300000		0.91378	-167.9129
7506250000		0.91198	-170.2491
7606200000		0.90929	-172.8407
7706150000		0.90704	-174.9915
7806100000		0.90829	-177.5007
!
!				Infineon Technologies AG
