! Infineon Technologies  Discrete & RF Semiconductors
! BAT63-02V
! VCA = 0.3 V
! One-Port S-Parameters
# Hz  S  MA  R  50
!f									S11
!Hz							Mag  Ang
309850000		1.0013	-6.2544
409800000		1.0004	-8.2811
509750000		1.001	-10.2253
609700000		1.0007	-12.3688
709650000		1.0011	-14.2661
809600000		1.0008	-16.4367
909550000		0.99999	-18.4841
1009500000		0.99988	-20.5373
1109450000		0.99981	-22.6924
1209400000		0.99864	-24.7182
1309350000		0.99831	-26.9425
1409300000		0.99752	-28.9981
1509250000		0.99621	-31.3597
1609200000		0.99424	-33.3696
1709150000		0.9928	-35.7302
1809100000		0.9908	-37.8054
1909050000		0.98939	-40.189
2009000000		0.98763	-42.1343
2108950000		0.98629	-44.6222
2208900000		0.98536	-46.6398
2308850000		0.98363	-49.1669
2408800000		0.98372	-51.2826
2508750000		0.9833	-53.6422
2608700000		0.98358	-55.8569
2708650000		0.98331	-58.3276
2808600000		0.98319	-60.6323
2908550000		0.98296	-63.1019
3008500000		0.98274	-65.5437
3108450000		0.98112	-68.025
3208400000		0.98023	-70.501
3308350000		0.97923	-72.9985
3408300000		0.97857	-75.5308
3508250000		0.97551	-78.0603
3608200000		0.97345	-80.5936
3708150000		0.97044	-83.0793
3808100000		0.96815	-85.5743
3908050000		0.96513	-88.0264
4008000000		0.96262	-90.4747
4107950000		0.95946	-92.8945
4207900000		0.95676	-95.3232
4307850000		0.95421	-97.648
4407800000		0.95223	-100.052
4507750000		0.95049	-102.27
4607700000		0.94907	-104.7084
4707650000		0.94777	-106.9761
4807600000		0.94742	-109.3962
4907550000		0.94624	-111.716
5007500000		0.94627	-114.1062
5107450000		0.94538	-116.5259
5207400000		0.94554	-119.0233
5307350000		0.94488	-121.6587
5407300000		0.94358	-124.1403
5507250000		0.94167	-126.7019
5607200000		0.94008	-129.1144
5707150000		0.94019	-131.7252
5807100000		0.93914	-134.1837
5907050000		0.93842	-136.8662
6007000000		0.9369	-139.3424
6106950000		0.93409	-141.9794
6206900000		0.93231	-144.5579
6306850000		0.9307	-147.1014
6406800000		0.9292	-149.6152
6506750000		0.92787	-152.1957
6606700000		0.92599	-154.672
6706650000		0.92531	-157.1428
6806600000		0.92289	-159.6907
6906550000		0.92246	-162.1599
7006500000		0.91945	-164.805
7106450000		0.91951	-167.2467
7206400000		0.91614	-169.975
7306350000		0.91485	-172.3596
7406300000		0.9105	-175.0208
7506250000		0.90867	-177.2812
7606200000		0.90621	-179.7979
7706150000		0.90386	178.1224
7806100000		0.90532	175.7067
!
!				Infineon Technologies AG
