! Infineon Technologies  Discrete & RF Semiconductors
! BAT63-02V
! VCA = 0 V
! One-Port S-Parameters
# Hz  S  MA  R  50
!f									S11
!Hz							Mag  Ang
309850000		0.99589	-7.8469
409800000		0.99445	-10.3473
509750000		0.99505	-12.7947
609700000		0.99458	-15.4424
709650000		0.99479	-17.847
809600000		0.9946	-20.5267
909550000		0.99348	-23.0755
1009500000		0.9929	-25.6446
1109450000		0.99223	-28.3033
1209400000		0.991	-30.8389
1309350000		0.99042	-33.5562
1409300000		0.98927	-36.1224
1509250000		0.98763	-38.9672
1609200000		0.98514	-41.4821
1709150000		0.98262	-44.3323
1809100000		0.98041	-46.8942
1909050000		0.97897	-49.7319
2009000000		0.97711	-52.1723
2108950000		0.97518	-55.1244
2208900000		0.97429	-57.6538
2308850000		0.9725	-60.6155
2408800000		0.97197	-63.1418
2508750000		0.97123	-65.9502
2608700000		0.97115	-68.6047
2708650000		0.97069	-71.5001
2808600000		0.96986	-74.2626
2908550000		0.96915	-77.0858
3008500000		0.96802	-79.9245
3108450000		0.96604	-82.765
3208400000		0.96426	-85.5923
3308350000		0.96268	-88.4406
3408300000		0.96148	-91.2918
3508250000		0.9579	-94.0763
3608200000		0.95537	-96.9009
3708150000		0.95224	-99.632
3808100000		0.9498	-102.3446
3908050000		0.94681	-105.0149
4008000000		0.94417	-107.6155
4107950000		0.94148	-110.2536
4207900000		0.93883	-112.8345
4307850000		0.93649	-115.3499
4407800000		0.93524	-117.8588
4507750000		0.93399	-120.2472
4607700000		0.93313	-122.8031
4707650000		0.93197	-125.2583
4807600000		0.93223	-127.7714
4907550000		0.93135	-130.2402
5007500000		0.93183	-132.7092
5107450000		0.9313	-135.2814
5207400000		0.93171	-137.8436
5307350000		0.93133	-140.5627
5407300000		0.92968	-143.0995
5507250000		0.92799	-145.7013
5607200000		0.92602	-148.084
5707150000		0.92615	-150.6844
5807100000		0.92473	-153.124
5907050000		0.92427	-155.762
6007000000		0.92256	-158.1675
6106950000		0.91989	-160.7405
6206900000		0.91837	-163.1851
6306850000		0.917	-165.596
6406800000		0.91614	-167.9988
6506750000		0.91524	-170.4175
6606700000		0.91376	-172.7698
6706650000		0.91362	-175.0501
6806600000		0.91151	-177.4795
6906550000		0.91134	-179.7416
7006500000		0.90872	177.7483
7106450000		0.90896	175.5619
7206400000		0.9064	173.0063
7306350000		0.90558	170.8789
7406300000		0.90208	168.4153
7506250000		0.90038	166.395
7606200000		0.89869	164.1252
7706150000		0.89606	162.2591
7806100000		0.89793	160.113
!
!				Infineon Technologies AG
