! Infineon Technologies  Discrete & RF Semiconductors
! BAT63-02V
! IAC = 60 mA
! One-Port S-Parameters
# Hz  S  MA  R  50
!f									S11
!Hz							Mag  Ang
309850000		0.84229	176.3015
409800000		0.84148	175.3021
509750000		0.84067	174.1358
609700000		0.83998	173.1753
709650000		0.83869	172.0226
809600000		0.8385	170.9933
909550000		0.83723	169.9724
1009500000		0.83754	168.9603
1109450000		0.83652	167.9615
1209400000		0.83642	166.8748
1309350000		0.8361	165.9936
1409300000		0.83639	164.8893
1509250000		0.83611	164.065
1609200000		0.83611	162.9464
1709150000		0.83705	162.2091
1809100000		0.83793	161.0809
1909050000		0.83777	160.3218
2009000000		0.83816	159.0967
2108950000		0.83892	158.4541
2208900000		0.83946	157.2971
2308850000		0.84025	156.6301
2408800000		0.8401	155.5312
2508750000		0.84088	154.7391
2608700000		0.84077	153.6804
2708650000		0.84096	152.8258
2808600000		0.83995	151.9222
2908550000		0.84048	151.0444
3008500000		0.83937	150.1497
3108450000		0.83969	149.2986
3208400000		0.83968	148.4437
3308350000		0.83911	147.596
3408300000		0.83858	146.759
3508250000		0.83922	145.9577
3608200000		0.83921	145.2103
3708150000		0.84007	144.4026
3808100000		0.84016	143.6108
3908050000		0.8409	142.796
4008000000		0.84198	141.9816
4107950000		0.84354	141.1568
4207900000		0.84462	140.4053
4307850000		0.84624	139.4503
4407800000		0.84775	138.715
4507750000		0.84882	137.6526
4607700000		0.85034	136.8179
4707650000		0.85127	135.741
4807600000		0.8525	134.885
4907550000		0.85377	133.7846
5007500000		0.85451	132.8318
5107450000		0.8557	131.6742
5207400000		0.85603	130.7175
5307350000		0.85671	129.633
5407300000		0.85484	128.5493
5507250000		0.85398	127.5583
5607200000		0.85223	126.737
5707150000		0.8518	125.8231
5807100000		0.85036	124.8508
5907050000		0.85061	123.9192
6007000000		0.84967	123.0082
6106950000		0.84888	122.0409
6206900000		0.84886	121.2927
6306850000		0.84898	120.4798
6406800000		0.85084	119.5234
6506750000		0.85184	118.6325
6606700000		0.85201	117.6579
6706650000		0.85323	116.824
6806600000		0.85283	115.6685
6906550000		0.85237	114.8098
7006500000		0.85111	113.6538
7106450000		0.85058	113.0384
7206400000		0.85221	111.9461
7306350000		0.85299	111.2152
7406300000		0.85364	110.1013
7506250000		0.85243	109.3023
7606200000		0.85315	108.3765
7706150000		0.85009	107.5191
7806100000		0.85221	106.7157
!
!				Infineon Technologies AG
