! Infineon Technologies  Discrete & RF Semiconductors
! BAT63-02V
! IAC = 30 mA
! One-Port S-Parameters
# Hz  S  MA  R  50
!f									S11
!Hz							Mag  Ang
309850000		0.85395	176.3013
409800000		0.85319	175.2977
509750000		0.8523	174.1347
609700000		0.85161	173.1732
709650000		0.85045	171.9879
809600000		0.85004	170.9934
909550000		0.84878	169.9705
1009500000		0.84903	168.9565
1109450000		0.84798	167.9603
1209400000		0.84778	166.8754
1309350000		0.84742	165.9907
1409300000		0.84765	164.8871
1509250000		0.84739	164.0633
1609200000		0.8474	162.9463
1709150000		0.84831	162.2068
1809100000		0.84908	161.0785
1909050000		0.84894	160.3177
2009000000		0.8493	159.0949
2108950000		0.85006	158.4509
2208900000		0.85052	157.2942
2308850000		0.85117	156.6213
2408800000		0.85086	155.5543
2508750000		0.85178	154.7317
2608700000		0.85158	153.6719
2708650000		0.8517	152.8155
2808600000		0.85085	151.8781
2908550000		0.85112	151.0365
3008500000		0.8502	150.1016
3108450000		0.85019	149.2878
3208400000		0.8501	148.4336
3308350000		0.84939	147.6172
3408300000		0.84898	146.7486
3508250000		0.84955	145.9442
3608200000		0.84944	145.1989
3708150000		0.85025	144.3921
3808100000		0.85028	143.5991
3908050000		0.85119	142.7518
4008000000		0.85205	141.9706
4107950000		0.85357	141.1502
4207900000		0.85445	140.4278
4307850000		0.85622	139.4365
4407800000		0.85766	138.7046
4507750000		0.85884	137.6435
4607700000		0.86029	136.8057
4707650000		0.86114	135.725
4807600000		0.86233	134.8694
4907550000		0.86361	133.7688
5007500000		0.86427	132.8125
5107450000		0.86539	131.6544
5207400000		0.86576	130.6951
5307350000		0.86633	129.6091
5407300000		0.86433	128.526
5507250000		0.86339	127.5355
5607200000		0.86154	126.7138
5707150000		0.86102	125.7972
5807100000		0.85951	124.8279
5907050000		0.85969	123.893
6007000000		0.8587	122.9848
6106950000		0.85783	122.0171
6206900000		0.85774	121.2649
6306850000		0.85775	120.4525
6406800000		0.85958	119.4971
6506750000		0.86048	118.6081
6606700000		0.86058	117.6309
6706650000		0.86178	116.7969
6806600000		0.86119	115.643
6906550000		0.8607	114.7823
7006500000		0.85932	113.6287
7106450000		0.85876	113.0066
7206400000		0.86022	111.9171
7306350000		0.86095	111.1922
7406300000		0.86139	110.0734
7506250000		0.86015	109.2747
7606200000		0.86081	108.3505
7706150000		0.85772	107.4876
7806100000		0.85979	106.693
!
!				Infineon Technologies AG
