! Infineon Technologies  Discrete & RF Semiconductors
! BAT63-02V
! IAC = 0.7 mA
! One-Port S-Parameters
# Hz  S  MA  R  50
!f									S11
!Hz							Mag  Ang
309850000		0.02857	-122.7337
409800000		0.03736	-122.0919
509750000		0.04528	-119.6363
609700000		0.05593	-119.3101
709650000		0.06434	-115.4538
809600000		0.07548	-116.8391
909550000		0.08646	-116.2565
1009500000		0.09606	-119.2782
1109450000		0.10568	-119.3101
1209400000		0.11281	-122.6705
1309350000		0.12499	-123.1813
1409300000		0.13414	-125.4701
1509250000		0.14638	-127.9058
1609200000		0.15495	-129.733
1709150000		0.16453	-130.0917
1809100000		0.1751	-132.6146
1909050000		0.18605	-134.9013
2009000000		0.19464	-137.4684
2108950000		0.20825	-138.1642
2208900000		0.2173	-139.8245
2308850000		0.23004	-141.4648
2408800000		0.23785	-142.3355
2508750000		0.24942	-143.856
2608700000		0.25939	-145.4502
2708650000		0.26991	-147.2852
2808600000		0.28115	-148.6699
2908550000		0.29146	-150.3869
3008500000		0.29803	-152.6643
3108450000		0.30878	-154.1573
3208400000		0.3189	-155.6828
3308350000		0.32962	-157.0685
3408300000		0.33939	-158.8195
3508250000		0.34954	-160.4326
3608200000		0.35833	-162.1996
3708150000		0.36828	-163.835
3808100000		0.37733	-165.2237
3908050000		0.38636	-166.8238
4008000000		0.39546	-168.5862
4107950000		0.40448	-170.1469
4207900000		0.41437	-171.2439
4307850000		0.42314	-172.6402
4407800000		0.43255	-174.303
4507750000		0.43994	-175.919
4607700000		0.44898	-177.4351
4707650000		0.45711	-178.7502
4807600000		0.46614	179.7591
4907550000		0.47416	178.2253
5007500000		0.48263	176.6485
5107450000		0.49002	174.637
5207400000		0.49911	173.2411
5307350000		0.5081	171.5938
5407300000		0.51445	170.0158
5507250000		0.52122	168.1681
5607200000		0.52755	166.7659
5707150000		0.53581	165.2219
5807100000		0.54227	163.792
5907050000		0.55001	162.0137
6007000000		0.55675	160.686
6106950000		0.56349	159.1197
6206900000		0.57103	157.7145
6306850000		0.57806	156.2014
6406800000		0.58532	154.5878
6506750000		0.59277	153.0874
6606700000		0.5989	151.5366
6706650000		0.60609	150.0917
6806600000		0.61163	148.4408
6906550000		0.61787	146.979
7006500000		0.62327	145.2975
7106450000		0.6307	144.1002
7206400000		0.63733	142.2843
7306350000		0.64367	140.9773
7406300000		0.64838	139.1389
7506250000		0.65343	137.9518
7606200000		0.65942	136.4541
7706150000		0.66176	135.1905
7806100000		0.66987	133.8771
!
!				Infineon Technologies AG
