! Infineon Technologies  Discrete & RF Semiconductors
! BAT63-02V
! IAC = 1 mA
! One-Port S-Parameters
# Hz  S  MA  R  50
!f									S11
!Hz							Mag  Ang
309850000		0.20208	-179.2343
409800000		0.2051	-178.797
509750000		0.20648	-178.4991
609700000		0.20945	-177.7574
709650000		0.20873	-177.1403
809600000		0.21162	-176.3305
909550000		0.21394	-175.535
1009500000		0.22006	-175.5378
1109450000		0.22278	-175.0824
1209400000		0.22771	-175.5174
1309350000		0.23133	-174.7019
1409300000		0.23657	-174.9767
1509250000		0.24346	-174.729
1609200000		0.24838	-175.1618
1709150000		0.25354	-174.9899
1809100000		0.26038	-175.4868
1909050000		0.26751	-175.545
2009000000		0.27352	-176.3253
2108950000		0.28122	-175.9607
2208900000		0.28658	-176.4744
2308850000		0.29482	-176.4324
2408800000		0.29827	-176.7465
2508750000		0.30635	-177.0514
2608700000		0.31276	-177.6358
2708650000		0.32052	-178.2196
2808600000		0.32767	-178.7374
2908550000		0.33508	-179.3173
3008500000		0.34111	179.3883
3108450000		0.34857	178.8569
3208400000		0.35591	178.176
3308350000		0.36333	177.5372
3408300000		0.3707	176.7675
3508250000		0.37832	176.0059
3608200000		0.38562	175.0625
3708150000		0.39347	174.1827
3808100000		0.4001	173.5044
3908050000		0.40727	172.6426
4008000000		0.41505	171.6252
4107950000		0.42262	170.6934
4207900000		0.42987	170.0249
4307850000		0.43656	169.1001
4407800000		0.44483	168.1384
4507750000		0.45089	167.0458
4607700000		0.45871	166.0366
4707650000		0.46482	165.0199
4807600000		0.47249	164.054
4907550000		0.47904	162.9053
5007500000		0.48621	161.8153
5107450000		0.49335	160.2226
5207400000		0.5006	159.2419
5307350000		0.50811	157.9995
5407300000		0.51319	156.7817
5507250000		0.51959	155.352
5607200000		0.52472	154.3173
5707150000		0.53184	153.1442
5807100000		0.53701	152.0384
5907050000		0.54432	150.6674
6007000000		0.54972	149.6378
6106950000		0.55558	148.3844
6206900000		0.5622	147.3102
6306850000		0.56864	146.1477
6406800000		0.57553	144.8442
6506750000		0.58233	143.6401
6606700000		0.58794	142.3621
6706650000		0.59468	141.2133
6806600000		0.59953	139.8118
6906550000		0.60537	138.6243
7006500000		0.61026	137.1808
7106450000		0.6169	136.2772
7206400000		0.62338	134.6969
7306350000		0.62949	133.6353
7406300000		0.6344	132.0207
7506250000		0.63865	131.0369
7606200000		0.64445	129.7608
7706150000		0.64655	128.6797
7806100000		0.65416	127.5766
!
!				Infineon Technologies AG
