! Infineon Technologies  Discrete & RF Semiconductors
! BAT63-02V
! IAC = 4 mA
! One-Port S-Parameters
# Hz  S  MA  R  50
!f									S11
!Hz							Mag  Ang
309850000		0.67821	176.4336
409800000		0.67806	175.4645
509750000		0.67748	174.3479
609700000		0.67713	173.4868
709650000		0.67616	172.3533
809600000		0.67631	171.4281
909550000		0.67551	170.4652
1009500000		0.67664	169.5027
1109450000		0.67611	168.5592
1209400000		0.67669	167.5236
1309350000		0.67665	166.6985
1409300000		0.67764	165.6317
1509250000		0.67796	164.8675
1609200000		0.67874	163.7859
1709150000		0.6802	163.105
1809100000		0.68156	162.0198
1909050000		0.68191	161.3334
2009000000		0.68291	160.1534
2108950000		0.68457	159.5858
2208900000		0.68553	158.4768
2308850000		0.68682	157.9179
2408800000		0.68705	156.8337
2508750000		0.68878	156.1176
2608700000		0.68935	155.1139
2708650000		0.69051	154.3222
2808600000		0.69065	153.4683
2908550000		0.69198	152.6495
3008500000		0.69219	151.7694
3108450000		0.69335	150.9727
3208400000		0.69428	150.1595
3308350000		0.69479	149.3592
3408300000		0.69526	148.5725
3508250000		0.69676	147.802
3608200000		0.69781	147.0899
3708150000		0.69927	146.3204
3808100000		0.70004	145.5774
3908050000		0.70141	144.8028
4008000000		0.70328	144.0254
4107950000		0.70539	143.2424
4207900000		0.70704	142.5316
4307850000		0.70889	141.645
4407800000		0.71122	140.9306
4507750000		0.71274	139.9166
4607700000		0.71499	139.1291
4707650000		0.71654	138.0896
4807600000		0.71854	137.2924
4907550000		0.72044	136.2311
5007500000		0.72199	135.3334
5107450000		0.72434	134.1963
5207400000		0.72577	133.2904
5307350000		0.72765	132.2387
5407300000		0.72706	131.1929
5507250000		0.72788	130.2225
5607200000		0.72742	129.4344
5707150000		0.72855	128.5518
5807100000		0.72837	127.611
5907050000		0.73029	126.6962
6007000000		0.73047	125.817
6106950000		0.73124	124.8628
6206900000		0.73271	124.124
6306850000		0.73421	123.3241
6406800000		0.73713	122.3741
6506750000		0.73928	121.4979
6606700000		0.74065	120.5281
6706650000		0.74301	119.7111
6806600000		0.74373	118.5685
6906550000		0.74473	117.7306
7006500000		0.74508	116.5803
7106450000		0.74627	115.9972
7206400000		0.74929	114.8683
7306350000		0.75142	114.1399
7406300000		0.75344	112.9815
7506250000		0.75344	112.2113
7606200000		0.75551	111.2654
7706150000		0.75384	110.4241
7806100000		0.75722	109.6394
!
!				Infineon Technologies AG
