! Infineon Technologies  Discrete & RF Semiconductors
! BAT63-02V
! IAC = 0.1 mA
! One-Port S-Parameters
# Hz  S  MA  R  50
!f									S11
!Hz							Mag  Ang
309850000		0.77458	-9.0105
409800000		0.7744	-11.9574
509750000		0.77426	-14.7802
609700000		0.77459	-17.8767
709650000		0.7781	-20.739
809600000		0.77176	-23.9716
909550000		0.77303	-27.0158
1009500000		0.77568	-29.9383
1109450000		0.77908	-32.9428
1209400000		0.77293	-35.9046
1309350000		0.77189	-39.1313
1409300000		0.76923	-42.1762
1509250000		0.76683	-45.5159
1609200000		0.7654	-48.4361
1709150000		0.77419	-51.2814
1809100000		0.77151	-54.384
1909050000		0.76723	-57.7266
2009000000		0.76138	-60.745
2108950000		0.76747	-63.9106
2208900000		0.76566	-66.9103
2308850000		0.76488	-70.2516
2408800000		0.76411	-73.2202
2508750000		0.767	-76.3176
2608700000		0.76864	-79.2406
2708650000		0.76751	-82.6076
2808600000		0.77386	-85.4598
2908550000		0.77214	-88.7226
3008500000		0.7706	-91.7928
3108450000		0.77081	-94.9444
3208400000		0.77575	-97.755
3308350000		0.77666	-100.8533
3408300000		0.77568	-103.9721
3508250000		0.77527	-107.0393
3608200000		0.77703	-109.8812
3708150000		0.77582	-112.8779
3808100000		0.775	-115.8155
3908050000		0.77368	-118.7455
4008000000		0.77273	-121.6433
4107950000		0.7734	-124.3511
4207900000		0.77756	-126.7978
4307850000		0.78069	-129.2535
4407800000		0.78042	-132.0198
4507750000		0.78034	-134.6273
4607700000		0.78249	-137.2459
4707650000		0.7875	-139.5034
4807600000		0.78937	-142.1386
4907550000		0.79185	-144.614
5007500000		0.79384	-147.2026
5107450000		0.79555	-149.8444
5207400000		0.79896	-152.3638
5307350000		0.80209	-155.0058
5407300000		0.8031	-157.493
5507250000		0.80324	-160.1352
5607200000		0.80401	-162.4261
5707150000		0.80745	-164.8704
5807100000		0.80874	-167.1901
5907050000		0.80998	-169.8145
6007000000		0.81197	-172.0191
6106950000		0.81298	-174.3958
6206900000		0.81483	-176.6376
6306850000		0.81544	-178.9875
6406800000		0.8171	178.6956
6506750000		0.81934	176.4597
6606700000		0.82028	174.2312
6706650000		0.82221	172.073
6806600000		0.82281	169.7984
6906550000		0.82448	167.6625
7006500000		0.82495	165.3749
7106450000		0.82758	163.4206
7206400000		0.82825	161.0431
7306350000		0.82986	159.1159
7406300000		0.82906	156.786
7506250000		0.82976	155.0083
7606200000		0.83067	152.9655
7706150000		0.82946	151.2354
7806100000		0.8337	149.3374
!
!				Infineon Technologies AG
