! Infineon Technologies  Discrete & RF Semiconductors
! BAT63-02V
! IAC = 50 mA
! One-Port S-Parameters
# Hz  S  MA  R  50
!f									S11
!Hz							Mag  Ang
309850000		0.84926	176.3011
409800000		0.84867	175.2692
509750000		0.84758	174.1365
609700000		0.84689	173.1735
709650000		0.8457	171.9896
809600000		0.84532	170.9942
909550000		0.84406	169.9719
1009500000		0.84434	168.9597
1109450000		0.84335	167.9614
1209400000		0.84319	166.8749
1309350000		0.84283	165.991
1409300000		0.8431	164.8866
1509250000		0.8428	164.0622
1609200000		0.84281	162.9432
1709150000		0.84374	162.2045
1809100000		0.84456	161.0761
1909050000		0.84439	160.3184
2009000000		0.84479	159.0939
2108950000		0.84533	158.4837
2208900000		0.84605	157.2917
2308850000		0.84675	156.6215
2408800000		0.84661	155.5237
2508750000		0.84734	154.7312
2608700000		0.84721	153.6725
2708650000		0.84734	152.8151
2808600000		0.84635	151.9112
2908550000		0.84662	151.0666
3008500000		0.8459	150.1007
3108450000		0.84597	149.2887
3208400000		0.84592	148.4354
3308350000		0.84532	147.5853
3408300000		0.84474	146.7468
3508250000		0.84535	145.9444
3608200000		0.84531	145.1961
3708150000		0.8461	144.3909
3808100000		0.84616	143.5984
3908050000		0.84709	142.7508
4008000000		0.84797	141.9689
4107950000		0.84953	141.1459
4207900000		0.85059	140.3914
4307850000		0.85216	139.4373
4407800000		0.85362	138.7021
4507750000		0.85476	137.6399
4607700000		0.85629	136.8044
4707650000		0.85716	135.7276
4807600000		0.85836	134.8686
4907550000		0.85959	133.7683
5007500000		0.86034	132.8136
5107450000		0.86149	131.6562
5207400000		0.86182	130.6978
5307350000		0.86239	129.6126
5407300000		0.8605	128.5271
5507250000		0.85959	127.5391
5607200000		0.85773	126.7151
5707150000		0.85721	125.8017
5807100000		0.85582	124.8293
5907050000		0.85599	123.8959
6007000000		0.85498	122.9899
6106950000		0.85419	122.0199
6206900000		0.85414	121.2681
6306850000		0.85416	120.4548
6406800000		0.85602	119.5006
6506750000		0.85698	118.6081
6606700000		0.85709	117.6329
6706650000		0.85832	116.8022
6806600000		0.85777	115.6479
6906550000		0.85733	114.7832
7006500000		0.85599	113.6354
7106450000		0.85537	113.0066
7206400000		0.85692	111.9225
7306350000		0.85761	111.1932
7406300000		0.85821	110.0766
7506250000		0.85697	109.2819
7606200000		0.85765	108.3564
7706150000		0.8546	107.4911
7806100000		0.85671	106.6927
!
!				Infineon Technologies AG
