! Infineon Technologies  Discrete & RF Semiconductors
! BAT63-02V
! IAC = 0.3 mA
! One-Port S-Parameters
# Hz  S  MA  R  50
!f									S11
!Hz							Mag  Ang
309850000		0.42399	-10.5422
409800000		0.42325	-13.8991
509750000		0.42424	-17.2684
609700000		0.42444	-21.0513
709650000		0.43038	-24.4961
809600000		0.42502	-28.4172
909550000		0.42978	-32.2395
1009500000		0.43181	-35.6223
1109450000		0.43811	-39.0758
1209400000		0.43217	-42.2847
1309350000		0.43427	-46.3091
1409300000		0.43375	-49.8858
1509250000		0.43295	-53.9693
1609200000		0.43485	-57.3856
1709150000		0.44765	-60.2359
1809100000		0.44753	-64.0627
1909050000		0.4457	-67.8981
2009000000		0.44197	-71.4388
2108950000		0.4539	-75.0374
2208900000		0.45563	-78.4167
2308850000		0.45983	-82.1664
2408800000		0.46414	-85.1443
2508750000		0.47114	-88.4584
2608700000		0.47688	-91.671
2708650000		0.47995	-95.1976
2808600000		0.49078	-98.2149
2908550000		0.49407	-101.6124
3008500000		0.49479	-104.7243
3108450000		0.5005	-107.8776
3208400000		0.50998	-110.7482
3308350000		0.5166	-113.7858
3408300000		0.52081	-116.9663
3508250000		0.52619	-119.9978
3608200000		0.53221	-122.7832
3708150000		0.53688	-125.7736
3808100000		0.54173	-128.5159
3908050000		0.54603	-131.3945
4008000000		0.55029	-134.2879
4107950000		0.55586	-136.8704
4207900000		0.56564	-139.1035
4307850000		0.57352	-141.3918
4407800000		0.5779	-144.0761
4507750000		0.58199	-146.5623
4607700000		0.58847	-149.0243
4707650000		0.59744	-151.0811
4807600000		0.60351	-153.5135
4907550000		0.61006	-155.8156
5007500000		0.61581	-158.2304
5107450000		0.62054	-160.7932
5207400000		0.62825	-163.0652
5307350000		0.63564	-165.497
5407300000		0.64039	-167.764
5507250000		0.64414	-170.2545
5607200000		0.6487	-172.3169
5707150000		0.6557	-174.5445
5807100000		0.66074	-176.6236
5907050000		0.66559	-179.0513
6007000000		0.67131	178.9919
6106950000		0.67643	176.8342
6206900000		0.68209	174.8256
6306850000		0.68649	172.7024
6406800000		0.69148	170.5695
6506750000		0.69717	168.5404
6606700000		0.70136	166.4975
6706650000		0.70643	164.5415
6806600000		0.71022	162.4493
6906550000		0.71468	160.514
7006500000		0.71857	158.4001
7106450000		0.72417	156.683
7206400000		0.72834	154.4736
7306350000		0.73284	152.7314
7406300000		0.73504	150.5443
7506250000		0.73851	148.9493
7606200000		0.74257	147.0835
7706150000		0.7436	145.4974
7806100000		0.75021	143.7901
!
!				Infineon Technologies AG
