! Infineon Technologies  Discrete & RF Semiconductors
! BAT24-02LS
! IAC = 80 mA
! One-Port S-Parameters
# Hz  S  MA  R  50
!f									S11
!Hz							Mag  Ang
309850000		0.6078	178.4528
334837500		0.60728	178.4282
359825000		0.60668	178.384
384812500		0.60635	178.2857
409800000		0.60605	178.2265
434787500		0.60585	178.2058
459775000		0.60584	178.1572
484762500		0.60546	178.0943
509750000		0.60499	178.075
534737500		0.60497	177.9874
559725000		0.60487	177.9255
584712500		0.60454	177.8832
609700000		0.60441	177.8333
634687500		0.60396	177.7326
659675000		0.60377	177.6916
684662500		0.60351	177.661
709650000		0.60353	177.5861
734637500		0.60335	177.571
759625000		0.60309	177.5377
784612500		0.60314	177.4506
809600000		0.60335	177.3665
834587500		0.6033	177.3379
859575000		0.6032	177.2745
884562500		0.60303	177.2095
909550000		0.60287	177.1463
934537500		0.60267	177.0802
959525000		0.6025	177.0149
984512500		0.60234	176.9565
1009500000		0.60215	176.8935
1034487500		0.60199	176.8361
1059475000		0.60187	176.7757
1084462500		0.60176	176.7223
1109450000		0.60179	176.6761
1134437500		0.60195	176.626
1159425000		0.60209	176.5671
1184412500		0.60207	176.4977
1209400000		0.60201	176.422
1234387500		0.60199	176.3357
1259375000		0.60174	176.3024
1284362500		0.60175	176.2316
1309350000		0.60164	176.1829
1334337500		0.60143	176.1098
1359325000		0.60125	176.0355
1384312500		0.60127	175.9654
1409300000		0.60116	175.905
1434287500		0.60095	175.8785
1459275000		0.60084	175.8249
1484262500		0.60072	175.762
1509250000		0.60097	175.7012
1534237500		0.60133	175.6367
1559225000		0.6015	175.5861
1584212500		0.60151	175.5197
1609200000		0.60148	175.4263
1634187500		0.60128	175.3293
1659175000		0.60111	175.2773
1684162500		0.60115	175.2461
1709150000		0.60087	175.1911
1734137500		0.60055	175.127
1759125000		0.60045	175.0499
1784112500		0.60032	174.9703
1809100000		0.6001	174.9269
1834087500		0.60009	174.897
1859075000		0.59999	174.8136
1884062500		0.60004	174.7516
1909050000		0.60016	174.7286
1934037500		0.60044	174.7035
1959025000		0.60087	174.6012
1984012500		0.60092	174.5455
2009000000		0.60108	174.4384
2033987500		0.60089	174.3488
2058975000		0.60059	174.3132
2083962500		0.60077	174.2268
2108950000		0.60047	174.1942
2133937500		0.60019	174.109
2158925000		0.60006	174.0496
2183912500		0.6	173.9508
2208900000		0.59991	173.8561
2233887500		0.59969	173.9127
2258875000		0.59981	173.8252
2283862500		0.5998	173.7484
2308850000		0.60004	173.6561
2333837500		0.59995	173.6761
2358825000		0.6003	173.5559
2383812500		0.60043	173.5046
2408800000		0.60026	173.4557
2433787500		0.59999	173.3743
2458775000		0.59989	173.2934
2483762500		0.60002	173.2269
2508750000		0.59984	173.2054
2533737500		0.59968	173.1561
2558725000		0.59951	173.0823
2583712500		0.59942	172.9852
2608700000		0.59952	172.8779
2633687500		0.59954	172.8565
2658675000		0.59937	172.828
2683662500		0.59918	172.7834
2708650000		0.59909	172.6976
2733637500		0.59908	172.6355
2758625000		0.59934	172.5772
2783612500		0.5994	172.5424
2808600000		0.59937	172.4735
2833587500		0.59911	172.4586
2858575000		0.59911	172.3807
2883562500		0.59939	172.2831
2908550000		0.59941	172.239
2933537500		0.5994	172.1524
2958525000		0.59905	172.1438
2983512500		0.59922	172.0109
3008500000		0.59927	171.9495
3033487500		0.59931	171.9112
3058475000		0.59925	171.859
3083462500		0.59909	171.7829
3108450000		0.5991	171.6916
3133437500		0.59915	171.6279
3158425000		0.59919	171.593
3183412500		0.59919	171.5379
3208400000		0.59902	171.4714
3233387500		0.5989	171.4
3258375000		0.5991	171.3267
3283362500		0.59903	171.2818
3308350000		0.59896	171.234
3333337500		0.59879	171.1703
3358325000		0.59871	171.1
3383312500		0.59883	171.0442
3408300000		0.59892	170.9881
3433287500		0.59881	170.9357
3458275000		0.5988	170.8816
3483262500		0.59893	170.8066
3508250000		0.59886	170.7685
3533237500		0.59907	170.6552
3558225000		0.59911	170.5992
3583212500		0.59899	170.5575
3608200000		0.59888	170.483
3633187500		0.59885	170.4249
3658175000		0.59905	170.3401
3683162500		0.59882	170.3121
3708150000		0.59874	170.223
3733137500		0.59873	170.1881
3758125000		0.59878	170.1076
3783112500		0.59865	170.0672
3808100000		0.59865	170.0215
3833087500		0.5987	169.9575
3858075000		0.59866	169.9001
3883062500		0.59871	169.8423
3908050000		0.59891	169.7577
3933037500		0.59873	169.7344
3958025000		0.59893	169.6483
3983012500		0.59892	169.6067
4008000000		0.59882	169.5346
4032987500		0.59878	169.4953
4057975000		0.59886	169.4223
4082962500		0.59884	169.3421
4107950000		0.59875	169.282
4132937500		0.59881	169.2318
4157925000		0.59874	169.165
4182912500		0.59859	169.0981
4207900000		0.59862	169.043
4232887500		0.59876	168.99
4257875000		0.59871	168.9372
4282862500		0.59855	168.8887
4307850000		0.59855	168.8271
4332837500		0.59856	168.7517
4357825000		0.59859	168.7013
4382812500		0.5987	168.6566
4407800000		0.59865	168.594
4432787500		0.59845	168.5303
4457775000		0.59859	168.4626
4482762500		0.59872	168.3956
4507750000		0.59871	168.3522
4532737500		0.59874	168.3047
4557725000		0.5987	168.2268
4582712500		0.59857	168.1597
4607700000		0.59874	168.1265
4632687500		0.59891	168.0822
4657675000		0.59867	168.0251
4682662500		0.59842	167.9577
4707650000		0.59842	167.8817
4732637500		0.59862	167.8139
4757625000		0.59867	167.7686
4782612500		0.5985	167.7202
4807600000		0.59834	167.6553
4832587500		0.59843	167.5706
4857575000		0.59855	167.5041
4882562500		0.59873	167.4751
4907550000		0.59878	167.4376
4932537500		0.59862	167.3724
4957525000		0.5985	167.3053
4982512500		0.59867	167.2517
5007500000		0.59888	167.2102
5032487500		0.59881	167.1635
5057475000		0.59861	167.1013
5082462500		0.59858	167.0301
5107450000		0.5987	166.9507
5132437500		0.59877	166.8948
5157425000		0.59869	166.8553
5182412500		0.59864	166.796
5207400000		0.59858	166.7111
5232387500		0.59859	166.6442
5257375000		0.59868	166.596
5282362500		0.59872	166.5503
5307350000		0.59866	166.4911
5332337500		0.59863	166.4288
5357325000		0.59877	166.3702
5382312500		0.59884	166.3208
5407300000		0.59885	166.2774
5432287500		0.59881	166.2218
5457275000		0.5987	166.1624
5482262500		0.59875	166.1061
5507250000		0.59888	166.0451
5532237500		0.59877	165.9784
5557225000		0.59864	165.9269
5582212500		0.59879	165.8721
5607200000		0.59885	165.8011
5632187500		0.59855	165.7373
5657175000		0.59854	165.6882
5682162500		0.59879	165.6111
5707150000		0.5989	165.5429
5732137500		0.59887	165.5124
5757125000		0.59891	165.4825
5782112500		0.59893	165.412
5807100000		0.5989	165.3351
5832087500		0.59903	165.283
5857075000		0.59924	165.2408
5882062500		0.59918	165.1978
5907050000		0.59882	165.1291
5932037500		0.59874	165.0528
5957025000		0.59887	164.9747
5982012500		0.59894	164.9155
6007000000		0.59884	164.8725
6031987500		0.59883	164.8021
6056975000		0.59881	164.6981
6081962500		0.59899	164.6382
6106950000		0.59939	164.6073
6131937500		0.59944	164.5887
6156925000		0.59928	164.556
6181912500		0.59926	164.4803
6206900000		0.59924	164.3976
6231887500		0.59927	164.3694
6256875000		0.59938	164.3523
6281862500		0.59916	164.2746
6306850000		0.59868	164.184
6331837500		0.59873	164.1091
6356825000		0.59907	164.0286
6381812500		0.59898	163.9697
6406800000		0.59881	163.9285
6431787500		0.59895	163.8491
6456775000		0.59908	163.7558
6481762500		0.59926	163.717
6506750000		0.59954	163.6939
6531737500		0.59952	163.6542
6556725000		0.59936	163.6079
6581712500		0.59947	163.5547
6606700000		0.59952	163.498
6631687500		0.59943	163.459
6656675000		0.59922	163.4109
6681662500		0.59915	163.3364
6706650000		0.59925	163.2583
6731637500		0.59937	163.1933
6756625000		0.59933	163.1233
6781612500		0.59917	163.0604
6806600000		0.59924	162.9846
6831587500		0.59949	162.9122
6856575000		0.59968	162.8581
6881562500		0.59967	162.8177
6906550000		0.59954	162.7763
6931537500		0.59961	162.728
6956525000		0.59982	162.6754
6981512500		0.59996	162.6371
7006500000		0.59993	162.6146
7031487500		0.59984	162.5603
7056475000		0.5997	162.485
7081462500		0.59971	162.4189
7106450000		0.59975	162.3582
7131437500		0.59958	162.3023
7156425000		0.59946	162.2304
7181412500		0.59938	162.1325
7206400000		0.59951	162.0672
7231387500		0.59991	162.0002
7256375000		0.60006	161.9388
7281362500		0.59997	161.8842
7306350000		0.60015	161.8446
7331337500		0.60042	161.7875
7356325000		0.60046	161.7625
7381312500		0.60065	161.7437
7406300000		0.60059	161.6857
7431287500		0.60032	161.6291
7456275000		0.60024	161.5861
7481262500		0.60025	161.5151
7506250000		0.6	161.4285
7531237500		0.60002	161.3497
7556225000		0.60018	161.2598
7581212500		0.60026	161.1846
7606200000		0.60031	161.1329
7631187500		0.60046	161.0621
7656175000		0.60059	160.9888
7681162500		0.60094	160.9511
7706150000		0.60122	160.9442
7731137500		0.60133	160.9331
7756125000		0.60103	160.8908
7781112500		0.60083	160.8257
7806100000		0.60095	160.7707
7831087500		0.601	160.7175
7856075000		0.60059	160.6794
7881062500		0.60033	160.6147
7906050000		0.60029	160.4859
7931037500		0.60043	160.381
7956025000		0.60083	160.326
7981012500		0.60097	160.2705
8006000000		0.60069	160.2074
8030987500		0.6007	160.131
8055975000		0.60125	160.0553
8080962500		0.60177	160.0243
8105950000		0.60173	160.04
8130937500		0.60139	160.0414
8155925000		0.60113	159.9726
8180912500		0.60111	159.8795
8205900000		0.60126	159.8306
8230887500		0.60133	159.8101
8255875000		0.60095	159.7498
8280862500		0.60049	159.6515
8305850000		0.6006	159.5421
8330837500		0.60097	159.444
8355825000		0.60108	159.3981
8380812500		0.60103	159.3608
8405800000		0.60104	159.2749
8430787500		0.60117	159.1914
8455775000		0.60171	159.1665
8480762500		0.60223	159.1603
8505750000		0.60199	159.147
8530737500		0.60165	159.1208
8555725000		0.6017	159.0484
8580712500		0.60187	158.9736
8605700000		0.60194	158.9399
8630687500		0.60177	158.9028
8655675000		0.60148	158.8241
8680662500		0.60127	158.719
8705650000		0.60137	158.6132
8730637500		0.60163	158.5223
8755625000		0.60176	158.454
8780612500		0.60178	158.3894
8805600000		0.60202	158.3411
8830587500		0.60237	158.3018
8855575000		0.60252	158.2662
8880562500		0.6026	158.2501
8905550000		0.60269	158.2274
8930537500		0.60265	158.193
8955525000		0.60253	158.1419
8980512500		0.60233	158.0795
9005500000		0.60216	157.9984
9030487500		0.60201	157.9131
9055475000		0.60197	157.8349
9080462500		0.60199	157.751
9105450000		0.60193	157.6455
9130437500		0.60196	157.5394
9155425000		0.60239	157.4621
9180412500		0.60297	157.4225
9205400000		0.60316	157.411
9230387500		0.60307	157.3791
9255375000		0.60305	157.3255
9280362500		0.60319	157.2748
9305350000		0.6035	157.263
9330337500		0.60363	157.2652
9355325000		0.60326	157.2237
9380312500		0.60279	157.1358
9405300000		0.60285	157.0468
9430287500		0.60319	156.9727
9455275000		0.60327	156.9111
9480262500		0.60288	156.8438
9505250000		0.60266	156.741
9530237500		0.60283	156.6083
9555225000		0.60322	156.5386
9580212500		0.60369	156.5203
9605200000		0.60375	156.4663
9630187500		0.60337	156.4014
9655175000		0.60369	156.3643
9680162500		0.60449	156.3193
9705150000		0.60452	156.2942
9730137500		0.60408	156.305
9755125000		0.60403	156.2477
9780112500		0.60406	156.1396
9805100000		0.60394	156.081
9830087500		0.60405	156.0447
9855075000		0.60376	155.9683
9880062500		0.60341	155.845
9905050000		0.60352	155.7327
9930037500		0.604	155.6593
9955025000		0.60425	155.6195
9980012500		0.6041	155.5723
10005000000		0.60411	155.5087
10029987500		0.60454	155.4438
10054975000		0.60478	155.4259
10079962500		0.60479	155.4378
10104950000		0.60465	155.4051
10129937500		0.6044	155.3259
10154925000		0.60454	155.2692
10179912500		0.60485	155.2348
10204900000		0.60462	155.2033
10229887500		0.60415	155.143
10254875000		0.60423	155.0084
10279862500		0.60461	154.866
10304850000		0.60504	154.8275
10329837500		0.60543	154.838
10354825000		0.60522	154.7636
10379812500		0.60496	154.6486
10404800000		0.60551	154.588
10429787500		0.60629	154.5827
10454775000		0.60639	154.6121
10479762500		0.6059	154.5924
10504750000		0.60564	154.4991
10529737500		0.606	154.3993
10554725000		0.60635	154.3722
10579712500		0.60637	154.3903
10604700000		0.60594	154.3102
10629687500		0.60533	154.1925
10654675000		0.60559	154.0612
10679662500		0.6065	153.9955
10704650000		0.60684	153.9645
10729637500		0.60638	153.9522
10754625000		0.60618	153.8205
10779612500		0.60658	153.7087
10804600000		0.60759	153.7004
10829587500		0.6083	153.7353
10854575000		0.60777	153.7408
10879562500		0.60714	153.693
10904550000		0.60749	153.5982
10929537500		0.60792	153.5176
10954525000		0.60796	153.5168
10979512500		0.60756	153.5066
11004500000		0.60697	153.3864
11029487500		0.60676	153.2282
11054475000		0.60742	153.131
11079462500		0.60803	153.0837
11104450000		0.60789	153.0583
11129437500		0.6078	152.9978
11154425000		0.60825	152.9046
11179412500		0.60884	152.8528
11204400000		0.60913	152.8836
11229387500		0.60904	152.939
11254375000		0.6088	152.8613
11279362500		0.60854	152.7916
11304350000		0.60882	152.722
11329337500		0.60902	152.644
11354325000		0.60864	152.5998
11379312500		0.60865	152.543
11404300000		0.60886	152.4075
11429287500		0.60883	152.3035
11454275000		0.60897	152.2721
11479262500		0.60954	152.2238
11504250000		0.60949	152.1531
11529237500		0.6095	152.1285
11554225000		0.60996	152.1196
11579212500		0.61018	152.0559
11604200000		0.60985	152.005
11629187500		0.60998	151.9867
11654175000		0.61025	151.935
11679162500		0.61005	151.8326
11704150000		0.60953	151.821
11729137500		0.60993	151.7378
11754125000		0.6102	151.5912
11779112500		0.61016	151.5831
11804100000		0.61041	151.5612
11829087500		0.6102	151.4645
11854075000		0.60978	151.3786
11879062500		0.61042	151.3228
11904050000		0.61111	151.2627
11929037500		0.61081	151.2672
11954025000		0.61055	151.316
11979012500		0.61076	151.1885
12004000000		0.61069	151.1032
12028987500		0.61112	151.1056
12053975000		0.61142	151.1089
12078962500		0.61092	151.0267
12103950000		0.61046	150.9408
12128937500		0.61085	150.8641
12153925000		0.61168	150.7786
12178912500		0.61146	150.7754
12203900000		0.61089	150.7267
12228887500		0.61083	150.6183
12253875000		0.61144	150.4529
12278862500		0.61196	150.4273
12303850000		0.6124	150.4702
12328837500		0.61219	150.433
12353825000		0.61171	150.3486
12378812500		0.61208	150.2842
12403800000		0.61281	150.2523
12428787500		0.61277	150.263
12453775000		0.61258	150.27
12478762500		0.61207	150.1277
12503750000		0.61174	150.0083
12528737500		0.61239	149.9641
12553725000		0.61296	149.9709
12578712500		0.61241	149.8836
12603700000		0.61208	149.7602
12628687500		0.61285	149.6924
12653675000		0.61371	149.6177
12678662500		0.61376	149.656
12703650000		0.61333	149.6807
12728637500		0.61305	149.6183
12753625000		0.61317	149.4931
12778612500		0.61359	149.4714
12803600000		0.6137	149.4527
12828587500		0.61299	149.3721
12853575000		0.61237	149.2752
12878562500		0.61307	149.1535
12903550000		0.6139	149.078
12928537500		0.61388	149.1262
12953525000		0.61429	149.0743
12978512500		0.61426	148.9674
13003500000		0.61459	148.8741
13028487500		0.61539	148.8508
13053475000		0.61548	148.8747
13078462500		0.61458	148.858
13103450000		0.61449	148.7859
13128437500		0.61509	148.6061
13153425000		0.61495	148.5845
13178412500		0.61463	148.6569
13203400000		0.61464	148.5332
13228387500		0.61453	148.354
13253375000		0.615	148.3149
13278362500		0.6164	148.2625
13303350000		0.61664	148.2767
13328337500		0.61578	148.2502
13353325000		0.61541	148.154
13378312500		0.61608	148.1541
13403300000		0.61693	148.0774
13428287500		0.61644	148.1317
13453275000		0.61584	148.1094
13478262500		0.6154	147.965
13503250000		0.61565	147.8525
13528237500		0.61662	147.8197
13553225000		0.61693	147.7446
13578212500		0.61594	147.7297
13603200000		0.616	147.6633
13628187500		0.6171	147.4327
13653175000		0.61735	147.3787
13678162500		0.61749	147.5012
13703150000		0.61756	147.4737
13728137500		0.61726	147.2771
13753125000		0.61734	147.2673
13778112500		0.61816	147.3187
13803100000		0.61857	147.211
13828087500		0.61757	147.2526
13853075000		0.61754	147.174
13878062500		0.61816	147.0685
13903050000		0.6185	147.0208
13928037500		0.61826	147.0091
13953025000		0.61782	146.9212
13978012500		0.61755	146.7646
14003000000		0.61779	146.6476
14027987500		0.61851	146.6113
14052975000		0.6187	146.6244
14077962500		0.61808	146.5989
14102950000		0.61841	146.5175
14127937500		0.61932	146.4825
14152925000		0.61974	146.4533
14177912500		0.61954	146.5463
14202900000		0.61966	146.4628
14227887500		0.61941	146.4088
14252875000		0.6199	146.3577
14277862500		0.62021	146.3509
14302850000		0.6192	146.3267
14327837500		0.61862	146.1576
14352825000		0.61927	146.0588
14377812500		0.62016	145.9573
14402800000		0.62032	145.9506
14427787500		0.62011	145.9504
14452775000		0.61987	145.8669
14477762500		0.62041	145.7405
14502750000		0.62148	145.7098
14527737500		0.62196	145.7479
14552725000		0.62151	145.7637
14577712500		0.62083	145.736
14602700000		0.62105	145.6399
14627687500		0.62167	145.599
14652675000		0.62187	145.6223
14677662500		0.62133	145.5483
14702650000		0.62043	145.4233
14727637500		0.62071	145.3215
14752625000		0.6222	145.2369
14777612500		0.62272	145.2448
14802600000		0.62203	145.2188
14827587500		0.62163	145.1308
14852575000		0.62236	144.9593
14877562500		0.62314	144.927
14902550000		0.62355	145.0246
14927537500		0.62309	145.0589
14952525000		0.62202	144.9618
14977512500		0.62218	144.8455
15002500000		0.62359	144.7973
15027487500		0.62434	144.831
15052475000		0.62375	144.8458
15077462500		0.62295	144.7827
15102450000		0.62307	144.6072
15127437500		0.62331	144.565
15152425000		0.6241	144.5555
15177412500		0.62395	144.5348
15202400000		0.62309	144.4047
15227387500		0.623	144.2874
15252375000		0.62437	144.255
15277362500		0.62511	144.2435
15302350000		0.62465	144.2562
15327337500		0.62476	144.2081
15352325000		0.62549	144.059
15377312500		0.62572	144.0079
15402300000		0.62614	144.1242
15427287500		0.62591	144.1635
15452275000		0.62468	144.0584
15477262500		0.62419	143.9107
15502250000		0.62487	143.8162
15527237500		0.62527	143.7032
15552225000		0.62472	143.7044
15577212500		0.62493	143.6029
15602200000		0.62558	143.4017
15627187500		0.62614	143.3692
15652175000		0.62702	143.4085
15677162500		0.62732	143.4076
15702150000		0.62681	143.4023
15727137500		0.62694	143.3725
15752125000		0.62766	143.366
15777112500		0.62744	143.3547
15802100000		0.62641	143.3211
15827087500		0.62583	143.3207
15852075000		0.6263	143.1468
15877062500		0.62623	143.0784
15902050000		0.62668	142.9737
15927037500		0.62654	142.8954
15952025000		0.62619	142.8603
15977012500		0.62681	142.7145
16002000000		0.62779	142.6101
16026987500		0.62756	142.5776
16051975000		0.62721	142.6044
16076962500		0.62771	142.488
16101950000		0.62793	142.4542
16126937500		0.62837	142.4512
16151925000		0.62853	142.4937
16176912500		0.62818	142.4535
16201900000		0.6282	142.3157
16226887500		0.62863	142.3469
16251875000		0.62913	142.3291
16276862500		0.62874	142.2352
16301850000		0.62779	142.1855
16326837500		0.62789	141.9944
16351825000		0.62827	141.9983
16376812500		0.62909	141.893
16401800000		0.62853	141.8966
16426787500		0.62765	141.7807
16451775000		0.6277	141.6866
16476762500		0.62933	141.5364
16501750000		0.63039	141.5834
16526737500		0.63026	141.6112
16551725000		0.62989	141.62
16576712500		0.63019	141.5622
16601700000		0.6306	141.4963
16626687500		0.63104	141.5794
16651675000		0.63059	141.5681
16676662500		0.6295	141.3621
16701650000		0.62924	141.2017
16726637500		0.63025	141.111
16751625000		0.63044	141.048
16776612500		0.63015	141.0484
16801600000		0.63022	140.8776
16826587500		0.63054	140.7106
16851575000		0.63139	140.6901
16876562500		0.63289	140.7646
16901550000		0.63307	140.7895
16926537500		0.63221	140.8302
16951525000		0.63238	140.7573
16976512500		0.63308	140.8051
17001500000		0.63295	140.7447
17026487500		0.63164	140.7136
17051475000		0.63115	140.5789
17076462500		0.63141	140.2942
17101450000		0.63149	140.3047
17126437500		0.63202	140.274
17151425000		0.63171	140.1771
17176412500		0.6314	139.9573
17201400000		0.63265	139.8671
17226387500		0.63457	139.8755
17251375000		0.63501	139.9229
17276362500		0.63377	140.0393
17301350000		0.63357	139.9485
