! Infineon Technologies  Discrete & RF Semiconductors
! BAT24-02LS
! VCA = 4 V
! One-Port S-Parameters
# Hz  S  MA  R  50
!f									S11
!Hz							Mag  Ang
309850000		1	-1.6693
334837500		1.0001	-1.8071
359825000		1.0004	-1.963
384812500		1.0002	-2.0538
409800000		1	-2.1841
434787500		0.99967	-2.3139
459775000		0.99989	-2.42
484762500		1.0004	-2.5928
509750000		1.0004	-2.7376
534737500		1.0001	-2.8785
559725000		0.99997	-3.0075
584712500		1.0002	-3.1578
609700000		1.0001	-3.3016
634687500		1.0001	-3.4169
659675000		0.99941	-3.5512
684662500		0.99949	-3.6497
709650000		0.99974	-3.7877
734637500		0.99959	-3.9222
759625000		0.99955	-4.0327
784612500		0.9999	-4.1506
809600000		1.0001	-4.3008
834587500		1.0003	-4.4486
859575000		1.0001	-4.5628
884562500		1.0004	-4.7476
909550000		1.0001	-4.8949
934537500		0.99991	-5.0246
959525000		1.0001	-5.1575
984512500		0.9998	-5.2946
1009500000		0.99955	-5.4213
1034487500		0.99941	-5.5508
1059475000		0.99914	-5.6542
1084462500		0.99964	-5.7692
1109450000		0.99949	-5.8983
1134437500		0.99943	-6.0081
1159425000		1.0001	-6.1272
1184412500		1.0007	-6.2911
1209400000		1.0006	-6.4575
1234387500		0.99998	-6.5586
1259375000		1.0002	-6.7298
1284362500		1.0002	-6.889
1309350000		0.99992	-7.0339
1334337500		1.0001	-7.157
1359325000		1.0001	-7.2955
1384312500		0.99941	-7.4219
1409300000		0.99945	-7.5353
1434287500		0.99921	-7.6879
1459275000		0.99891	-7.7726
1484262500		0.9996	-7.8568
1509250000		0.99997	-7.9821
1534237500		1.0003	-8.1013
1559225000		1.0012	-8.2623
1584212500		1.0014	-8.4641
1609200000		1.0009	-8.6212
1634187500		1.0011	-8.7492
1659175000		1.0012	-8.934
1684162500		1.0004	-9.1127
1709150000		0.9999	-9.2427
1734137500		0.99992	-9.3822
1759125000		0.99917	-9.5141
1784112500		0.99869	-9.5955
1809100000		0.9987	-9.7212
1834087500		0.99819	-9.8411
1859075000		0.99831	-9.9183
1884062500		0.99884	-10.0538
1909050000		0.9989	-10.1306
1934037500		0.99921	-10.2513
1959025000		0.99981	-10.399
1984012500		1.0002	-10.5864
2009000000		0.99965	-10.7069
2033987500		1.0002	-10.8615
2058975000		1.0004	-11.0318
2083962500		0.99975	-11.1908
2108950000		0.99941	-11.3001
2133937500		1.0001	-11.449
2158925000		0.99955	-11.6033
2183912500		0.99927	-11.6818
2208900000		0.99975	-11.801
2233887500		0.99898	-11.9595
2258875000		0.99878	-12.0581
2283862500		0.99938	-12.1845
2308850000		0.99963	-12.3548
2333837500		0.99942	-12.4281
2358825000		0.99999	-12.5861
2383812500		0.99971	-12.7626
2408800000		0.99984	-12.9098
2433787500		1.0004	-13.083
2458775000		1.0001	-13.1888
2483762500		0.99957	-13.3237
2508750000		0.99926	-13.4649
2533737500		0.99943	-13.6185
2558725000		0.9993	-13.7518
2583712500		0.99911	-13.8563
2608700000		0.99874	-13.9383
2633687500		0.99857	-14.1111
2658675000		0.99852	-14.2628
2683662500		0.99844	-14.3996
2708650000		0.99854	-14.519
2733637500		0.99869	-14.5894
2758625000		0.99849	-14.7372
2783612500		0.99855	-14.8907
2808600000		0.99879	-15.0398
2833587500		0.99874	-15.1588
2858575000		0.99877	-15.2777
2883562500		0.99876	-15.4223
2908550000		0.99865	-15.5803
2933537500		0.99874	-15.727
2958525000		0.99849	-15.8156
2983512500		0.99882	-15.9818
3008500000		0.99874	-16.0813
3033487500		0.99868	-16.2459
3058475000		0.99866	-16.3887
3083462500		0.9987	-16.5052
3108450000		0.99886	-16.648
3133437500		0.9986	-16.7601
3158425000		0.99843	-16.9228
3183412500		0.99819	-17.0576
3208400000		0.99851	-17.1809
3233387500		0.99846	-17.3123
3258375000		0.99823	-17.4775
3283362500		0.99775	-17.5544
3308350000		0.99791	-17.7327
3333337500		0.99806	-17.8454
3358325000		0.9983	-18.0001
3383312500		0.99777	-18.0985
3408300000		0.99773	-18.2157
3433287500		0.99822	-18.3611
3458275000		0.99839	-18.5064
3483262500		0.99808	-18.6176
3508250000		0.99817	-18.7358
3533237500		0.99858	-18.8942
3558225000		0.99834	-19.0596
3583212500		0.99813	-19.1795
3608200000		0.99827	-19.3052
3633187500		0.99807	-19.4565
3658175000		0.99766	-19.6019
3683162500		0.99777	-19.7296
3708150000		0.99803	-19.8794
3733137500		0.99744	-20.0055
3758125000		0.99734	-20.1409
3783112500		0.99752	-20.2436
3808100000		0.99741	-20.3998
3833087500		0.99729	-20.5119
3858075000		0.99756	-20.627
3883062500		0.99753	-20.7692
3908050000		0.99754	-20.9014
3933037500		0.99779	-21.0495
3958025000		0.99755	-21.1971
3983012500		0.99729	-21.3118
4008000000		0.99782	-21.4762
4032987500		0.99777	-21.6196
4057975000		0.99711	-21.7537
4082962500		0.99725	-21.8593
4107950000		0.9976	-22.0034
4132937500		0.99722	-22.1564
4157925000		0.99703	-22.2785
4182912500		0.99737	-22.4066
4207900000		0.99725	-22.5653
4232887500		0.99657	-22.6977
4257875000		0.99657	-22.8152
4282862500		0.99687	-22.9712
4307850000		0.99648	-23.1153
4332837500		0.99624	-23.2155
4357825000		0.99637	-23.3541
4382812500		0.996	-23.5084
4407800000		0.99606	-23.6292
4432787500		0.99644	-23.7518
4457775000		0.99638	-23.8865
4482762500		0.99619	-24.0129
4507750000		0.99627	-24.1695
4532737500		0.99598	-24.3147
4557725000		0.99612	-24.4115
4582712500		0.99654	-24.5469
4607700000		0.99622	-24.723
4632687500		0.9956	-24.8758
4657675000		0.99571	-24.998
4682662500		0.99604	-25.1289
4707650000		0.99591	-25.2586
4732637500		0.99544	-25.3957
4757625000		0.99513	-25.5329
4782612500		0.99532	-25.6756
4807600000		0.99531	-25.8
4832587500		0.99512	-25.9017
4857575000		0.99515	-26.0226
4882562500		0.99508	-26.1934
4907550000		0.99466	-26.335
4932537500		0.9949	-26.4338
4957525000		0.99537	-26.5609
4982512500		0.99514	-26.7193
5007500000		0.99449	-26.8658
5032487500		0.99469	-26.9954
5057475000		0.99511	-27.1327
5082462500		0.99508	-27.2706
5107450000		0.99462	-27.3938
5132437500		0.99465	-27.5349
5157425000		0.99472	-27.7022
5182412500		0.99442	-27.8344
5207400000		0.99442	-27.9315
5232387500		0.99454	-28.0579
5257375000		0.99429	-28.2069
5282362500		0.99411	-28.3432
5307350000		0.99414	-28.4586
5332337500		0.99433	-28.5776
5357325000		0.99422	-28.7169
5382312500		0.99398	-28.8653
5407300000		0.99389	-29.0125
5432287500		0.99399	-29.1439
5457275000		0.99406	-29.2818
5482262500		0.99378	-29.4318
5507250000		0.99352	-29.5582
5532237500		0.9939	-29.6831
5557225000		0.99413	-29.8378
5582212500		0.99356	-29.9835
5607200000		0.9932	-30.0767
5632187500		0.99401	-30.1967
5657175000		0.99419	-30.3612
5682162500		0.99346	-30.4682
5707150000		0.99351	-30.5605
5732137500		0.99383	-30.718
5757125000		0.99365	-30.888
5782112500		0.9935	-31.0091
5807100000		0.99374	-31.129
5832087500		0.99363	-31.2793
5857075000		0.9932	-31.441
5882062500		0.9931	-31.5859
5907050000		0.99356	-31.716
5932037500		0.99371	-31.8481
5957025000		0.99331	-31.9645
5982012500		0.99334	-32.0815
6007000000		0.99371	-32.242
6031987500		0.99361	-32.3796
6056975000		0.99352	-32.4679
6081962500		0.99355	-32.5892
6106950000		0.99317	-32.7557
6131937500		0.99308	-32.9263
6156925000		0.9931	-33.0906
6181912500		0.99284	-33.2067
6206900000		0.99301	-33.3165
6231887500		0.9931	-33.5039
6256875000		0.99244	-33.6744
6281862500		0.99255	-33.7743
6306850000		0.99356	-33.888
6331837500		0.99326	-34.0446
6356825000		0.99234	-34.1538
6381812500		0.99264	-34.2683
6406800000		0.99306	-34.4227
6431787500		0.99266	-34.5519
6456775000		0.9924	-34.6431
6481762500		0.99254	-34.789
6506750000		0.99222	-34.9629
6531737500		0.99215	-35.1048
6556725000		0.99235	-35.2443
6581712500		0.99223	-35.3889
6606700000		0.99198	-35.5364
6631687500		0.99212	-35.6828
6656675000		0.99221	-35.8278
6681662500		0.99224	-35.9478
6706650000		0.99204	-36.0786
6731637500		0.99176	-36.209
6756625000		0.9919	-36.3345
6781612500		0.99228	-36.4573
6806600000		0.99214	-36.5937
6831587500		0.99156	-36.7153
6856575000		0.99141	-36.8454
6881562500		0.99157	-36.9914
6906550000		0.9917	-37.1415
6931537500		0.9915	-37.2762
6956525000		0.99122	-37.4149
6981512500		0.99112	-37.5698
7006500000		0.99114	-37.7389
7031487500		0.99118	-37.8751
7056475000		0.99128	-38.0018
7081462500		0.99114	-38.1386
7106450000		0.99092	-38.2768
7131437500		0.99092	-38.4192
7156425000		0.99091	-38.5285
7181412500		0.99124	-38.617
7206400000		0.99128	-38.7536
7231387500		0.99064	-38.8951
7256375000		0.9906	-39.0092
7281362500		0.99099	-39.1612
7306350000		0.99065	-39.3126
7331337500		0.9905	-39.4475
7356325000		0.99065	-39.635
7381312500		0.99003	-39.8154
7406300000		0.99002	-39.9202
7431287500		0.99074	-40.0556
7456275000		0.99046	-40.2205
7481262500		0.99004	-40.3356
7506250000		0.99054	-40.4462
7531237500		0.9907	-40.5728
7556225000		0.99031	-40.6737
7581212500		0.99042	-40.7968
7606200000		0.99024	-40.9511
7631187500		0.98996	-41.0809
7656175000		0.99011	-41.205
7681162500		0.99006	-41.369
7706150000		0.98963	-41.5565
7731137500		0.9894	-41.7257
7756125000		0.98986	-41.8706
7781112500		0.99014	-42.0208
7806100000		0.98937	-42.1524
7831087500		0.9892	-42.262
7856075000		0.98987	-42.42
7881062500		0.98983	-42.5719
7906050000		0.98957	-42.6328
7931037500		0.98992	-42.719
7956025000		0.98947	-42.8815
7981012500		0.98912	-43.0222
8006000000		0.98971	-43.1556
8030987500		0.98984	-43.3091
8055975000		0.98894	-43.4381
8080962500		0.98858	-43.5874
8105950000		0.98884	-43.7801
8130937500		0.98912	-43.9714
8155925000		0.98903	-44.098
8180912500		0.98886	-44.1984
8205900000		0.98868	-44.3462
8230887500		0.98838	-44.5056
8255875000		0.98859	-44.631
8280862500		0.98908	-44.738
8305850000		0.98874	-44.8391
8330837500		0.9883	-44.9445
8355825000		0.98854	-45.0964
8380812500		0.98849	-45.2645
8405800000		0.9883	-45.3725
8430787500		0.98863	-45.4872
8455775000		0.98813	-45.6749
8480762500		0.9874	-45.8468
8505750000		0.98787	-46.0023
8530737500		0.98841	-46.1682
8555725000		0.98779	-46.3017
8580712500		0.98741	-46.4096
8605700000		0.98754	-46.5569
8630687500		0.98765	-46.7161
8655675000		0.98775	-46.8357
8680662500		0.98781	-46.9287
8705650000		0.9877	-47.0406
8730637500		0.9873	-47.1743
8755625000		0.98726	-47.3006
8780612500		0.98748	-47.4415
8805600000		0.98721	-47.6015
8830587500		0.98678	-47.7379
8855575000		0.98674	-47.8911
8880562500		0.98681	-48.0647
8905550000		0.98671	-48.2199
8930537500		0.98661	-48.3621
8955525000		0.98661	-48.4996
8980512500		0.98655	-48.6244
9005500000		0.98652	-48.7454
9030487500		0.98662	-48.8642
9055475000		0.98661	-48.9984
9080462500		0.98637	-49.1194
9105450000		0.98645	-49.214
9130437500		0.98669	-49.3365
9155425000		0.98635	-49.4902
9180412500		0.98589	-49.6466
9205400000		0.98601	-49.809
9230387500		0.98605	-49.9776
9255375000		0.98587	-50.1014
9280362500		0.98582	-50.2344
9305350000		0.98556	-50.4141
9330337500		0.98523	-50.5699
9355325000		0.98554	-50.687
9380312500		0.98602	-50.8003
9405300000		0.9858	-50.9315
9430287500		0.9853	-51.0742
9455275000		0.98522	-51.2188
9480262500		0.98571	-51.3474
9505250000		0.98586	-51.4534
9530237500		0.98561	-51.5567
9555225000		0.98544	-51.7176
9580212500		0.98478	-51.9026
9605200000		0.98465	-52.0181
9630187500		0.98545	-52.1289
9655175000		0.98507	-52.3014
9680162500		0.98404	-52.4431
9705150000		0.98437	-52.5906
9730137500		0.98481	-52.7801
9755125000		0.9844	-52.9021
9780112500		0.98448	-52.9844
9805100000		0.98462	-53.15
9830087500		0.98426	-53.3293
9855075000		0.98435	-53.4374
9880062500		0.98482	-53.5322
9905050000		0.98465	-53.6614
9930037500		0.98384	-53.806
9955025000		0.98354	-53.9641
9980012500		0.98378	-54.1153
10005000000		0.98381	-54.2393
10029987500		0.98338	-54.3618
10054975000		0.98315	-54.5173
10079962500		0.98306	-54.6972
10104950000		0.9831	-54.8388
10129937500		0.9832	-54.9476
10154925000		0.9829	-55.0777
10179912500		0.98258	-55.2288
10204900000		0.98293	-55.3907
10229887500		0.98322	-55.5389
10254875000		0.98269	-55.609
10279862500		0.9826	-55.6836
10304850000		0.9826	-55.88
10329837500		0.98216	-56.0828
10354825000		0.98216	-56.1951
10379812500		0.98278	-56.2902
10404800000		0.98227	-56.4226
10429787500		0.98151	-56.5942
10454775000		0.9815	-56.7776
10479762500		0.98201	-56.9235
10504750000		0.98206	-57.0295
10529737500		0.98163	-57.1275
10554725000		0.98141	-57.2999
10579712500		0.98132	-57.5065
10604700000		0.98152	-57.6356
10629687500		0.98221	-57.6995
10654675000		0.98187	-57.8025
10679662500		0.98096	-57.9494
10704650000		0.98119	-58.1345
10729637500		0.98125	-58.2961
10754625000		0.98141	-58.3764
10779612500		0.98112	-58.4655
10804600000		0.98013	-58.6531
10829587500		0.97969	-58.8365
10854575000		0.9806	-59.0147
10879562500		0.98093	-59.1635
10904550000		0.98003	-59.2604
10929537500		0.97991	-59.3643
10954525000		0.98044	-59.5821
10979512500		0.98029	-59.7771
11004500000		0.98042	-59.8479
11029487500		0.98051	-59.9055
11054475000		0.97983	-60.0414
11079462500		0.97948	-60.1998
11104450000		0.97969	-60.3443
11129437500		0.98003	-60.5251
11154425000		0.9794	-60.624
11179412500		0.97896	-60.7734
11204400000		0.97902	-60.9363
11229387500		0.9789	-61.1195
11254375000		0.97928	-61.2358
11279362500		0.97949	-61.3594
11304350000		0.97883	-61.487
11329337500		0.97878	-61.5987
11354325000		0.97962	-61.7724
11379312500		0.97913	-61.9598
11404300000		0.97833	-62.0352
11429287500		0.97895	-62.1427
11454275000		0.97878	-62.352
11479262500		0.97774	-62.4975
11504250000		0.97817	-62.5906
11529237500		0.97873	-62.7839
11554225000		0.97786	-62.9509
11579212500		0.97742	-63.0422
11604200000		0.97832	-63.1773
11629187500		0.97817	-63.4048
11654175000		0.97719	-63.4994
11679162500		0.97753	-63.5938
11704150000		0.97787	-63.752
11729137500		0.9771	-63.8845
11754125000		0.97724	-63.9926
11779112500		0.97715	-64.1698
11804100000		0.97641	-64.3043
11829087500		0.97686	-64.4206
11854075000		0.9775	-64.5761
11879062500		0.97649	-64.7422
11904050000		0.9759	-64.8551
11929037500		0.97663	-65.0322
11954025000		0.97644	-65.2149
11979012500		0.97593	-65.2875
12004000000		0.97633	-65.3946
12028987500		0.97598	-65.6286
12053975000		0.97515	-65.7415
12078962500		0.9756	-65.8103
12103950000		0.97621	-65.9425
12128937500		0.97551	-66.0678
12153925000		0.97528	-66.235
12178912500		0.97528	-66.3742
12203900000		0.97567	-66.498
12228887500		0.97589	-66.6373
12253875000		0.97512	-66.7343
12278862500		0.975	-66.9317
12303850000		0.97453	-67.1459
12328837500		0.9746	-67.2532
12353825000		0.97518	-67.3901
12378812500		0.97452	-67.4841
12403800000		0.97402	-67.6253
12428787500		0.97438	-67.7935
12453775000		0.97422	-67.956
12478762500		0.97452	-68.0004
12503750000		0.97495	-68.1488
12528737500		0.9742	-68.3239
12553725000		0.97337	-68.4455
12578712500		0.97446	-68.5634
12603700000		0.97508	-68.7215
12628687500		0.97365	-68.8419
12653675000		0.97357	-69.0077
12678662500		0.97375	-69.2554
12703650000		0.97367	-69.3741
12728637500		0.97375	-69.4421
12753625000		0.97394	-69.5257
12778612500		0.97324	-69.7117
12803600000		0.97324	-69.8669
12828587500		0.97346	-69.9641
12853575000		0.97373	-70.0501
12878562500		0.973	-70.1521
12903550000		0.97262	-70.2866
12928537500		0.9725	-70.4621
12953525000		0.97236	-70.6754
12978512500		0.9727	-70.7524
13003500000		0.97274	-70.9389
13028487500		0.97214	-71.1114
13053475000		0.97209	-71.2433
13078462500		0.97362	-71.4219
13103450000		0.97304	-71.5763
13128437500		0.97241	-71.6239
13153425000		0.97276	-71.7476
13178412500		0.97262	-71.9238
13203400000		0.97232	-72.0557
13228387500		0.97249	-72.1157
13253375000		0.9722	-72.2601
13278362500		0.97132	-72.4345
13303350000		0.97129	-72.6098
13328337500		0.97199	-72.7265
13353325000		0.97235	-72.883
13378312500		0.97107	-73.0054
13403300000		0.97088	-73.1512
13428287500		0.97208	-73.3808
13453275000		0.97184	-73.5243
13478262500		0.972	-73.5807
13503250000		0.97181	-73.7053
13528237500		0.9708	-73.879
13553225000		0.97083	-74.0291
13578212500		0.97157	-74.1323
13603200000		0.97101	-74.2473
13628187500		0.97024	-74.3538
13653175000		0.97031	-74.4703
13678162500		0.97041	-74.7493
13703150000		0.97043	-74.8173
13728137500		0.97171	-74.938
13753125000		0.97067	-75.1632
13778112500		0.96921	-75.3458
13803100000		0.9702	-75.449
13828087500		0.97079	-75.5983
13853075000		0.97011	-75.6973
13878062500		0.96933	-75.8057
13903050000		0.96946	-75.9702
13928037500		0.96965	-76.1158
13953025000		0.9697	-76.2293
13978012500		0.9699	-76.3226
14003000000		0.96976	-76.4829
14027987500		0.96962	-76.6519
14052975000		0.96925	-76.7943
14077962500		0.96991	-76.9553
14102950000		0.96938	-77.0905
14127937500		0.96845	-77.2449
14152925000		0.96879	-77.3923
14177912500		0.96839	-77.6014
14202900000		0.96835	-77.7327
14227887500		0.96892	-77.8284
14252875000		0.96859	-77.991
14277862500		0.96792	-78.1462
14302850000		0.96892	-78.2319
14327837500		0.9695	-78.3632
14352825000		0.96836	-78.4587
14377812500		0.96793	-78.5885
14402800000		0.9681	-78.777
14427787500		0.96794	-78.9699
14452775000		0.96774	-79.0412
14477762500		0.96728	-79.1542
14502750000		0.96684	-79.3229
14527737500		0.96676	-79.5454
14552725000		0.96758	-79.6721
14577712500		0.9678	-79.783
14602700000		0.96738	-79.8929
14627687500		0.96718	-80.0506
14652675000		0.96705	-80.2359
14677662500		0.96698	-80.3724
14702650000		0.96788	-80.4236
14727637500		0.96705	-80.571
14752625000		0.9662	-80.683
14777612500		0.96629	-80.8175
14802600000		0.96724	-81.0063
14827587500		0.96683	-81.1151
14852575000		0.96602	-81.2142
14877562500		0.96613	-81.4275
14902550000		0.96579	-81.6371
14927537500		0.96602	-81.779
14952525000		0.96692	-81.8876
14977512500		0.96638	-82.0064
15002500000		0.96512	-82.1653
15027487500		0.96518	-82.3354
15052475000		0.96627	-82.5136
15077462500		0.96582	-82.5504
15102450000		0.96583	-82.6478
15127437500		0.96576	-82.8265
15152425000		0.96504	-82.9893
15177412500		0.96525	-83.1192
15202400000		0.96616	-83.2283
15227387500		0.96578	-83.3374
15252375000		0.96483	-83.4808
15277362500		0.96505	-83.6724
15302350000		0.96604	-83.8806
15327337500		0.96534	-84.0125
15352325000		0.96435	-84.1019
15377312500		0.96495	-84.2693
15402300000		0.96457	-84.5035
15427287500		0.96447	-84.6201
15452275000		0.96539	-84.6922
15477262500		0.96535	-84.7892
15502250000		0.96439	-84.9311
15527237500		0.96492	-85.0546
15552225000		0.96526	-85.2154
15577212500		0.96431	-85.3461
15602200000		0.9638	-85.446
15627187500		0.96364	-85.6036
15652175000		0.96305	-85.821
15677162500		0.96348	-85.9496
15702150000		0.96416	-86.102
15727137500		0.96354	-86.2576
15752125000		0.96305	-86.403
15777112500		0.96443	-86.5237
15802100000		0.96508	-86.7493
15827087500		0.96412	-86.826
15852075000		0.96328	-86.889
15877062500		0.9632	-87.0035
15902050000		0.96316	-87.1837
15927037500		0.96322	-87.3015
15952025000		0.96255	-87.3838
15977012500		0.96229	-87.5054
16002000000		0.96171	-87.6492
16026987500		0.96257	-87.804
16051975000		0.96249	-87.9307
16076962500		0.96215	-88.1155
16101950000		0.9627	-88.2486
16126937500		0.96223	-88.4291
16151925000		0.96147	-88.5897
16176912500		0.96164	-88.7053
16201900000		0.9621	-88.84
16226887500		0.96077	-89.0248
16251875000		0.96052	-89.1342
16276862500		0.96202	-89.2245
16301850000		0.9626	-89.3465
16326837500		0.96216	-89.4726
16351825000		0.96143	-89.5575
16376812500		0.96175	-89.7858
16401800000		0.96173	-89.8697
16426787500		0.96255	-89.961
16451775000		0.96134	-90.1207
16476762500		0.96064	-90.3185
16501750000		0.96042	-90.4642
16526737500		0.96128	-90.6626
16551725000		0.96109	-90.7546
16576712500		0.96017	-90.8722
16601700000		0.96083	-91.0648
16626687500		0.96004	-91.255
16651675000		0.96118	-91.338
16676662500		0.96204	-91.403
16701650000		0.9614	-91.5119
16726637500		0.9603	-91.6505
16751625000		0.96064	-91.7825
16776612500		0.9606	-91.9292
16801600000		0.96036	-92.0234
16826587500		0.96038	-92.1654
16851575000		0.9598	-92.3961
16876562500		0.95892	-92.5804
16901550000		0.9598	-92.7104
16926537500		0.96042	-92.8624
16951525000		0.96034	-93.035
16976512500		0.9601	-93.1594
17001500000		0.96102	-93.2851
17026487500		0.96123	-93.4369
17051475000		0.96036	-93.4439
17076462500		0.96041	-93.4797
17101450000		0.96022	-93.6798
17126437500		0.95978	-93.901
17151425000		0.9599	-93.9475
17176412500		0.95973	-94.0148
17201400000		0.95903	-94.2298
17226387500		0.95853	-94.4371
17251375000		0.95985	-94.6774
17276362500		0.96031	-94.8313
17301350000		0.95954	-94.9016
17326337500		0.95868	-95.015
17351325000		0.9584	-95.2702
17376312500		0.9588	-95.4164
