! Infineon Technologies  Discrete & RF Semiconductors
! BAT24-02LS
! IAC = 8 mA
! One-Port S-Parameters
# Hz  S  MA  R  50
!f									S11
!Hz							Mag  Ang
309850000		0.69201	178.8814
334837500		0.69176	178.8356
359825000		0.6914	178.7752
384812500		0.69141	178.6557
409800000		0.69129	178.5771
434787500		0.69122	178.536
459775000		0.69147	178.4686
484762500		0.69116	178.3871
509750000		0.69093	178.3189
534737500		0.69081	178.2827
559725000		0.69077	178.2025
584712500		0.69055	178.1448
609700000		0.69051	178.072
634687500		0.68999	177.9567
659675000		0.68987	177.9094
684662500		0.68985	177.8275
709650000		0.68977	177.7759
734637500		0.68983	177.7192
759625000		0.68973	177.6402
784612500		0.68976	177.5727
809600000		0.68987	177.5122
834587500		0.69	177.4424
859575000		0.68996	177.3699
884562500		0.68972	177.2931
909550000		0.68965	177.2192
934537500		0.68946	177.1425
959525000		0.68922	177.07
984512500		0.68916	176.9998
1009500000		0.68894	176.9273
1034487500		0.68874	176.8635
1059475000		0.68873	176.7956
1084462500		0.6885	176.7345
1109450000		0.68861	176.685
1134437500		0.68883	176.621
1159425000		0.68903	176.5512
1184412500		0.689	176.4761
1209400000		0.68903	176.3952
1234387500		0.68902	176.2984
1259375000		0.68885	176.2241
1284362500		0.68871	176.1772
1309350000		0.68866	176.1214
1334337500		0.68836	176.0398
1359325000		0.68818	175.9593
1384312500		0.68823	175.88
1409300000		0.68807	175.8096
1434287500		0.68788	175.7809
1459275000		0.68778	175.719
1484262500		0.68765	175.6507
1509250000		0.68798	175.5871
1534237500		0.68841	175.5111
1559225000		0.68851	175.4475
1584212500		0.68863	175.3814
1609200000		0.68863	175.2783
1634187500		0.68834	175.1704
1659175000		0.68808	175.115
1684162500		0.68813	175.0712
1709150000		0.68799	175.0024
1734137500		0.68742	174.932
1759125000		0.68734	174.8537
1784112500		0.6873	174.7637
1809100000		0.68688	174.7132
1834087500		0.68688	174.6798
1859075000		0.68687	174.5899
1884062500		0.68674	174.5592
1909050000		0.68701	174.4973
1934037500		0.68749	174.4298
1959025000		0.68774	174.3541
1984012500		0.68783	174.292
2009000000		0.68792	174.2132
2033987500		0.68767	174.1094
2058975000		0.68729	174.0694
2083962500		0.6875	173.9807
2108950000		0.68733	173.9036
2133937500		0.68676	173.8479
2158925000		0.68656	173.8142
2183912500		0.68672	173.6742
2208900000		0.68646	173.5717
2233887500		0.6865	173.5617
2258875000		0.68646	173.5021
2283862500		0.6863	173.4532
2308850000		0.68672	173.3263
2333837500		0.68671	173.2993
2358825000		0.68677	173.2453
2383812500		0.68696	173.1906
2408800000		0.68672	173.1231
2433787500		0.6866	173.0057
2458775000		0.68634	172.958
2483762500		0.68642	172.8797
2508750000		0.68637	172.8177
2533737500		0.68619	172.7631
2558725000		0.68601	172.69
2583712500		0.68593	172.584
2608700000		0.68582	172.5012
2633687500		0.68591	172.4433
2658675000		0.6857	172.408
2683662500		0.68548	172.36
2708650000		0.68547	172.266
2733637500		0.68548	172.1644
2758625000		0.68559	172.1411
2783612500		0.68567	172.0987
2808600000		0.68558	172.0219
2833587500		0.68552	171.9662
2858575000		0.68546	171.8822
2883562500		0.68558	171.8189
2908550000		0.6856	171.7657
2933537500		0.68558	171.673
2958525000		0.68537	171.6258
2983512500		0.6854	171.5226
3008500000		0.68539	171.446
3033487500		0.68547	171.4001
3058475000		0.68538	171.342
3083462500		0.68518	171.2606
3108450000		0.68515	171.1681
3133437500		0.68511	171.0988
3158425000		0.68516	171.0588
3183412500		0.68514	170.994
3208400000		0.6849	170.9222
3233387500		0.68468	170.8857
3258375000		0.68495	170.7734
3283362500		0.6849	170.7191
3308350000		0.6848	170.6669
3333337500		0.68458	170.5962
3358325000		0.68453	170.5204
3383312500		0.68464	170.4601
3408300000		0.68459	170.4307
3433287500		0.68458	170.3402
3458275000		0.68449	170.2832
3483262500		0.68467	170.2008
3508250000		0.68471	170.1222
3533237500		0.68473	170.0373
3558225000		0.68468	170.0064
3583212500		0.68463	169.9283
3608200000		0.68447	169.8497
3633187500		0.68445	169.7895
3658175000		0.68456	169.7263
3683162500		0.68438	169.6578
3708150000		0.68429	169.5684
3733137500		0.68426	169.5277
3758125000		0.6843	169.4414
3783112500		0.6841	169.3935
3808100000		0.68404	169.347
3833087500		0.68411	169.2769
3858075000		0.684	169.2136
3883062500		0.68402	169.1521
3908050000		0.6841	169.0896
3933037500		0.68402	169.0317
3958025000		0.68407	168.9686
3983012500		0.68421	168.8912
4008000000		0.68414	168.8172
4032987500		0.68402	168.7733
4057975000		0.68413	168.6932
4082962500		0.68403	168.6056
4107950000		0.68384	168.5454
4132937500		0.68396	168.4912
4157925000		0.68393	168.415
4182912500		0.68366	168.3448
4207900000		0.68357	168.2889
4232887500		0.68373	168.2262
4257875000		0.68364	168.1662
4282862500		0.68344	168.1146
4307850000		0.68346	168.0508
4332837500		0.68343	167.9665
4357825000		0.68337	167.9113
4382812500		0.68347	167.8656
4407800000		0.68346	167.7961
4432787500		0.68322	167.7248
4457775000		0.68332	167.6537
4482762500		0.68344	167.5825
4507750000		0.68345	167.5367
4532737500		0.6834	167.4842
4557725000		0.68335	167.3996
4582712500		0.68314	167.3336
4607700000		0.68331	167.2945
4632687500		0.68351	167.2411
4657675000		0.68326	167.1752
4682662500		0.68295	167.1046
4707650000		0.68293	167.0242
4732637500		0.68308	166.9526
4757625000		0.68312	166.8998
4782612500		0.68295	166.8484
4807600000		0.6828	166.7787
4832587500		0.68286	166.6874
4857575000		0.68292	166.6184
4882562500		0.68306	166.5877
4907550000		0.68314	166.5441
4932537500		0.683	166.4672
4957525000		0.68276	166.3988
4982512500		0.68291	166.349
5007500000		0.68318	166.2981
5032487500		0.68306	166.2417
5057475000		0.6828	166.1762
5082462500		0.68275	166.1046
5107450000		0.68291	166.0197
5132437500		0.68294	165.9548
5157425000		0.68278	165.9145
5182412500		0.68275	165.8509
5207400000		0.68271	165.7586
5232387500		0.6826	165.6913
5257375000		0.68268	165.6434
5282362500		0.68278	165.5923
5307350000		0.68265	165.5271
5332337500		0.68256	165.458
5357325000		0.68264	165.4
5382312500		0.68279	165.346
5407300000		0.68276	165.2931
5432287500		0.68265	165.2335
5457275000		0.68257	165.1734
5482262500		0.68264	165.1132
5507250000		0.68272	165.0438
5532237500		0.68255	164.9694
5557225000		0.6824	164.9196
5582212500		0.68259	164.8638
5607200000		0.6827	164.7802
5632187500		0.68231	164.7107
5657175000		0.68221	164.6671
5682162500		0.68254	164.5854
5707150000		0.68261	164.5091
5732137500		0.68252	164.4787
5757125000		0.68258	164.4455
5782112500		0.68265	164.3663
5807100000		0.68252	164.2859
5832087500		0.68259	164.2335
5857075000		0.68284	164.1904
5882062500		0.68279	164.1367
5907050000		0.68237	164.064
5932037500		0.68226	163.9882
5957025000		0.68245	163.9082
5982012500		0.68249	163.8379
6007000000		0.6823	163.7927
6031987500		0.68233	163.7238
6056975000		0.68231	163.6183
6081962500		0.68251	163.5519
6106950000		0.68279	163.519
6131937500		0.68281	163.4953
6156925000		0.68266	163.4586
6181912500		0.68262	163.3784
6206900000		0.68259	163.2882
6231887500		0.68254	163.2629
6256875000		0.68272	163.2401
6281862500		0.68248	163.1477
6306850000		0.68186	163.0567
6331837500		0.68195	162.9886
6356825000		0.68238	162.9041
6381812500		0.68225	162.8347
6406800000		0.682	162.796
6431787500		0.68212	162.718
6456775000		0.68229	162.6198
6481762500		0.68237	162.5736
6506750000		0.68266	162.5517
6531737500		0.68264	162.5035
6556725000		0.68244	162.4534
6581712500		0.68247	162.3938
6606700000		0.68257	162.337
6631687500		0.68246	162.2953
6656675000		0.68227	162.2413
6681662500		0.68217	162.165
6706650000		0.68218	162.0857
6731637500		0.68241	162.0192
6756625000		0.68234	161.9437
6781612500		0.6821	161.8771
6806600000		0.68213	161.8082
6831587500		0.68245	161.7311
6856575000		0.68259	161.6678
6881562500		0.68252	161.6238
6906550000		0.68238	161.5818
6931537500		0.68247	161.5316
6956525000		0.68266	161.473
6981512500		0.68272	161.4329
7006500000		0.68264	161.4064
7031487500		0.68258	161.3506
7056475000		0.68245	161.2714
7081462500		0.68243	161.2036
7106450000		0.68241	161.141
7131437500		0.68229	161.0802
7156425000		0.68214	161.0026
7181412500		0.68201	160.9078
7206400000		0.68211	160.8408
7231387500		0.68253	160.7786
7256375000		0.68264	160.7005
7281362500		0.68249	160.6494
7306350000		0.68276	160.607
7331337500		0.68299	160.5442
7356325000		0.68293	160.5189
7381312500		0.6831	160.5008
7406300000		0.68311	160.4332
7431287500		0.6828	160.3707
7456275000		0.68272	160.327
7481262500		0.68275	160.2541
7506250000		0.68248	160.1687
7531237500		0.6824	160.0856
7556225000		0.68262	159.9928
7581212500		0.68264	159.9198
7606200000		0.68268	159.87
7631187500		0.68281	159.7949
7656175000		0.6829	159.7152
7681162500		0.68316	159.681
7706150000		0.68353	159.6745
7731137500		0.68364	159.6551
7756125000		0.68323	159.6031
7781112500		0.68294	159.5425
7806100000		0.68316	159.4827
7831087500		0.68324	159.4194
7856075000		0.68275	159.3815
7881062500		0.6825	159.3208
7906050000		0.68253	159.1886
7931037500		0.6826	159.0771
7956025000		0.68297	159.0283
7981012500		0.68317	158.9728
8006000000		0.6828	158.9032
8030987500		0.68267	158.8299
8055975000		0.68329	158.752
8080962500		0.68381	158.7194
8105950000		0.6837	158.7262
8130937500		0.68328	158.7229
8155925000		0.683	158.6589
8180912500		0.68306	158.5595
8205900000		0.68324	158.5073
8230887500		0.68321	158.4815
8255875000		0.68285	158.4187
8280862500		0.68237	158.3202
8305850000		0.68249	158.2087
8330837500		0.6829	158.1093
8355825000		0.6829	158.0645
8380812500		0.68285	158.0316
8405800000		0.68281	157.9404
8430787500		0.68285	157.8537
8455775000		0.68341	157.8357
8480762500		0.68393	157.825
8505750000		0.68368	157.8017
8530737500		0.68319	157.7766
8555725000		0.68328	157.7077
8580712500		0.68353	157.6288
8605700000		0.68349	157.5884
8630687500		0.68329	157.554
8655675000		0.68305	157.4728
8680662500		0.6829	157.3639
8705650000		0.68292	157.2574
8730637500		0.68319	157.1735
8755625000		0.68328	157.0992
8780612500		0.68326	157.036
8805600000		0.68346	156.9885
8830587500		0.68382	156.942
8855575000		0.68394	156.9085
8880562500		0.68398	156.8885
8905550000		0.684	156.8622
8930537500		0.68398	156.824
8955525000		0.6839	156.7724
8980512500		0.68374	156.7063
9005500000		0.6836	156.6194
9030487500		0.68349	156.5312
9055475000		0.68341	156.4613
9080462500		0.68342	156.3778
9105450000		0.68333	156.2586
9130437500		0.68325	156.1591
9155425000		0.6837	156.0912
9180412500		0.68424	156.0504
9205400000		0.68428	156.0304
9230387500		0.68409	156.0014
9255375000		0.68412	155.9397
9280362500		0.68423	155.8843
9305350000		0.68446	155.8781
9330337500		0.68458	155.876
9355325000		0.68427	155.8206
9380312500		0.68368	155.7326
9405300000		0.68371	155.6441
9430287500		0.68414	155.5744
9455275000		0.68422	155.5107
9480262500		0.68373	155.4377
9505250000		0.68349	155.332
9530237500		0.68364	155.2088
9555225000		0.68398	155.1401
9580212500		0.68443	155.1189
9605200000		0.68451	155.0601
9630187500		0.68403	154.9889
9655175000		0.68431	154.9607
9680162500		0.68522	154.909
9705150000		0.68515	154.879
9730137500		0.6846	154.8896
9755125000		0.68468	154.8275
9780112500		0.68469	154.7096
9805100000		0.68447	154.6546
9830087500		0.68458	154.6248
9855075000		0.68434	154.5425
9880062500		0.6839	154.4176
9905050000		0.68402	154.3058
9930037500		0.68453	154.237
9955025000		0.68468	154.1956
9980012500		0.68441	154.145
10005000000		0.6844	154.079
10029987500		0.68487	154.0139
10054975000		0.68515	153.9852
10079962500		0.68504	154.0007
10104950000		0.68486	153.9682
10129937500		0.68456	153.8805
10154925000		0.68466	153.8184
10179912500		0.685	153.7825
10204900000		0.68478	153.7514
10229887500		0.68421	153.6966
10254875000		0.68433	153.5593
10279862500		0.68467	153.4136
10304850000		0.68502	153.3874
10329837500		0.68538	153.3962
10354825000		0.68518	153.3137
10379812500		0.68486	153.1989
10404800000		0.68545	153.1396
10429787500		0.68629	153.128
10454775000		0.6863	153.153
10479762500		0.6857	153.1316
10504750000		0.68545	153.0385
10529737500		0.68587	152.9359
10554725000		0.68618	152.9058
10579712500		0.68618	152.9233
10604700000		0.68565	152.8654
10629687500		0.68506	152.7192
10654675000		0.68528	152.5943
10679662500		0.68624	152.5349
10704650000		0.68656	152.4967
10729637500		0.68602	152.4817
10754625000		0.68573	152.3492
10779612500		0.68611	152.239
10804600000		0.68718	152.2363
10829587500		0.6879	152.2622
10854575000		0.68728	152.2586
10879562500		0.68654	152.2145
10904550000		0.68705	152.1183
10929537500		0.68747	152.0274
10954525000		0.68733	152.0266
10979512500		0.68696	152.0177
11004500000		0.68642	151.8935
11029487500		0.68617	151.7325
11054475000		0.68688	151.6391
11079462500		0.68743	151.5945
11104450000		0.68726	151.565
11129437500		0.68705	151.5039
11154425000		0.68755	151.4087
11179412500		0.68817	151.3622
11204400000		0.6884	151.3823
11229387500		0.68836	151.4036
11254375000		0.68801	151.3493
11279362500		0.68755	151.3206
11304350000		0.68804	151.2099
11329337500		0.68829	151.1292
11354325000		0.68777	151.0833
11379312500		0.68774	151.0296
11404300000		0.68813	150.8877
11429287500		0.68792	150.7795
11454275000		0.688	150.7593
11479262500		0.68866	150.7089
11504250000		0.68857	150.6236
11529237500		0.68839	150.6006
11554225000		0.68894	150.5966
11579212500		0.68926	150.521
11604200000		0.68876	150.4644
11629187500		0.68885	150.4481
11654175000		0.68923	150.3943
11679162500		0.6889	150.3149
11704150000		0.68834	150.2716
11729137500		0.68876	150.1859
11754125000		0.68907	150.0368
11779112500		0.68894	150.0301
11804100000		0.68923	150.0069
11829087500		0.68903	149.9018
11854075000		0.68842	149.8158
11879062500		0.68908	149.7678
11904050000		0.68987	149.701
11929037500		0.68943	149.6961
11954025000		0.68923	149.7154
11979012500		0.68942	149.615
12004000000		0.68922	149.5211
12028987500		0.68947	149.5666
12053975000		0.69003	149.5293
12078962500		0.68954	149.4314
12103950000		0.68889	149.3438
12128937500		0.68924	149.2747
12153925000		0.69021	149.1828
12178912500		0.68998	149.1772
12203900000		0.68926	149.1249
12228887500		0.68936	148.9754
12253875000		0.68994	148.8546
12278862500		0.6903	148.8283
12303850000		0.69068	148.8712
12328837500		0.6905	148.8255
12353825000		0.68998	148.7385
12378812500		0.69029	148.6721
12403800000		0.69105	148.6327
12428787500		0.69092	148.6388
12453775000		0.6907	148.6468
12478762500		0.69018	148.4895
12503750000		0.68975	148.3713
12528737500		0.69048	148.3381
12553725000		0.69118	148.3354
12578712500		0.69053	148.2429
12603700000		0.68987	148.1662
12628687500		0.69086	148.0539
12653675000		0.69182	147.9729
12678662500		0.69183	148.0049
12703650000		0.69119	148.0623
12728637500		0.691	147.9204
12753625000		0.69108	147.7842
12778612500		0.69142	147.8067
12803600000		0.69154	147.7827
12828587500		0.6907	147.7695
12853575000		0.69017	147.6012
12878562500		0.69089	147.4738
12903550000		0.69181	147.4008
12928537500		0.6919	147.4097
12953525000		0.69211	147.4003
12978512500		0.69192	147.3267
13003500000		0.6923	147.1927
13028487500		0.69313	147.167
13053475000		0.69325	147.1782
13078462500		0.69216	147.1579
13103450000		0.6921	147.0548
13128437500		0.69276	146.9001
13153425000		0.69234	146.9124
13178412500		0.69224	146.9048
13203400000		0.69218	146.8517
13228387500		0.69208	146.6292
13253375000		0.69261	146.5399
13278362500		0.69398	146.5405
13303350000		0.69422	146.5424
13328337500		0.69322	146.5114
13353325000		0.69279	146.4213
13378312500		0.69339	146.4188
13403300000		0.69429	146.3369
13428287500		0.69348	146.4138
13453275000		0.69307	146.3555
13478262500		0.69266	146.2103
13503250000		0.69286	146.1011
13528237500		0.69397	146.0672
13553225000		0.69424	145.9749
13578212500		0.69311	145.9584
13603200000		0.69332	145.846
13628187500		0.69449	145.6587
13653175000		0.69459	145.6019
13678162500		0.69479	145.6865
13703150000		0.69478	145.6884
13728137500		0.69415	145.5309
13753125000		0.69432	145.4848
13778112500		0.69542	145.4992
13803100000		0.69547	145.4469
13828087500		0.69443	145.449
13853075000		0.69434	145.3718
13878062500		0.69508	145.2707
13903050000		0.69546	145.2065
13928037500		0.69511	145.189
13953025000		0.69467	145.0974
13978012500		0.69436	144.9368
14003000000		0.69453	144.8183
14027987500		0.69508	144.8202
14052975000		0.69545	144.787
14077962500		0.69484	144.7176
14102950000		0.69506	144.6817
14127937500		0.69597	144.6426
14152925000		0.6964	144.6104
14177912500		0.69627	144.6689
14202900000		0.69629	144.611
14227887500		0.69593	144.545
14252875000		0.69642	144.4922
14277862500		0.69677	144.4803
14302850000		0.69579	144.4058
14327837500		0.69501	144.2744
14352825000		0.69556	144.2287
14377812500		0.69672	144.0755
14402800000		0.69681	144.065
14427787500		0.69646	144.0608
14452775000		0.69621	143.9736
14477762500		0.6968	143.8503
14502750000		0.69783	143.8182
14527737500		0.69834	143.8491
14552725000		0.69765	143.8824
14577712500		0.69701	143.8266
14602700000		0.69727	143.7263
14627687500		0.69786	143.6823
14652675000		0.69805	143.6963
14677662500		0.69753	143.6478
14702650000		0.69661	143.478
14727637500		0.69694	143.3847
14752625000		0.69853	143.3021
14777612500		0.69937	143.2595
14802600000		0.69806	143.3033
14827587500		0.69773	143.1801
14852575000		0.69862	143.0044
14877562500		0.69931	142.9711
14902550000		0.69964	143.0649
14927537500		0.69918	143.0913
14952525000		0.6979	143.027
14977512500		0.69812	142.8733
15002500000		0.69972	142.8237
15027487500		0.7004	142.8446
15052475000		0.69968	142.8502
15077462500		0.69893	142.7814
15102450000		0.6991	142.6021
15127437500		0.69953	142.507
15152425000		0.70017	142.5501
15177412500		0.70002	142.5167
15202400000		0.69891	142.4188
15227387500		0.69883	142.2687
15252375000		0.70043	142.2329
15277362500		0.7012	142.21
15302350000		0.70048	142.2164
15327337500		0.70062	142.1723
15352325000		0.70161	142.0155
15377312500		0.70171	141.9493
15402300000		0.70205	142.0674
15427287500		0.70194	142.0954
15452275000		0.70065	141.9365
15477262500		0.69988	141.8758
15502250000		0.70083	141.7368
15527237500		0.70128	141.6148
15552225000		0.70069	141.5798
15577212500		0.70077	141.516
15602200000		0.70156	141.3072
15627187500		0.702	141.2743
15652175000		0.70287	141.3206
15677162500		0.70324	141.3053
15702150000		0.7027	141.2413
15727137500		0.70251	141.3092
15752125000		0.70382	141.1864
15777112500		0.70355	141.1636
15802100000		0.7021	141.1747
15827087500		0.70173	141.1335
15852075000		0.70227	140.9985
15877062500		0.7021	140.9244
15902050000		0.70232	140.8587
15927037500		0.70238	140.7356
15952025000		0.70196	140.6949
15977012500		0.70262	140.5533
16002000000		0.70376	140.4379
16026987500		0.70351	140.3534
16051975000		0.70285	140.4275
16076962500		0.70344	140.3031
16101950000		0.70387	140.2036
16126937500		0.70406	140.2561
16151925000		0.7043	140.3027
16176912500		0.70385	140.2479
16201900000		0.70382	140.1076
16226887500		0.70458	140.0947
16251875000		0.70489	140.1106
16276862500		0.70433	140.0437
16301850000		0.70343	139.9496
16326837500		0.70353	139.7588
16351825000		0.70394	139.7598
16376812500		0.70477	139.6477
16401800000		0.70424	139.6422
16426787500		0.70333	139.4675
16451775000		0.7032	139.4242
16476762500		0.705	139.2776
16501750000		0.70639	139.2723
16526737500		0.70586	139.3398
16551725000		0.70543	139.3453
16576712500		0.70584	139.2804
16601700000		0.70644	139.1545
16626687500		0.70694	139.2529
16651675000		0.70638	139.2257
16676662500		0.70509	139.0512
16701650000		0.70468	138.9388
16726637500		0.7058	138.8458
16751625000		0.7064	138.6847
16776612500		0.70577	138.7245
16801600000		0.70582	138.546
16826587500		0.70612	138.3732
16851575000		0.70688	138.355
16876562500		0.70858	138.4317
16901550000		0.70869	138.4421
16926537500		0.70759	138.4782
16951525000		0.70771	138.3982
16976512500		0.70888	138.3823
17001500000		0.70851	138.3636
17026487500		0.70699	138.3642
17051475000		0.70663	138.1991
17076462500		0.70689	137.8974
17101450000		0.70702	137.8638
17126437500		0.7074	137.8824
17151425000		0.70718	137.7783
17176412500		0.70684	137.557
17201400000		0.70813	137.4172
17226387500		0.71004	137.473
17251375000		0.71033	137.5103
17276362500		0.7091	137.583
17301350000		0.70883	137.5289
