! Infineon Technologies  Discrete & RF Semiconductors
! BAT24-02LS
! IAC = 0.9 mA
! One-Port S-Parameters
# Hz  S  MA  R  50
!f									S11
!Hz							Mag  Ang
309850000		0.10789	179.512
334837500		0.10799	-179.3713
359825000		0.10702	-179.5124
384812500		0.10867	-179.5609
409800000		0.10918	-179.6197
434787500		0.10786	-179.219
459775000		0.10785	-179.1981
484762500		0.10924	-179.3352
509750000		0.11103	-178.4983
534737500		0.11089	-178.4674
559725000		0.11093	-178.9662
584712500		0.11045	-178.3699
609700000		0.10955	-178.3326
634687500		0.11152	-178.2253
659675000		0.10909	-177.963
684662500		0.1077	-177.5127
709650000		0.10735	-177.322
734637500		0.10823	-177.0466
759625000		0.10687	-176.5079
784612500		0.10755	-176.8575
809600000		0.10829	-176.375
834587500		0.11014	-176.1022
859575000		0.1099	-175.149
884562500		0.10936	-175.9692
909550000		0.11083	-175.1865
934537500		0.10883	-174.7239
959525000		0.10865	-175.1534
984512500		0.11011	-174.6827
1009500000		0.11002	-174.5862
1034487500		0.11014	-174.6413
1059475000		0.11024	-173.9584
1084462500		0.10921	-174.4588
1109450000		0.10929	-173.7046
1134437500		0.1099	-173.8088
1159425000		0.11133	-173.6093
1184412500		0.11004	-173.065
1209400000		0.11289	-174.1082
1234387500		0.11212	-172.9403
1259375000		0.11168	-173.324
1284362500		0.11134	-173.0266
1309350000		0.11071	-172.6006
1334337500		0.1117	-172.6676
1359325000		0.11054	-172.1603
1384312500		0.11127	-172.3101
1409300000		0.11228	-172.645
1434287500		0.11286	-171.9579
1459275000		0.11236	-172.2209
1484262500		0.11196	-171.7453
1509250000		0.11348	-172.3271
1534237500		0.11439	-171.8365
1559225000		0.11441	-171.8722
1584212500		0.11611	-172.0459
1609200000		0.11449	-171.8917
1634187500		0.11521	-171.7121
1659175000		0.11384	-171.4861
1684162500		0.11419	-171.1377
1709150000		0.11408	-170.9789
1734137500		0.11428	-171.2277
1759125000		0.11431	-170.5235
1784112500		0.11562	-171.1721
1809100000		0.11485	-171.1695
1834087500		0.11548	-170.77
1859075000		0.11605	-170.7025
1884062500		0.11575	-170.4419
1909050000		0.11608	-170.5283
1934037500		0.11884	-170.7756
1959025000		0.11809	-170.148
1984012500		0.11843	-170.8285
2009000000		0.11853	-169.7949
2033987500		0.11742	-170.1564
2058975000		0.11859	-169.7103
2083962500		0.11766	-169.402
2108950000		0.1187	-169.4599
2133937500		0.11706	-169.294
2158925000		0.11752	-169.0833
2183912500		0.11781	-168.9866
2208900000		0.11715	-168.9721
2233887500		0.11843	-169.1909
2258875000		0.11958	-168.4605
2283862500		0.11854	-168.5695
2308850000		0.11993	-168.7162
2333837500		0.11855	-168.4146
2358825000		0.1212	-168.6563
2383812500		0.12034	-168.2027
2408800000		0.11954	-167.5316
2433787500		0.1195	-167.3149
2458775000		0.11948	-167.6159
2483762500		0.11876	-166.7301
2508750000		0.11808	-167.0246
2533737500		0.11805	-166.4488
2558725000		0.11825	-166.5877
2583712500		0.1185	-166.2017
2608700000		0.11887	-166.2493
2633687500		0.12001	-166.5329
2658675000		0.12001	-166.1583
2683662500		0.11967	-165.7278
2708650000		0.11971	-166.1386
2733637500		0.11975	-165.5814
2758625000		0.12011	-165.8125
2783612500		0.12135	-165.1555
2808600000		0.12006	-165.2268
2833587500		0.12221	-165.4391
2858575000		0.12102	-165.1151
2883562500		0.12174	-165.2478
2908550000		0.12191	-164.6969
2933537500		0.12205	-164.6195
2958525000		0.12363	-165.0586
2983512500		0.12365	-164.8092
3008500000		0.12229	-166.0284
3033487500		0.123	-165.8601
3058475000		0.12307	-165.921
3083462500		0.12378	-165.4514
3108450000		0.12317	-165.3283
3133437500		0.12465	-165.5278
3158425000		0.12434	-165.0654
3183412500		0.12415	-164.9403
3208400000		0.12428	-164.8064
3233387500		0.12435	-164.8341
3258375000		0.12434	-164.5469
3283362500		0.12549	-164.1385
3308350000		0.1257	-163.9101
3333337500		0.12654	-163.9515
3358325000		0.12678	-164.1892
3383312500		0.12722	-164.2158
3408300000		0.12792	-163.9905
3433287500		0.12833	-164.2099
3458275000		0.12748	-163.4205
3483262500		0.12889	-163.8349
3508250000		0.12964	-163.8019
3533237500		0.12981	-163.7998
3558225000		0.12977	-163.9563
3583212500		0.13008	-164.0082
3608200000		0.13022	-163.527
3633187500		0.13006	-163.5598
3658175000		0.13072	-163.2512
3683162500		0.13145	-163.3556
3708150000		0.13177	-163.0713
3733137500		0.13175	-163.5017
3758125000		0.13218	-163.335
3783112500		0.13203	-163.2025
3808100000		0.13237	-162.71
3833087500		0.13316	-162.8856
3858075000		0.13354	-162.5249
3883062500		0.13372	-162.944
3908050000		0.135	-162.9993
3933037500		0.13493	-162.7761
3958025000		0.13406	-162.6634
3983012500		0.13562	-162.9187
4008000000		0.13722	-162.8471
4032987500		0.13589	-162.3133
4057975000		0.13695	-162.5396
4082962500		0.13754	-162.9196
4107950000		0.13757	-162.319
4132937500		0.13667	-162.1258
4157925000		0.13756	-162.0184
4182912500		0.13741	-161.6771
4207900000		0.13766	-161.6389
4232887500		0.1376	-161.3863
4257875000		0.13848	-161.4299
4282862500		0.13836	-161.5066
4307850000		0.13853	-161.3113
4332837500		0.13917	-161.1678
4357825000		0.13916	-161.1225
4382812500		0.13979	-160.9505
4407800000		0.14075	-161.4766
4432787500		0.14108	-160.9552
4457775000		0.14015	-161.1678
4482762500		0.1411	-160.9424
4507750000		0.14213	-160.9395
4532737500		0.14259	-160.5989
4557725000		0.14217	-160.5302
4582712500		0.14424	-161.2728
4607700000		0.14384	-160.8214
4632687500		0.14385	-160.6501
4657675000		0.14534	-160.9416
4682662500		0.14476	-160.3781
4707650000		0.14552	-160.8397
4732637500		0.1468	-160.8421
4757625000		0.14671	-160.9083
4782612500		0.1485	-161.37
4807600000		0.1465	-160.6582
4832587500		0.14797	-161.1421
4857575000		0.14834	-160.4904
4882562500		0.14783	-160.6901
4907550000		0.15014	-160.6938
4932537500		0.14932	-160.5358
4957525000		0.14987	-160.8547
4982512500		0.1501	-160.7503
5007500000		0.14951	-160.3633
5032487500		0.15179	-160.5832
5057475000		0.15153	-160.2961
5082462500		0.1525	-160.8179
5107450000		0.15372	-160.4782
5132437500		0.15213	-160.9015
5157425000		0.15477	-160.6547
5182412500		0.15191	-160.1297
5207400000		0.15276	-160.1441
5232387500		0.1541	-160.0119
5257375000		0.15341	-159.6326
5282362500		0.15504	-159.8445
5307350000		0.1546	-160.0079
5332337500		0.15505	-160.0325
5357325000		0.15587	-160.0589
5382312500		0.15512	-159.8954
5407300000		0.15661	-159.8044
5432287500		0.15741	-159.8929
5457275000		0.15758	-159.9146
5482262500		0.15861	-159.9412
5507250000		0.15842	-159.9071
5532237500		0.15875	-160.0261
5557225000		0.16005	-160.222
5582212500		0.15854	-159.4935
5607200000		0.15984	-159.7657
5632187500		0.16075	-159.8042
5657175000		0.16018	-159.7284
5682162500		0.16165	-159.8542
5707150000		0.16138	-160.0307
5732137500		0.16293	-160.4397
5757125000		0.1632	-159.7161
5782112500		0.16211	-159.8752
5807100000		0.16441	-160.184
5832087500		0.16339	-159.9127
5857075000		0.16538	-160.384
5882062500		0.16614	-159.9221
5907050000		0.16473	-159.9905
5932037500		0.16663	-159.9311
5957025000		0.16566	-159.8584
5982012500		0.16602	-160.1223
6007000000		0.16701	-159.535
6031987500		0.16519	-159.766
6056975000		0.16735	-159.7413
6081962500		0.16708	-159.7025
6106950000		0.16839	-160.1382
6131937500		0.17002	-159.9461
6156925000		0.16948	-160.6349
6181912500		0.17021	-159.8175
6206900000		0.16963	-160.0901
6231887500		0.17035	-160.3606
6256875000		0.17129	-159.163
6281862500		0.17032	-159.2624
6306850000		0.17126	-159.3071
6331837500		0.17136	-159.5159
6356825000		0.17141	-159.8414
6381812500		0.1721	-159.4867
6406800000		0.17171	-159.7833
6431787500		0.17256	-159.3152
6456775000		0.17268	-159.4624
6481762500		0.17413	-159.7978
6506750000		0.1751	-159.748
6531737500		0.17594	-160.1433
6556725000		0.17526	-160.4413
6581712500		0.17687	-160.0796
6606700000		0.17597	-159.8597
6631687500		0.17707	-159.8919
6656675000		0.17786	-159.5855
6681662500		0.17772	-159.7602
6706650000		0.17811	-159.7782
6731637500		0.17803	-160.2733
6756625000		0.17833	-159.984
6781612500		0.17838	-159.7492
6806600000		0.17818	-159.9153
6831587500		0.18036	-159.8344
6856575000		0.17978	-159.6673
6881562500		0.18153	-160.4341
6906550000		0.18244	-160.2839
6931537500		0.18155	-160.5434
6956525000		0.18229	-160.143
6981512500		0.18215	-159.8479
7006500000		0.18368	-159.7727
7031487500		0.18323	-159.5634
7056475000		0.18394	-159.829
7081462500		0.18437	-159.6356
7106450000		0.18358	-159.4089
7131437500		0.18402	-159.7132
7156425000		0.18435	-159.3669
7181412500		0.1848	-159.8699
7206400000		0.18664	-160.2683
7231387500		0.18654	-160.2731
7256375000		0.18791	-160.5036
7281362500		0.18759	-160.5892
7306350000		0.18818	-160.3761
7331337500		0.18856	-160.3474
7356325000		0.18919	-160.3158
7381312500		0.18995	-160.1861
7406300000		0.19102	-160.6239
7431287500		0.19098	-160.174
7456275000		0.19049	-160.0097
7481262500		0.191	-159.8268
7506250000		0.1911	-159.7508
7531237500		0.19109	-160.0834
7556225000		0.19175	-160.1701
7581212500		0.19261	-160.5317
7606200000		0.19286	-160.3285
7631187500		0.19287	-160.1261
7656175000		0.19361	-160.569
7681162500		0.19479	-160.3606
7706150000		0.19603	-160.9092
7731137500		0.19706	-160.6014
7756125000		0.19577	-159.9267
7781112500		0.19623	-160.221
7806100000		0.19624	-159.8336
7831087500		0.19708	-159.9594
7856075000		0.19772	-159.8613
7881062500		0.19747	-159.8004
7906050000		0.19818	-160.0353
7931037500		0.19789	-160.1966
7956025000		0.1984	-160.4176
7981012500		0.19969	-160.6498
8006000000		0.19969	-160.5436
8030987500		0.20008	-160.5158
8055975000		0.20095	-160.6917
8080962500		0.20245	-160.9719
8105950000		0.20306	-160.4833
8130937500		0.20278	-160.4727
8155925000		0.20299	-160.2325
8180912500		0.20252	-160.5214
8205900000		0.20396	-160.6854
8230887500		0.20466	-160.3521
8255875000		0.20468	-160.3057
8280862500		0.2052	-160.6289
8305850000		0.20529	-160.9705
8330837500		0.20571	-161.096
8355825000		0.20629	-161.2584
8380812500		0.20694	-161.376
8405800000		0.20709	-161.132
8430787500		0.20793	-161.5642
8455775000		0.2092	-161.5808
8480762500		0.20984	-161.7126
8505750000		0.21081	-161.4672
8530737500		0.2096	-161.0753
8555725000		0.21051	-161.2765
8580712500		0.21033	-161.3025
8605700000		0.21148	-161.3315
8630687500		0.2122	-161.3418
8655675000		0.21206	-161.242
8680662500		0.21224	-161.4396
8705650000		0.21256	-161.5852
8730637500		0.21262	-162.0246
8755625000		0.21389	-161.8964
8780612500		0.21252	-161.8575
8805600000		0.21454	-161.7535
8830587500		0.21406	-161.6397
8855575000		0.21619	-162.1877
8880562500		0.2169	-162.0561
8905550000		0.21634	-161.7834
8930537500		0.2176	-161.8389
8955525000		0.21713	-161.8779
8980512500		0.21713	-161.7535
9005500000		0.21817	-161.8934
9030487500		0.21785	-162.1043
9055475000		0.21981	-162.2973
9080462500		0.21871	-162.0558
9105450000		0.21988	-162.581
9130437500		0.22017	-162.8752
9155425000		0.21979	-162.9746
9180412500		0.22113	-162.7493
9205400000		0.22173	-162.9853
9230387500		0.22251	-162.7055
9255375000		0.22305	-162.698
9280362500		0.22384	-163.0271
9305350000		0.22429	-162.9223
9330337500		0.22466	-162.6841
9355325000		0.22491	-163.1214
9380312500		0.22533	-163.0146
9405300000		0.22485	-162.8631
9430287500		0.22637	-162.8242
9455275000		0.22745	-163.2223
9480262500		0.22711	-162.9927
9505250000		0.22708	-163.3141
9530237500		0.22722	-163.6988
9555225000		0.22736	-163.4011
9580212500		0.22787	-163.1402
9605200000		0.22928	-163.4864
9630187500		0.23016	-164.0924
9655175000		0.2305	-163.8338
9680162500		0.2313	-163.8557
9705150000		0.23221	-164.1259
9730137500		0.23197	-163.7673
9755125000		0.2316	-163.3754
9780112500		0.23319	-163.9598
9805100000		0.2333	-164.0257
9830087500		0.23391	-163.2983
9855075000		0.23391	-163.4746
9880062500		0.23336	-163.7153
9905050000		0.23351	-163.6552
9930037500		0.23391	-163.9704
9955025000		0.23498	-163.6115
9980012500		0.23502	-163.5198
10005000000		0.23606	-163.9274
10029987500		0.23718	-164.4675
10054975000		0.23809	-164.7645
10079962500		0.23887	-164.3886
10104950000		0.23895	-164.6721
10129937500		0.23941	-164.9418
10154925000		0.2397	-164.4516
10179912500		0.24049	-164.6176
10204900000		0.24171	-164.919
10229887500		0.24097	-164.6032
10254875000		0.24066	-164.5359
10279862500		0.24119	-164.9995
10304850000		0.24229	-165.3754
10329837500		0.24279	-164.612
10354825000		0.2429	-164.757
10379812500		0.24309	-165.3161
10404800000		0.24375	-165.1675
10429787500		0.2446	-165.4904
10454775000		0.24616	-165.3254
10479762500		0.24584	-164.8387
10504750000		0.24587	-165.245
10529737500		0.24679	-165.5354
10554725000		0.24731	-165.6884
10579712500		0.24841	-165.2304
10604700000		0.24765	-164.9196
10629687500		0.24734	-165.1981
10654675000		0.24817	-165.5037
10679662500		0.24875	-165.7838
10704650000		0.25046	-165.844
10729637500		0.2498	-165.5343
10754625000		0.24911	-165.6124
10779612500		0.25021	-166.0625
10804600000		0.25089	-166.1944
10829587500		0.25299	-166.0756
10854575000		0.25357	-166.0369
10879562500		0.25314	-165.9062
10904550000		0.25357	-165.9829
10929537500		0.25402	-166.1388
10954525000		0.25472	-166.058
10979512500		0.2552	-165.6473
11004500000		0.25397	-165.5693
11029487500		0.25476	-165.7538
11054475000		0.25502	-166.07
11079462500		0.25647	-166.5139
11104450000		0.25736	-166.6154
11129437500		0.25656	-166.6159
11154425000		0.25759	-167.0905
11179412500		0.25896	-167.3945
11204400000		0.25931	-166.9837
11229387500		0.26104	-166.8523
11254375000		0.26018	-166.8166
11279362500		0.26111	-166.9739
11304350000		0.26105	-166.7864
11329337500		0.26128	-167.039
11354325000		0.26222	-166.9499
11379312500		0.26142	-166.4943
11404300000		0.26233	-166.7838
11429287500		0.26324	-167.2869
11454275000		0.26282	-167.0555
11479262500		0.26451	-167.128
11504250000		0.26438	-167.3915
11529237500		0.26524	-167.4625
11554225000		0.2662	-167.3352
11579212500		0.26646	-168.0738
11604200000		0.26784	-167.9633
11629187500		0.26692	-167.5652
11654175000		0.26818	-167.5982
11679162500		0.26864	-167.7269
11704150000		0.26852	-167.5512
11729137500		0.26888	-167.5338
11754125000		0.26966	-168.1254
11779112500		0.2697	-168.1584
11804100000		0.27074	-167.5756
11829087500		0.27025	-168.0321
11854075000		0.27141	-168.2749
11879062500		0.27133	-167.9695
11904050000		0.27301	-168.4908
11929037500		0.27363	-168.7111
11954025000		0.27386	-168.357
11979012500		0.27327	-168.3628
12004000000		0.2745	-168.828
12028987500		0.27476	-168.5638
12053975000		0.27596	-168.2716
12078962500		0.27631	-168.6259
12103950000		0.27618	-168.8293
12128937500		0.27641	-168.415
12153925000		0.27694	-168.8931
12178912500		0.27765	-169.1589
12203900000		0.27801	-168.9331
12228887500		0.27746	-169.0338
12253875000		0.27894	-169.6178
12278862500		0.27969	-169.648
12303850000		0.28039	-169.196
12328837500		0.28107	-169.1629
12353825000		0.27986	-169.8103
12378812500		0.28098	-169.3152
12403800000		0.28135	-169.3545
12428787500		0.28327	-169.5784
12453775000		0.28349	-168.9795
12478762500		0.28296	-169.6662
12503750000		0.28373	-170.286
12528737500		0.28372	-169.9043
12553725000		0.28416	-169.6403
12578712500		0.28506	-169.546
12603700000		0.28421	-169.9655
12628687500		0.28602	-170.1978
12653675000		0.28698	-170.5551
12678662500		0.28843	-170.6938
12703650000		0.28809	-170.1711
12728637500		0.28727	-170.1941
12753625000		0.28781	-170.1793
12778612500		0.2885	-170.0208
12803600000		0.28945	-169.7539
12828587500		0.28967	-169.881
12853575000		0.2892	-170.3875
12878562500		0.28953	-170.2353
12903550000		0.29023	-170.3537
12928537500		0.29121	-170.7373
12953525000		0.29169	-170.5389
12978512500		0.29184	-170.6219
13003500000		0.29255	-170.9293
13028487500		0.29412	-170.812
13053475000		0.29507	-170.7068
13078462500		0.29481	-170.6313
13103450000		0.29456	-170.5814
13128437500		0.29455	-171.1214
13153425000		0.29581	-171.2964
13178412500		0.29568	-170.6256
13203400000		0.29621	-170.7001
13228387500		0.2961	-171.2109
13253375000		0.29622	-171.2652
13278362500		0.29844	-171.5392
13303350000		0.29885	-171.6697
13328337500		0.29932	-171.5103
13353325000		0.29905	-171.3306
13378312500		0.29945	-171.5029
13403300000		0.3013	-171.5929
13428287500		0.30181	-171.5634
13453275000		0.30194	-171.2103
13478262500		0.30127	-171.17
13503250000		0.30104	-171.6925
13528237500		0.30283	-171.6526
13553225000		0.30261	-171.8734
13578212500		0.3032	-171.9189
13603200000		0.30285	-171.6106
13628187500		0.30336	-172.6189
13653175000		0.30502	-173.04
13678162500		0.30573	-172.6767
13703150000		0.30645	-173.0324
13728137500		0.30648	-173.6115
13753125000		0.30636	-173.4311
13778112500		0.30818	-172.846
13803100000		0.30842	-172.9673
13828087500		0.30908	-172.6068
13853075000		0.30862	-172.3629
13878062500		0.30911	-172.9195
13903050000		0.31009	-172.9036
13928037500		0.31002	-172.5726
13953025000		0.31006	-172.5259
13978012500		0.30997	-172.9095
14003000000		0.31065	-173.5016
14027987500		0.3122	-173.5812
14052975000		0.31278	-173.6156
14077962500		0.31316	-174.0177
14102950000		0.31292	-173.7818
14127937500		0.31395	-173.712
14152925000		0.31505	-174.027
14177912500		0.31591	-173.8065
14202900000		0.31606	-173.6644
14227887500		0.31658	-173.8063
14252875000		0.31727	-173.4347
14277862500		0.31756	-173.2732
14302850000		0.31806	-173.5313
14327837500		0.31692	-173.6521
14352825000		0.3176	-173.7901
14377812500		0.31859	-174.1611
14402800000		0.31961	-174.2889
14427787500		0.32035	-174.1221
14452775000		0.31981	-174.0791
14477762500		0.32034	-174.5701
14502750000		0.32145	-174.5915
14527737500		0.32288	-174.4003
14552725000		0.32381	-174.0348
14577712500		0.32306	-174.1648
14602700000		0.32364	-174.3863
14627687500		0.32455	-174.2618
14652675000		0.3253	-174.3538
14677662500		0.3256	-174.2866
14702650000		0.32463	-174.4168
14727637500		0.32495	-174.7941
14752625000		0.32622	-175.1131
14777612500		0.32764	-175.3427
14802600000		0.32778	-175.1174
14827587500		0.32714	-175.0914
14852575000		0.32757	-175.5851
14877562500		0.32925	-175.7836
14902550000		0.33061	-175.51
14927537500		0.33148	-175.2622
14952525000		0.33019	-175.3434
14977512500		0.33039	-175.3836
15002500000		0.33141	-175.6358
15027487500		0.33314	-175.7893
15052475000		0.33379	-175.4986
15077462500		0.33297	-175.6265
15102450000		0.33302	-176.0002
15127437500		0.33373	-176.3042
15152425000		0.33488	-176.3539
15177412500		0.33524	-176.2976
15202400000		0.3346	-176.4931
15227387500		0.33451	-176.7085
15252375000		0.33613	-176.7095
15277362500		0.33769	-177.0257
15302350000		0.33802	-176.6419
15327337500		0.33786	-176.7091
15352325000		0.33804	-177.3951
15377312500		0.33898	-177.5243
15402300000		0.34083	-177.1247
15427287500		0.34113	-176.9354
15452275000		0.34075	-177.1348
15477262500		0.33992	-177.1937
15502250000		0.34061	-177.4404
15527237500		0.34127	-177.9178
15552225000		0.34155	-177.6263
15577212500		0.3411	-177.3887
15602200000		0.34174	-177.9488
15627187500		0.34255	-178.2791
15652175000		0.34443	-178.2818
15677162500		0.34497	-178.2408
15702150000		0.34539	-178.3247
15727137500		0.34528	-178.4238
15752125000		0.34683	-178.4281
15777112500		0.34762	-178.507
15802100000		0.3475	-178.6693
15827087500		0.34705	-178.2788
15852075000		0.34715	-178.632
15877062500		0.34747	-178.8895
15902050000		0.3482	-178.6292
15927037500		0.34818	-178.6886
15952025000		0.34814	-178.8112
15977012500		0.34829	-178.7404
16002000000		0.34938	-179.1061
16026987500		0.35028	-179.3064
16051975000		0.35032	-179.3397
16076962500		0.35108	-179.2667
16101950000		0.35157	-179.606
16126937500		0.35286	-179.8095
16151925000		0.35312	-179.6337
16176912500		0.3535	-179.5764
16201900000		0.35366	-179.7855
16226887500		0.35425	-179.875
16251875000		0.35547	-179.8039
16276862500		0.3559	-179.6292
16301850000		0.35515	-179.8488
16326837500		0.35524	-179.9093
16351825000		0.35542	-179.9022
16376812500		0.35709	179.7886
16401800000		0.35661	179.7818
16426787500		0.35651	179.621
16451775000		0.35649	179.4248
16476762500		0.35776	179.0892
16501750000		0.3597	179.0492
16526737500		0.36018	179.022
16551725000		0.36019	178.9414
16576712500		0.36064	178.9071
16601700000		0.36134	178.9262
16626687500		0.36306	179.0759
16651675000		0.36315	179.1899
16676662500		0.3623	179.0452
16701650000		0.36179	178.9253
16726637500		0.36232	178.6548
