! Infineon Technologies  Discrete & RF Semiconductors
! BAT24-02LS
! IAC = 1 mA
! One-Port S-Parameters
# Hz  S  MA  R  50
!f									S11
!Hz							Mag  Ang
309850000		0.15826	179.2214
334837500		0.15826	179.8623
359825000		0.15736	179.7686
384812500		0.15916	179.6919
409800000		0.15947	179.6183
434787500		0.15795	179.8233
459775000		0.1583	179.8067
484762500		0.15954	179.7286
509750000		0.16083	-179.8105
534737500		0.16078	-179.8234
559725000		0.16088	179.9
584712500		0.16028	-179.8207
609700000		0.15936	-179.8223
634687500		0.16132	-179.7896
659675000		0.15901	-179.6705
684662500		0.1575	-179.4405
709650000		0.1575	-179.3565
734637500		0.15821	-179.2038
759625000		0.15694	-178.9502
784612500		0.1577	-179.1394
809600000		0.15802	-178.8769
834587500		0.15969	-178.7084
859575000		0.15951	-178.1556
884562500		0.15886	-178.6604
909550000		0.16023	-178.2297
934537500		0.1584	-178.0336
959525000		0.15799	-178.2943
984512500		0.15959	-178.04
1009500000		0.15926	-177.9943
1034487500		0.15914	-178.0327
1059475000		0.15958	-177.6851
1084462500		0.15847	-177.984
1109450000		0.15838	-177.572
1134437500		0.15931	-177.6662
1159425000		0.16026	-177.5232
1184412500		0.15904	-177.2662
1209400000		0.16171	-177.8409
1234387500		0.1609	-177.218
1259375000		0.1605	-177.4636
1284362500		0.16013	-177.3124
1309350000		0.15959	-177.1078
1334337500		0.16038	-177.1449
1359325000		0.15923	-176.9107
1384312500		0.15981	-177.0034
1409300000		0.16082	-177.195
1434287500		0.16127	-176.8044
1459275000		0.16068	-176.9718
1484262500		0.16033	-176.7377
1509250000		0.16194	-177.083
1534237500		0.16244	-176.781
1559225000		0.16257	-176.8332
1584212500		0.16416	-176.9242
1609200000		0.16259	-176.9031
1634187500		0.16318	-176.8171
1659175000		0.16181	-176.7366
1684162500		0.16209	-176.538
1709150000		0.1623	-176.4975
1734137500		0.16188	-176.6084
1759125000		0.16174	-176.2178
1784112500		0.16353	-176.6404
1809100000		0.16244	-176.6411
1834087500		0.16283	-176.3965
1859075000		0.16371	-176.4089
1884062500		0.16307	-176.2399
1909050000		0.16331	-176.2972
1934037500		0.16598	-176.408
1959025000		0.16518	-176.0843
1984012500		0.16545	-176.4486
2009000000		0.16538	-175.8973
2033987500		0.16448	-176.1696
2058975000		0.1652	-175.8832
2083962500		0.16452	-175.7653
2108950000		0.1655	-175.7885
2133937500		0.1637	-175.7237
2158925000		0.164	-175.6117
2183912500		0.16455	-175.5884
2208900000		0.16388	-175.6491
2233887500		0.16484	-175.7253
2258875000		0.16576	-175.2835
2283862500		0.16501	-175.4009
2308850000		0.16597	-175.4667
2333837500		0.16472	-175.3069
2358825000		0.16744	-175.4544
2383812500		0.16635	-175.1603
2408800000		0.16497	-174.7754
2433787500		0.16538	-174.7504
2458775000		0.16555	-174.9527
2483762500		0.16428	-174.4382
2508750000		0.16388	-174.631
2533737500		0.1638	-174.3562
2558725000		0.1639	-174.4531
2583712500		0.16406	-174.2538
2608700000		0.1645	-174.3417
2633687500		0.16554	-174.4621
2658675000		0.16512	-174.1789
2683662500		0.16478	-173.9698
2708650000		0.16514	-174.2692
2733637500		0.16478	-173.901
2758625000		0.16516	-174.0375
2783612500		0.16602	-173.6367
2808600000		0.16483	-173.7384
2833587500		0.16691	-173.7908
2858575000		0.16583	-173.7016
2883562500		0.16626	-173.7531
2908550000		0.16626	-173.441
2933537500		0.16644	-173.4324
2958525000		0.16802	-173.6613
2983512500		0.16779	-173.524
3008500000		0.1668	-174.3809
3033487500		0.16763	-174.3103
3058475000		0.16756	-174.3478
3083462500		0.16775	-174.0187
3108450000		0.16744	-174.041
3133437500		0.1687	-174.1169
3158425000		0.16806	-173.8137
3183412500		0.16784	-173.7624
3208400000		0.16807	-173.7386
3233387500		0.1682	-173.7714
3258375000		0.16793	-173.5946
3283362500		0.16871	-173.2706
3308350000		0.16899	-173.1808
3333337500		0.16969	-173.1903
3358325000		0.16985	-173.3367
3383312500		0.17015	-173.3349
3408300000		0.17092	-173.2277
3433287500		0.17124	-173.3484
3458275000		0.16991	-172.8636
3483262500		0.17151	-173.1344
3508250000		0.17217	-173.1189
3533237500		0.172	-173.084
3558225000		0.17218	-173.2233
3583212500		0.17242	-173.2288
3608200000		0.17234	-172.9772
3633187500		0.17243	-173.0599
3658175000		0.17267	-172.827
3683162500		0.17326	-172.8678
3708150000		0.17351	-172.7272
3733137500		0.17355	-172.9874
3758125000		0.17383	-172.8716
3783112500		0.17363	-172.8265
3808100000		0.1737	-172.5166
3833087500		0.17451	-172.6007
3858075000		0.17439	-172.3465
3883062500		0.17478	-172.6387
3908050000		0.17619	-172.6972
3933037500		0.17571	-172.5151
3958025000		0.1748	-172.4709
3983012500		0.17659	-172.6548
4008000000		0.17789	-172.5673
4032987500		0.17626	-172.2463
4057975000		0.17733	-172.3856
4082962500		0.17818	-172.6648
4107950000		0.17766	-172.2439
4132937500		0.17676	-172.1647
4157925000		0.17769	-172.1198
4182912500		0.17728	-171.9055
4207900000		0.17733	-171.8643
4232887500		0.17715	-171.7174
4257875000		0.17793	-171.7355
4282862500		0.17802	-171.8296
4307850000		0.17788	-171.6835
4332837500		0.17836	-171.5878
4357825000		0.1785	-171.6076
4382812500		0.17875	-171.4393
4407800000		0.17994	-171.7863
4432787500		0.17999	-171.4673
4457775000		0.17899	-171.6042
4482762500		0.17996	-171.503
4507750000		0.18079	-171.4483
4532737500		0.18066	-171.1409
4557725000		0.18062	-171.219
4582712500		0.18265	-171.622
4607700000		0.1818	-171.2928
4632687500		0.18183	-171.2153
4657675000		0.18337	-171.3893
4682662500		0.18264	-171.0823
4707650000		0.18324	-171.3263
4732637500		0.1843	-171.2881
4757625000		0.18448	-171.4007
4782612500		0.18609	-171.6148
4807600000		0.18406	-171.2574
4832587500		0.18541	-171.5152
4857575000		0.1855	-171.126
4882562500		0.18512	-171.2682
4907550000		0.18686	-171.1294
4932537500		0.18631	-171.1365
4957525000		0.18688	-171.3287
4982512500		0.1868	-171.2139
5007500000		0.18626	-171.0318
5032487500		0.18831	-171.103
5057475000		0.18797	-170.9617
5082462500		0.18895	-171.2607
5107450000		0.18962	-170.9732
5132437500		0.18871	-171.3825
5157425000		0.19073	-171.0997
5182412500		0.18802	-170.8826
5207400000		0.18878	-170.8987
5232387500		0.18973	-170.7435
5257375000		0.18888	-170.519
5282362500		0.19043	-170.62
5307350000		0.19009	-170.7424
5332337500		0.19045	-170.7627
5357325000		0.19123	-170.7958
5382312500		0.19042	-170.6991
5407300000		0.19161	-170.5846
5432287500		0.19243	-170.6602
5457275000		0.19257	-170.6834
5482262500		0.19332	-170.6353
5507250000		0.19307	-170.6191
5532237500		0.19357	-170.7479
5557225000		0.19467	-170.8258
5582212500		0.19286	-170.3719
5607200000		0.19419	-170.546
5632187500		0.19505	-170.5819
5657175000		0.19428	-170.5112
5682162500		0.19552	-170.5468
5707150000		0.19568	-170.7826
5732137500		0.19714	-170.97
5757125000		0.19681	-170.4346
5782112500		0.1961	-170.6505
5807100000		0.19814	-170.7916
5832087500		0.1971	-170.6531
5857075000		0.19908	-170.9125
5882062500		0.19944	-170.5725
5907050000		0.19811	-170.6433
5932037500		0.19965	-170.5562
5957025000		0.1989	-170.5981
5982012500		0.19919	-170.7456
6007000000		0.19969	-170.3205
6031987500		0.19832	-170.5943
6056975000		0.20009	-170.5138
6081962500		0.19984	-170.5294
6106950000		0.20113	-170.7649
6131937500		0.20256	-170.6238
6156925000		0.20238	-171.0845
6181912500		0.20234	-170.47
6206900000		0.20227	-170.7912
6231887500		0.20297	-170.9305
6256875000		0.20288	-170.0108
6281862500		0.20219	-170.1541
6306850000		0.20286	-170.1555
6331837500		0.20298	-170.3089
6356825000		0.20321	-170.5591
6381812500		0.2036	-170.3101
6406800000		0.20345	-170.551
6431787500		0.20381	-170.2089
6456775000		0.20402	-170.357
6481762500		0.20542	-170.5311
6506750000		0.20627	-170.4713
6531737500		0.20725	-170.7382
6556725000		0.20679	-170.9643
6581712500		0.20779	-170.6397
6606700000		0.20702	-170.5761
6631687500		0.20788	-170.5336
6656675000		0.20826	-170.2727
6681662500		0.20817	-170.4087
6706650000		0.20844	-170.4253
6731637500		0.2087	-170.8037
6756625000		0.20871	-170.601
6781612500		0.20863	-170.4611
6806600000		0.20865	-170.6471
6831587500		0.21026	-170.4805
6856575000		0.20973	-170.414
6881562500		0.21167	-170.9
6906550000		0.21237	-170.7878
6931537500		0.21177	-171.0152
6956525000		0.212	-170.6103
6981512500		0.21179	-170.4992
7006500000		0.21302	-170.3883
7031487500		0.21242	-170.2473
7056475000		0.21308	-170.4087
7081462500		0.21324	-170.2526
7106450000		0.21249	-170.1554
7131437500		0.21306	-170.3883
7156425000		0.213	-170.1218
7181412500		0.21372	-170.525
7206400000		0.21547	-170.7618
7231387500		0.21532	-170.7585
7256375000		0.21668	-170.9191
7281362500		0.21651	-171.0244
7306350000		0.2168	-170.8439
7331337500		0.21714	-170.8285
7356325000		0.21753	-170.7412
7381312500		0.21809	-170.6316
7406300000		0.21933	-170.9434
7431287500		0.21883	-170.5873
7456275000		0.2183	-170.4714
7481262500		0.21864	-170.3652
7506250000		0.21858	-170.3248
7531237500		0.21873	-170.5849
7556225000		0.21934	-170.6642
7581212500		0.22028	-170.9245
7606200000		0.22037	-170.783
7631187500		0.2202	-170.6519
7656175000		0.22104	-170.9521
7681162500		0.22191	-170.7935
7706150000		0.22339	-171.0816
7731137500		0.224	-170.8361
7756125000		0.22243	-170.3813
7781112500		0.22301	-170.6192
7806100000		0.22271	-170.3463
7831087500		0.22345	-170.3955
7856075000		0.22391	-170.3208
7881062500		0.22351	-170.2628
7906050000		0.22423	-170.4558
7931037500		0.22412	-170.6547
7956025000		0.22465	-170.7908
7981012500		0.22597	-170.9564
8006000000		0.22577	-170.8811
8030987500		0.22594	-170.8317
8055975000		0.22695	-171.0172
8080962500		0.2284	-171.1508
8105950000		0.22855	-170.7279
8130937500		0.22831	-170.7157
8155925000		0.22821	-170.5284
8180912500		0.22808	-170.8262
8205900000		0.22937	-170.9124
8230887500		0.22964	-170.5918
8255875000		0.22962	-170.5799
8280862500		0.23017	-170.8316
8305850000		0.23038	-171.1017
8330837500		0.23082	-171.2151
8355825000		0.23144	-171.3445
8380812500		0.23203	-171.4041
8405800000		0.23188	-171.2249
8430787500		0.23284	-171.5408
8455775000		0.234	-171.5446
8480762500		0.23468	-171.6141
8505750000		0.23532	-171.3662
8530737500		0.23397	-171.115
8555725000		0.23485	-171.2534
8580712500		0.23476	-171.3313
8605700000		0.23566	-171.297
8630687500		0.23626	-171.2857
8655675000		0.23598	-171.2213
8680662500		0.23611	-171.3506
8705650000		0.23651	-171.5226
8730637500		0.23683	-171.8743
8755625000		0.23773	-171.7361
8780612500		0.2366	-171.7879
8805600000		0.23807	-171.5931
8830587500		0.23773	-171.5979
8855575000		0.23996	-171.9746
8880562500		0.24035	-171.7971
8905550000		0.2397	-171.6045
8930537500		0.24085	-171.6396
8955525000		0.24048	-171.6988
8980512500		0.24035	-171.6122
9005500000		0.24121	-171.6943
9030487500		0.24107	-171.9063
9055475000		0.24269	-171.9567
9080462500		0.24152	-171.8153
9105450000		0.24286	-172.2383
9130437500		0.24323	-172.4846
9155425000		0.24289	-172.5446
9180412500		0.24394	-172.3656
9205400000		0.24468	-172.5492
9230387500		0.24507	-172.2985
9255375000		0.24551	-172.3025
9280362500		0.2464	-172.544
9305350000		0.24667	-172.4141
9330337500		0.24689	-172.2219
9355325000		0.24749	-172.6082
9380312500		0.24756	-172.5075
9405300000		0.2469	-172.3768
9430287500		0.24818	-172.3452
9455275000		0.24932	-172.5985
9480262500		0.24872	-172.4112
9505250000		0.24894	-172.7291
9530237500		0.24924	-173.0591
9555225000		0.24902	-172.791
9580212500		0.24933	-172.583
9605200000		0.25089	-172.8955
9630187500		0.25196	-173.3399
9655175000		0.25194	-173.08
9680162500		0.25276	-173.1174
9705150000		0.25383	-173.3483
9730137500		0.25323	-172.9996
9755125000		0.25268	-172.7352
9780112500		0.25442	-173.208
9805100000		0.25434	-173.1921
9830087500		0.2543	-172.5792
9855075000		0.25446	-172.7849
9880062500		0.25401	-172.9948
9905050000		0.25401	-172.959
9930037500		0.25465	-173.2376
9955025000		0.25522	-172.9184
9980012500		0.25517	-172.851
10005000000		0.25634	-173.1913
10029987500		0.2577	-173.62
10054975000		0.25865	-173.7803
10079962500		0.25903	-173.4425
10104950000		0.2594	-173.7158
10129937500		0.25983	-173.8946
10154925000		0.25962	-173.4865
10179912500		0.26051	-173.6343
10204900000		0.26168	-173.8209
10229887500		0.26064	-173.5336
10254875000		0.26029	-173.5422
10279862500		0.26114	-174.0157
10304850000		0.26226	-174.2301
10329837500		0.26208	-173.5583
10354825000		0.26241	-173.7609
10379812500		0.26288	-174.2284
10404800000		0.26329	-174.0955
10429787500		0.26443	-174.3674
10454775000		0.26558	-174.15
10479762500		0.26487	-173.7518
10504750000		0.26516	-174.1129
10529737500		0.26606	-174.3383
10554725000		0.26666	-174.4292
10579712500		0.26724	-174.0053
10604700000		0.26631	-173.7912
10629687500		0.2661	-174.0552
10654675000		0.26689	-174.2957
10679662500		0.26768	-174.5318
10704650000		0.26919	-174.5466
10729637500		0.26836	-174.2948
10754625000		0.26777	-174.4311
10779612500		0.26899	-174.8106
10804600000		0.26973	-174.8957
10829587500		0.27152	-174.7298
10854575000		0.27197	-174.6769
10879562500		0.27139	-174.5683
10904550000		0.27178	-174.6431
10929537500		0.27231	-174.7861
10954525000		0.27281	-174.6809
10979512500		0.27285	-174.3152
11004500000		0.27164	-174.3179
11029487500		0.27226	-174.4621
11054475000		0.27276	-174.759
11079462500		0.27435	-175.1002
11104450000		0.27514	-175.1442
11129437500		0.27437	-175.1576
11154425000		0.27565	-175.5816
11179412500		0.277	-175.754
11204400000		0.27705	-175.4406
11229387500		0.27846	-175.2721
11254375000		0.2777	-175.2948
11279362500		0.27849	-175.368
11304350000		0.27827	-175.248
11329337500		0.2787	-175.4756
11354325000		0.27929	-175.3531
11379312500		0.27817	-174.9963
11404300000		0.27917	-175.2793
11429287500		0.28024	-175.6817
11454275000		0.27961	-175.4763
11479262500		0.28117	-175.5242
11504250000		0.28126	-175.7823
11529237500		0.28195	-175.7577
11554225000		0.28273	-175.6727
11579212500		0.28359	-176.3115
11604200000		0.28448	-176.1424
11629187500		0.28339	-175.8403
11654175000		0.28459	-175.8757
11679162500		0.28502	-175.985
11704150000		0.28465	-175.8066
11729137500		0.28492	-175.8194
11754125000		0.28599	-176.3461
11779112500		0.28601	-176.3182
11804100000		0.28644	-175.8181
11829087500		0.28644	-176.2888
11854075000		0.28737	-176.4087
11879062500		0.28705	-176.1825
11904050000		0.28895	-176.5949
11929037500		0.28965	-176.7483
11954025000		0.28952	-176.3711
11979012500		0.28906	-176.4966
12004000000		0.29036	-176.8674
12028987500		0.29033	-176.6008
12053975000		0.29124	-176.3433
12078962500		0.29178	-176.6849
12103950000		0.29168	-176.8259
12128937500		0.2915	-176.4762
12153925000		0.2924	-176.9187
12178912500		0.29318	-177.1093
12203900000		0.29314	-176.876
12228887500		0.29269	-177.0303
12253875000		0.29441	-177.5481
12278862500		0.29497	-177.4913
12303850000		0.29525	-177.0347
12328837500		0.2959	-177.0952
12353825000		0.29531	-177.6652
12378812500		0.29575	-177.1941
12403800000		0.29624	-177.294
12428787500		0.29803	-177.4222
12453775000		0.2977	-176.8742
12478762500		0.29771	-177.5167
12503750000		0.29868	-178.0276
12528737500		0.29843	-177.7341
12553725000		0.29869	-177.4768
12578712500		0.29923	-177.3809
12603700000		0.29871	-177.7745
12628687500		0.30034	-177.9208
12653675000		0.30162	-178.2534
12678662500		0.30282	-178.2471
12703650000		0.3022	-177.8535
12728637500		0.30158	-177.8893
12753625000		0.30185	-177.9466
12778612500		0.30233	-177.779
12803600000		0.30298	-177.5202
12828587500		0.30317	-177.6622
12853575000		0.30296	-178.1391
12878562500		0.30314	-178.0168
12903550000		0.30391	-178.0848
12928537500		0.30495	-178.3483
12953525000		0.30519	-178.1647
12978512500		0.30535	-178.2807
13003500000		0.30615	-178.531
13028487500		0.30753	-178.4346
13053475000		0.30824	-178.2824
13078462500		0.30786	-178.2095
13103450000		0.3075	-178.1785
13128437500		0.30793	-178.7225
13153425000		0.30909	-178.8558
13178412500		0.30841	-178.195
13203400000		0.30893	-178.3465
13228387500		0.30904	-178.805
13253375000		0.30919	-178.8843
13278362500		0.31144	-179.0399
13303350000		0.31204	-179.1785
13328337500		0.31212	-178.9625
13353325000		0.31162	-178.8363
13378312500		0.31219	-179.0251
13403300000		0.314	-179.1126
13428287500		0.3142	-178.9684
13453275000		0.31405	-178.6529
13478262500		0.31332	-178.6591
13503250000		0.31346	-179.1548
13528237500		0.315	-179.1209
13553225000		0.31497	-179.323
13578212500		0.3154	-179.3114
13603200000		0.31476	-179.0907
13628187500		0.31597	-179.9977
13653175000		0.31761	179.7071
13678162500		0.31812	-179.9708
13703150000		0.31898	179.7524
13728137500		0.31924	179.2533
13753125000		0.31891	179.49
13778112500		0.32017	179.9383
13803100000		0.32056	179.8107
13828087500		0.32073	-179.8298
13853075000		0.32007	-179.6729
13878062500		0.32093	179.8456
13903050000		0.32175	179.8777
13928037500		0.32143	-179.8513
13953025000		0.32132	-179.8275
13978012500		0.3214	179.8127
14003000000		0.32233	179.3789
14027987500		0.32369	179.2948
14052975000		0.32433	179.2733
14077962500		0.32489	178.9343
14102950000		0.32446	179.1448
14127937500		0.32542	179.151
14152925000		0.32658	178.9395
14177912500		0.32712	179.1827
14202900000		0.32714	179.2687
14227887500		0.32764	179.1576
14252875000		0.32797	179.5406
14277862500		0.32821	179.5729
14302850000		0.32864	179.3872
14327837500		0.32757	179.2573
14352825000		0.32825	179.1898
14377812500		0.32935	178.8609
14402800000		0.3304	178.7167
14427787500		0.33084	178.9017
14452775000		0.33026	178.8972
14477762500		0.33103	178.466
14502750000		0.33209	178.4736
14527737500		0.33325	178.6694
14552725000		0.33371	179.0279
14577712500		0.33315	178.8592
14602700000		0.33374	178.6865
14627687500		0.33444	178.7978
14652675000		0.33524	178.7226
14677662500		0.33531	178.794
14702650000		0.3344	178.6468
14727637500		0.33494	178.3596
14752625000		0.33633	178.0459
14777612500		0.33766	177.907
14802600000		0.3377	178.0562
14827587500		0.33699	178.1057
14852575000		0.33766	177.6599
14877562500		0.33927	177.4902
14902550000		0.34033	177.7591
14927537500		0.34085	178.0114
14952525000		0.33971	177.8618
14977512500		0.33984	177.8915
15002500000		0.34099	177.619
15027487500		0.3428	177.4966
15052475000		0.34297	177.8068
15077462500		0.34231	177.7058
15102450000		0.34242	177.3281
15127437500		0.3433	177.0731
15152425000		0.34428	177.0988
15177412500		0.34465	177.1017
15202400000		0.34404	176.9087
15227387500		0.34409	176.7664
15252375000		0.3455	176.7119
15277362500		0.3472	176.4662
15302350000		0.3472	176.7966
15327337500		0.34706	176.7412
15352325000		0.34767	176.1124
15377312500		0.34859	176.0308
15402300000		0.3499	176.4832
15427287500		0.35017	176.588
15452275000		0.34975	176.4172
15477262500		0.34891	176.358
15502250000		0.34976	176.0617
15527237500		0.35052	175.7457
15552225000		0.35062	175.9512
15577212500		0.34991	176.1414
15602200000		0.35088	175.6657
15627187500		0.35178	175.3483
15652175000		0.35348	175.3967
15677162500		0.354	175.4673
15702150000		0.35439	175.3941
15727137500		0.3545	175.3786
15752125000		0.35576	175.2829
15777112500		0.35649	175.2245
15802100000		0.35642	175.1205
15827087500		0.35562	175.4638
15852075000		0.35596	175.0736
15877062500		0.35631	174.8917
15902050000		0.35674	175.1356
15927037500		0.35665	175.085
15952025000		0.35663	174.9461
15977012500		0.35672	174.9852
16002000000		0.358	174.6038
16026987500		0.35879	174.4738
16051975000		0.35889	174.5162
16076962500		0.35944	174.6345
16101950000		0.3601	174.2831
16126937500		0.36143	174.0825
16151925000		0.36154	174.2432
16176912500		0.36178	174.3047
16201900000		0.36198	174.1152
16226887500		0.36257	174.0509
16251875000		0.36363	174.1399
16276862500		0.36379	174.2774
16301850000		0.36324	174.07
16326837500		0.36316	174.0034
16351825000		0.36332	174.0288
16376812500		0.36499	173.7674
16401800000		0.36453	173.7487
16426787500		0.36447	173.6143
16451775000		0.36438	173.2805
16476762500		0.36585	173.0858
16501750000		0.36771	173.074
16526737500		0.3682	173.0747
16551725000		0.36818	173.0537
16576712500		0.3686	172.9873
16601700000		0.36935	172.9557
16626687500		0.37071	173.1699
16651675000		0.37068	173.2715
16676662500		0.3698	173.1577
16701650000		0.36926	172.9956
16726637500		0.36997	172.7409
16751625000		0.37077	172.6874
16776612500		0.37087	172.7401
16801600000		0.37065	172.4501
16826587500		0.3713	171.9796
16851575000		0.37272	172.0587
