! Infineon Technologies  Discrete & RF Semiconductors
! BAT24-02LS
! IAC = 0.04 mA
! One-Port S-Parameters
# Hz  S  MA  R  50
!f									S11
!Hz							Mag  Ang
309850000		0.90588	-2.2905
334837500		0.90567	-2.4806
359825000		0.90511	-2.6546
384812500		0.90872	-2.851
409800000		0.9069	-3.0094
434787500		0.90319	-3.1808
459775000		0.90672	-3.3321
484762500		0.90822	-3.5679
509750000		0.9052	-3.8012
534737500		0.90452	-3.9558
559725000		0.90627	-4.1529
584712500		0.90519	-4.369
609700000		0.9036	-4.5608
634687500		0.90709	-4.7381
659675000		0.90504	-4.9273
684662500		0.90328	-5.0992
709650000		0.90646	-5.2935
734637500		0.9063	-5.4936
759625000		0.90552	-5.661
784612500		0.90737	-5.8203
809600000		0.90505	-6.0476
834587500		0.90591	-6.2673
859575000		0.9069	-6.4602
884562500		0.90433	-6.6801
909550000		0.90663	-6.8637
934537500		0.90571	-7.0852
959525000		0.90364	-7.2685
984512500		0.90777	-7.4556
1009500000		0.90446	-7.6486
1034487500		0.90251	-7.837
1059475000		0.90697	-7.986
1084462500		0.90436	-8.1561
1109450000		0.90371	-8.3596
1134437500		0.90739	-8.497
1159425000		0.905	-8.6916
1184412500		0.9047	-8.9254
1209400000		0.90588	-9.1197
1234387500		0.90553	-9.3345
1259375000		0.90477	-9.5166
1284362500		0.90444	-9.7344
1309350000		0.90535	-9.9287
1334337500		0.90549	-10.1069
1359325000		0.90454	-10.3135
1384312500		0.9034	-10.4898
1409300000		0.90428	-10.6499
1434287500		0.90485	-10.8643
1459275000		0.9024	-11.006
1484262500		0.90372	-11.1483
1509250000		0.90624	-11.3023
1534237500		0.90352	-11.5074
1559225000		0.90478	-11.7151
1584212500		0.9066	-11.9555
1609200000		0.90459	-12.1723
1634187500		0.90557	-12.3584
1659175000		0.9041	-12.5998
1684162500		0.90409	-12.8225
1709150000		0.90791	-12.9723
1734137500		0.90172	-13.2142
1759125000		0.90104	-13.405
1784112500		0.90664	-13.4877
1809100000		0.90147	-13.7049
1834087500		0.90074	-13.8769
1859075000		0.90549	-13.9779
1884062500		0.90178	-14.2061
1909050000		0.90115	-14.3428
1934037500		0.90373	-14.5015
1959025000		0.9028	-14.7231
1984012500		0.90218	-14.983
2009000000		0.90247	-15.1748
2033987500		0.90244	-15.3335
2058975000		0.90145	-15.5835
2083962500		0.903	-15.7772
2108950000		0.90431	-15.9272
2133937500		0.90131	-16.1548
2158925000		0.90147	-16.3543
2183912500		0.90482	-16.4561
2208900000		0.90366	-16.6449
2233887500		0.90146	-16.8681
2258875000		0.90269	-17.0289
2283862500		0.90385	-17.1883
2308850000		0.90098	-17.4098
2333837500		0.90128	-17.6072
2358825000		0.90584	-17.7118
2383812500		0.90169	-18.0073
2408800000		0.8978	-18.2708
2433787500		0.90449	-18.4483
2458775000		0.90583	-18.5691
2483762500		0.90133	-18.8171
2508750000		0.90268	-18.9764
2533737500		0.90412	-19.1814
2558725000		0.90366	-19.368
2583712500		0.90393	-19.505
2608700000		0.90483	-19.6935
2633687500		0.90405	-19.8804
2658675000		0.90117	-20.1334
2683662500		0.90252	-20.3144
2708650000		0.90506	-20.4395
2733637500		0.90276	-20.6153
2758625000		0.90268	-20.8061
2783612500		0.90204	-21.008
2808600000		0.90091	-21.2189
2833587500		0.9039	-21.3997
2858575000		0.90383	-21.5618
2883562500		0.90142	-21.7977
2908550000		0.90171	-21.9787
2933537500		0.90338	-22.2336
2958525000		0.9046	-22.3454
2983512500		0.90244	-22.5716
3008500000		0.90049	-22.6213
3033487500		0.90356	-22.8385
3058475000		0.90133	-23.0189
3083462500		0.90007	-23.2654
3108450000		0.90274	-23.4224
3133437500		0.90133	-23.6133
3158425000		0.89918	-23.8199
3183412500		0.89965	-24.0441
3208400000		0.90202	-24.197
3233387500		0.90271	-24.3664
3258375000		0.9005	-24.6181
3283362500		0.90039	-24.8068
3308350000		0.90177	-24.9491
3333337500		0.90226	-25.1552
3358325000		0.9011	-25.3806
3383312500		0.89963	-25.5467
3408300000		0.90185	-25.6893
3433287500		0.90077	-25.9053
3458275000		0.89759	-26.1156
3483262500		0.90107	-26.2649
3508250000		0.90133	-26.4397
3533237500		0.89815	-26.7064
3558225000		0.89987	-26.8755
3583212500		0.89946	-27.0573
3608200000		0.89971	-27.2493
3633187500		0.90207	-27.4018
3658175000		0.89957	-27.647
3683162500		0.89961	-27.8322
3708150000		0.90115	-28.021
3733137500		0.89919	-28.2038
3758125000		0.89959	-28.3538
3783112500		0.89893	-28.5672
3808100000		0.899	-28.7879
3833087500		0.89998	-28.9323
3858075000		0.89664	-29.1744
3883062500		0.89753	-29.3394
3908050000		0.90129	-29.4658
3933037500		0.89745	-29.7414
3958025000		0.89581	-29.9538
3983012500		0.9003	-30.0446
4008000000		0.9006	-30.282
4032987500		0.89666	-30.5407
4057975000		0.89812	-30.6927
4082962500		0.90105	-30.7937
4107950000		0.89738	-31.0776
4132937500		0.8969	-31.2786
4157925000		0.89994	-31.4036
4182912500		0.89879	-31.6172
4207900000		0.89739	-31.8493
4232887500		0.89668	-32.0374
4257875000		0.89742	-32.2028
4282862500		0.89954	-32.3661
4307850000		0.8971	-32.5992
4332837500		0.89751	-32.7565
4357825000		0.89929	-32.9152
4382812500		0.89672	-33.1691
4407800000		0.89909	-33.2887
4432787500		0.89947	-33.4786
4457775000		0.89577	-33.7097
4482762500		0.89929	-33.7971
4507750000		0.89851	-34.0678
4532737500		0.89453	-34.3501
4557725000		0.89876	-34.4171
4582712500		0.89879	-34.6059
4607700000		0.89434	-34.9196
4632687500		0.89506	-35.096
4657675000		0.89828	-35.2122
4682662500		0.89877	-35.3988
4707650000		0.89599	-35.627
4732637500		0.89538	-35.8312
4757625000		0.89759	-35.9615
4782612500		0.8972	-36.1655
4807600000		0.89638	-36.357
4832587500		0.896	-36.5157
4857575000		0.89715	-36.6934
4882562500		0.89562	-36.9185
4907550000		0.89386	-37.1617
4932537500		0.89696	-37.2499
4957525000		0.89674	-37.4343
4982512500		0.89352	-37.7092
5007500000		0.89446	-37.8742
5032487500		0.8959	-38.0484
5057475000		0.89672	-38.2312
5082462500		0.89568	-38.427
5107450000		0.89364	-38.6617
5132437500		0.89586	-38.7691
5157425000		0.89631	-39.0128
5182412500		0.89476	-39.1984
5207400000		0.89655	-39.3229
5232387500		0.89559	-39.5436
5257375000		0.89446	-39.767
5282362500		0.89595	-39.918
5307350000		0.8947	-40.103
5332337500		0.89518	-40.2704
5357325000		0.89621	-40.4369
5382312500		0.89404	-40.6722
5407300000		0.89451	-40.8788
5432287500		0.89639	-41.0211
5457275000		0.89628	-41.2107
5482262500		0.89466	-41.4505
5507250000		0.89362	-41.6413
5532237500		0.89647	-41.7544
5557225000		0.89598	-41.9796
5582212500		0.89261	-42.2449
5607200000		0.8949	-42.3331
5632187500		0.89723	-42.4764
5657175000		0.89338	-42.773
5682162500		0.89272	-42.9472
5707150000		0.89642	-42.9948
5732137500		0.89554	-43.2326
5757125000		0.89337	-43.5185
5782112500		0.89505	-43.6201
5807100000		0.89589	-43.7941
5832087500		0.89406	-44.036
5857075000		0.89496	-44.2129
5882062500		0.89457	-44.4372
5907050000		0.89251	-44.6559
5932037500		0.89428	-44.8135
5957025000		0.89473	-44.9508
5982012500		0.89324	-45.1532
6007000000		0.89413	-45.3691
6031987500		0.89444	-45.4984
6056975000		0.89557	-45.6437
6081962500		0.89463	-45.8481
6106950000		0.89348	-46.0811
6131937500		0.89627	-46.246
6156925000		0.89342	-46.4935
6181912500		0.89198	-46.7209
6206900000		0.89618	-46.7564
6231887500		0.89488	-47.0221
6256875000		0.89256	-47.3313
6281862500		0.89414	-47.4144
6306850000		0.89465	-47.6006
6331837500		0.89341	-47.8159
6356825000		0.89235	-47.9705
6381812500		0.89325	-48.1436
6406800000		0.894	-48.3146
6431787500		0.89349	-48.517
6456775000		0.89418	-48.6322
6481762500		0.89424	-48.8359
6506750000		0.89401	-49.0645
6531737500		0.89482	-49.2214
6556725000		0.89294	-49.4493
6581712500		0.89198	-49.6937
6606700000		0.8933	-49.8335
6631687500		0.89267	-50.0611
6656675000		0.89231	-50.2747
6681662500		0.89155	-50.4538
6706650000		0.89106	-50.6393
6731637500		0.8913	-50.7826
6756625000		0.89078	-50.989
6781612500		0.89216	-51.1384
6806600000		0.89362	-51.2591
6831587500		0.89172	-51.5091
6856575000		0.8918	-51.6834
6881562500		0.89293	-51.84
6906550000		0.89382	-52.0298
6931537500		0.89224	-52.2281
6956525000		0.89011	-52.4923
6981512500		0.89137	-52.6514
7006500000		0.89211	-52.8578
7031487500		0.89092	-53.0738
7056475000		0.89082	-53.2491
7081462500		0.89001	-53.4574
7106450000		0.89083	-53.6022
7131437500		0.89191	-53.743
7156425000		0.89086	-53.9543
7181412500		0.89251	-54.0431
7206400000		0.89219	-54.2581
7231387500		0.88946	-54.5016
7256375000		0.8918	-54.604
7281362500		0.89257	-54.7819
7306350000		0.89131	-55.0192
7331337500		0.89119	-55.208
7356325000		0.88873	-55.5284
7381312500		0.889	-55.7217
7406300000		0.89055	-55.825
7431287500		0.88841	-56.1143
7456275000		0.88837	-56.2939
7481262500		0.89028	-56.3875
7506250000		0.89041	-56.5639
7531237500		0.88985	-56.7414
7556225000		0.89028	-56.8798
7581212500		0.89103	-57.0331
7606200000		0.89087	-57.2348
7631187500		0.89031	-57.4295
7656175000		0.89	-57.6115
7681162500		0.89039	-57.8413
7706150000		0.88983	-58.0613
7731137500		0.88761	-58.3564
7756125000		0.88808	-58.5391
7781112500		0.89033	-58.6443
7806100000		0.88881	-58.8637
7831087500		0.88868	-59.0242
7856075000		0.88993	-59.2132
7881062500		0.88815	-59.4395
7906050000		0.8899	-59.4849
7931037500		0.8912	-59.5979
7956025000		0.88947	-59.8464
7981012500		0.89106	-59.9737
8006000000		0.88956	-60.2369
8030987500		0.88818	-60.4806
8055975000		0.89089	-60.5472
8080962500		0.88915	-60.8085
8105950000		0.88818	-61.1018
8130937500		0.88847	-61.3017
8155925000		0.88797	-61.4811
8180912500		0.88967	-61.5474
8205900000		0.88925	-61.7716
8230887500		0.88709	-62.0527
8255875000		0.88877	-62.16
8280862500		0.88978	-62.2827
8305850000		0.88843	-62.46
8330837500		0.88815	-62.622
8355825000		0.88888	-62.8081
8380812500		0.88799	-63.0437
8405800000		0.88674	-63.2569
8430787500		0.88714	-63.419
8455775000		0.88759	-63.6341
8480762500		0.88655	-63.8529
8505750000		0.88665	-64.0795
8530737500		0.88664	-64.2815
8555725000		0.88728	-64.4041
8580712500		0.88779	-64.5318
8605700000		0.88683	-64.7751
8630687500		0.88773	-64.9393
8655675000		0.88704	-65.1294
8680662500		0.8859	-65.3021
8705650000		0.88792	-65.3898
8730637500		0.88675	-65.5869
8755625000		0.88595	-65.8142
8780612500		0.88606	-65.9839
8805600000		0.88388	-66.2844
8830587500		0.88639	-66.3511
8855575000		0.88805	-66.4974
8880562500		0.88417	-66.872
8905550000		0.88459	-67.0294
8930537500		0.88726	-67.1105
8955525000		0.88727	-67.2706
8980512500		0.88663	-67.4599
9005500000		0.88632	-67.6472
9030487500		0.88667	-67.7924
9055475000		0.88432	-68.0834
9080462500		0.88348	-68.2574
9105450000		0.88683	-68.2691
9130437500		0.8852	-68.5221
9155425000		0.8815	-68.8397
9180412500		0.88311	-68.9952
9205400000		0.88421	-69.1568
9230387500		0.88353	-69.4039
9255375000		0.88505	-69.5041
9280362500		0.88493	-69.6828
9305350000		0.88235	-69.9969
9330337500		0.88346	-70.1299
9355325000		0.8867	-70.1458
9380312500		0.88392	-70.4586
9405300000		0.88166	-70.6984
9430287500		0.88364	-70.8142
9455275000		0.88142	-71.0831
9480262500		0.88049	-71.2988
9505250000		0.88376	-71.3063
9530237500		0.88245	-71.5039
9555225000		0.87904	-71.8545
9580212500		0.87981	-72.0259
9605200000		0.88465	-71.9983
9630187500		0.88349	-72.2374
9655175000		0.87894	-72.6186
9680162500		0.88159	-72.6565
9705150000		0.88453	-72.7526
9730137500		0.88006	-73.1609
9755125000		0.8825	-73.1909
9780112500		0.8843	-73.2845
9805100000		0.87831	-73.7356
9830087500		0.87909	-73.9071
9855075000		0.88279	-73.8888
9880062500		0.88104	-74.1091
9905050000		0.88067	-74.2982
9930037500		0.88094	-74.4455
9955025000		0.88018	-74.7026
9980012500		0.88104	-74.8551
10005000000		0.88365	-74.9079
10029987500		0.88338	-75.084
10054975000		0.87924	-75.454
10079962500		0.87958	-75.6583
10104950000		0.88254	-75.6938
10129937500		0.87953	-75.9774
10154925000		0.87817	-76.2197
10179912500		0.88058	-76.2946
10204900000		0.87848	-76.6007
10229887500		0.8749	-76.9175
10254875000		0.87763	-76.8867
10279862500		0.88225	-76.8444
10304850000		0.87637	-77.3366
10329837500		0.87488	-77.6221
10354825000		0.88037	-77.5283
10379812500		0.88053	-77.681
10404800000		0.87865	-77.9424
10429787500		0.88023	-78.0559
10454775000		0.87829	-78.3808
10479762500		0.87824	-78.5674
10504750000		0.88006	-78.6084
10529737500		0.87854	-78.8303
10554725000		0.87664	-79.1196
10579712500		0.87609	-79.3854
10604700000		0.87726	-79.4771
10629687500		0.87844	-79.5552
10654675000		0.87657	-79.7864
10679662500		0.87641	-79.9562
10704650000		0.8774	-80.1705
10729637500		0.87636	-80.3854
10754625000		0.87887	-80.3834
10779612500		0.87965	-80.5006
10804600000		0.87667	-80.8343
10829587500		0.87675	-81.0619
10854575000		0.87748	-81.273
10879562500		0.87668	-81.4652
10904550000		0.877	-81.5524
10929537500		0.87721	-81.7162
10954525000		0.87613	-82.0323
10979512500		0.87585	-82.2434
11004500000		0.87689	-82.2907
11029487500		0.87675	-82.4208
11054475000		0.87683	-82.5761
11079462500		0.87696	-82.7706
11104450000		0.8748	-83.1079
11129437500		0.87444	-83.2794
11154425000		0.87707	-83.2828
11179412500		0.8755	-83.5603
11204400000		0.8743	-83.8355
11229387500		0.87572	-83.974
11254375000		0.87633	-84.0994
11279362500		0.87492	-84.3308
11304350000		0.87544	-84.4433
11329337500		0.87673	-84.5335
11354325000		0.87482	-84.8785
11379312500		0.87358	-85.0981
11404300000		0.87721	-85.0263
11429287500		0.87661	-85.2678
11454275000		0.8732	-85.6399
11479262500		0.87574	-85.6606
11504250000		0.87606	-85.8213
11529237500		0.87289	-86.2142
11554225000		0.87504	-86.2736
11579212500		0.87608	-86.3277
11604200000		0.873	-86.7288
11629187500		0.87261	-86.9503
11654175000		0.87588	-86.8914
11679162500		0.87612	-87.0613
11704150000		0.87329	-87.3846
11729137500		0.87488	-87.4279
11754125000		0.87667	-87.5307
11779112500		0.87203	-87.9522
11804100000		0.87354	-88.0557
11829087500		0.87765	-87.9844
11854075000		0.87311	-88.4457
11879062500		0.87124	-88.684
11904050000		0.87462	-88.6745
11929037500		0.87307	-89.0044
11954025000		0.87113	-89.2651
11979012500		0.87482	-89.1634
12004000000		0.8747	-89.3691
12028987500		0.87027	-89.8169
12053975000		0.87268	-89.8155
12078962500		0.87724	-89.7189
12103950000		0.87359	-90.0902
12128937500		0.87258	-90.303
12153925000		0.87515	-90.3411
12178912500		0.87269	-90.6511
12203900000		0.87089	-90.9465
12228887500		0.87298	-90.973
12253875000		0.87339	-91.0845
12278862500		0.86915	-91.552
12303850000		0.86892	-91.7574
12328837500		0.87485	-91.6038
12353825000		0.87281	-91.8653
12378812500		0.86959	-92.1347
12403800000		0.87397	-92.1114
12428787500		0.87382	-92.3839
12453775000		0.87202	-92.6078
12478762500		0.87642	-92.456
12503750000		0.87406	-92.8098
12528737500		0.87007	-93.1911
12553725000		0.8725	-93.1692
12578712500		0.87462	-93.2976
12603700000		0.87228	-93.6045
12628687500		0.87001	-93.8436
12653675000		0.86975	-94.0966
12678662500		0.86898	-94.3472
12703650000		0.86972	-94.4696
12728637500		0.87212	-94.3939
12753625000		0.87447	-94.5009
12778612500		0.87184	-94.7963
12803600000		0.87268	-94.9436
12828587500		0.87598	-94.8854
12853575000		0.87457	-95.0459
12878562500		0.87234	-95.2949
12903550000		0.87378	-95.4364
12928537500		0.87277	-95.724
12953525000		0.87038	-96.0295
12978512500		0.87163	-96.1105
13003500000		0.8709	-96.3778
13028487500		0.86985	-96.6418
13053475000		0.87147	-96.7253
13078462500		0.87108	-96.9815
13103450000		0.87097	-97.122
13128437500		0.87475	-96.9769
13153425000		0.8721	-97.3484
13178412500		0.87141	-97.5782
13203400000		0.87613	-97.3956
13228387500		0.87458	-97.6215
13253375000		0.87206	-97.9406
13278362500		0.87318	-98.0815
13303350000		0.87174	-98.378
13328337500		0.87114	-98.6147
13353325000		0.87143	-98.746
13378312500		0.87049	-98.8621
13403300000		0.87112	-99.1203
13428287500		0.87037	-99.4146
13453275000		0.87045	-99.5159
13478262500		0.87343	-99.4406
13503250000		0.8727	-99.6238
13528237500		0.87219	-99.8363
13553225000		0.87354	-99.9194
13578212500		0.87253	-100.1703
13603200000		0.87347	-100.2066
13628187500		0.87444	-100.262
13653175000		0.87001	-100.8163
13678162500		0.86844	-101.1442
13703150000		0.87153	-101.0658
13728137500		0.86923	-101.4512
13753125000		0.86532	-101.7769
13778112500		0.86878	-101.7434
13803100000		0.87112	-101.8614
13828087500		0.86867	-102.1772
13853075000		0.87045	-102.1322
13878062500		0.87206	-102.1806
13903050000		0.87092	-102.4212
13928037500		0.87234	-102.5684
13953025000		0.87349	-102.6262
13978012500		0.87374	-102.7368
14003000000		0.87111	-103.1101
14027987500		0.8695	-103.428
14052975000		0.87108	-103.4817
14077962500		0.86972	-103.7397
14102950000		0.86782	-104.0095
14127937500		0.86919	-104.0397
14152925000		0.86876	-104.3694
14177912500		0.86734	-104.5931
14202900000		0.86994	-104.5475
14227887500		0.87015	-104.7377
14252875000		0.86992	-104.9315
14277862500		0.87271	-104.8893
14302850000		0.87363	-105.0084
14327837500		0.87157	-105.2923
14352825000		0.87093	-105.4044
14377812500		0.87164	-105.5175
14402800000		0.87065	-105.8612
14427787500		0.86952	-106.1005
14452775000		0.87044	-106.1223
14477762500		0.86986	-106.3077
14502750000		0.86824	-106.6256
14527737500		0.86863	-106.8487
14552725000		0.8713	-106.8668
14577712500		0.8718	-106.936
14602700000		0.87013	-107.1721
14627687500		0.87062	-107.346
14652675000		0.87205	-107.4345
14677662500		0.87141	-107.6073
14702650000		0.87167	-107.7198
14727637500		0.87059	-107.8789
14752625000		0.86983	-108.1377
14777612500		0.87008	-108.3492
14802600000		0.86966	-108.5752
14827587500		0.87004	-108.639
14852575000		0.87037	-108.7212
14877562500		0.86822	-109.1717
14902550000		0.86832	-109.3509
14927537500		0.87113	-109.3633
14952525000		0.8704	-109.5097
14977512500		0.86995	-109.6514
15002500000		0.86979	-109.8158
15027487500		0.86881	-110.1246
15052475000		0.8698	-110.2874
15077462500		0.87015	-110.274
15102450000		0.86988	-110.4219
15127437500		0.86853	-110.7498
15152425000		0.86759	-110.9852
15177412500		0.86882	-111.0356
15202400000		0.86879	-111.1786
15227387500		0.86785	-111.3911
15252375000		0.86913	-111.4818
15277362500		0.86855	-111.7683
15302350000		0.86808	-112.0448
15327337500		0.86954	-112.0077
15352325000		0.86916	-112.1402
15377312500		0.86664	-112.6
15402300000		0.86685	-112.7959
15427287500		0.86929	-112.7325
15452275000		0.86807	-112.9438
15477262500		0.86668	-113.1148
15502250000		0.86804	-113.1839
15527237500		0.86712	-113.4647
15552225000		0.86613	-113.7447
15577212500		0.86773	-113.6565
15602200000		0.86879	-113.7733
15627187500		0.86642	-114.0906
15652175000		0.86559	-114.3825
15677162500		0.86744	-114.4882
15702150000		0.8683	-114.6165
15727137500		0.86631	-114.8541
15752125000		0.86679	-115.0325
15777112500		0.86824	-115.1604
15802100000		0.86536	-115.4957
15827087500		0.86475	-115.5341
15852075000		0.86621	-115.5217
15877062500		0.86476	-115.8189
15902050000		0.86526	-116.0209
15927037500		0.86681	-116.0177
15952025000		0.86545	-116.2029
15977012500		0.86572	-116.3079
16002000000		0.86719	-116.3928
16026987500		0.86713	-116.7024
16051975000		0.86556	-116.9134
16076962500		0.86579	-117.0108
16101950000		0.86699	-117.231
16126937500		0.86509	-117.552
16151925000		0.86388	-117.6895
16176912500		0.86474	-117.7691
16201900000		0.86438	-117.9838
16226887500		0.86216	-118.2131
16251875000		0.86339	-118.3587
16276862500		0.86639	-118.3744
16301850000		0.86592	-118.4946
16326837500		0.8645	-118.717
16351825000		0.86554	-118.7779
16376812500		0.86685	-118.9521
16401800000		0.86587	-119.1093
16426787500		0.86609	-119.2234
16451775000		0.86404	-119.4593
16476762500		0.86303	-119.7534
16501750000		0.86437	-119.9134
16526737500		0.86461	-120.1545
16551725000		0.8633	-120.3018
16576712500		0.86261	-120.4865
16601700000		0.86311	-120.7441
16626687500		0.86353	-120.8013
16651675000		0.8651	-120.8136
16676662500		0.86496	-120.9689
16701650000		0.86438	-121.085
16726637500		0.86387	-121.2318
16751625000		0.86461	-121.5043
16776612500		0.86518	-121.5323
16801600000		0.86576	-121.6545
16826587500		0.86363	-121.9928
16851575000		0.86238	-122.3277
16876562500		0.86403	-122.4439
16901550000		0.8652	-122.5289
16926537500		0.8635	-122.8015
16951525000		0.86389	-122.8984
16976512500		0.86592	-122.9398
17001500000		0.86567	-123.1859
17026487500		0.86527	-123.2497
17051475000		0.8668	-123.163
17076462500		0.86638	-123.3704
17101450000		0.86454	-123.7468
17126437500		0.86507	-123.8516
17151425000		0.86715	-123.7958
17176412500		0.86544	-124.0101
