! Infineon Technologies  Discrete & RF Semiconductors
! BAT24-02LS
! VCA = 3 V
! One-Port S-Parameters
# Hz  S  MA  R  50
!f									S11
!Hz							Mag  Ang
309850000		1.0002	-1.7061
334837500		1.0002	-1.8479
359825000		1.0005	-2.0046
384812500		1.0003	-2.0958
409800000		1.0002	-2.2306
434787500		0.99989	-2.3637
459775000		1.0003	-2.5051
484762500		1.0005	-2.6478
509750000		1.0003	-2.7646
534737500		1.0002	-2.9408
559725000		1.0001	-3.0713
584712500		1.0003	-3.222
609700000		1.0002	-3.3718
634687500		1.0003	-3.4889
659675000		0.99962	-3.6266
684662500		0.99941	-3.6938
709650000		0.99988	-3.8684
734637500		0.99975	-4.0081
759625000		0.99964	-4.1186
784612500		1	-4.2408
809600000		1.0003	-4.3915
834587500		1.0004	-4.543
859575000		1.0005	-4.6896
884562500		1.0005	-4.8474
909550000		1.0002	-4.9963
934537500		1.0001	-5.1297
959525000		1.0002	-5.266
984512500		0.99995	-5.4054
1009500000		0.99968	-5.5366
1034487500		0.99951	-5.667
1059475000		0.99926	-5.7729
1084462500		0.99974	-5.8912
1109450000		0.99963	-6.0248
1134437500		0.99949	-6.1373
1159425000		1.0002	-6.2565
1184412500		1.0009	-6.4238
1209400000		1.0007	-6.5922
1234387500		1.0004	-6.7273
1259375000		1.0004	-6.8705
1284362500		1.0003	-7.0334
1309350000		1	-7.1817
1334337500		1.0002	-7.3075
1359325000		1.0002	-7.448
1384312500		0.99956	-7.5765
1409300000		0.99963	-7.6944
1434287500		0.99932	-7.8504
1459275000		0.99902	-7.9355
1484262500		0.99973	-8.0241
1509250000		1.0001	-8.1533
1534237500		1.0004	-8.2747
1559225000		1.0013	-8.4379
1584212500		1.0015	-8.6427
1609200000		1.0011	-8.8004
1634187500		1.0012	-8.9325
1659175000		1.0013	-9.118
1684162500		1.0005	-9.3013
1709150000		1	-9.4335
1734137500		1.0001	-9.5759
1759125000		0.99928	-9.71
1784112500		0.99883	-9.7955
1809100000		0.99886	-9.9243
1834087500		0.99832	-10.0462
1859075000		0.99845	-10.1267
1884062500		0.99894	-10.2636
1909050000		0.99902	-10.3462
1934037500		0.99932	-10.4683
1959025000		0.99991	-10.62
1984012500		1.0005	-10.8436
2009000000		1	-10.9628
2033987500		1.0003	-11.0877
2058975000		1.0005	-11.2614
2083962500		0.99982	-11.4241
2108950000		0.99949	-11.5326
2133937500		1.0001	-11.6878
2158925000		0.99961	-11.8431
2183912500		0.99926	-11.9271
2208900000		0.99955	-12.0163
2233887500		0.99905	-12.2102
2258875000		0.9988	-12.3097
2283862500		0.99915	-12.4064
2308850000		0.9997	-12.612
2333837500		0.99956	-12.6887
2358825000		1.0001	-12.8492
2383812500		1.0001	-13.0625
2408800000		0.99964	-13.1349
2433787500		1.0005	-13.3548
2458775000		1.0001	-13.4661
2483762500		0.99962	-13.5987
2508750000		0.99934	-13.7455
2533737500		0.99924	-13.8679
2558725000		0.99933	-14.0405
2583712500		0.99916	-14.1455
2608700000		0.99882	-14.2305
2633687500		0.99838	-14.3728
2658675000		0.99861	-14.562
2683662500		0.99852	-14.6973
2708650000		0.99861	-14.8238
2733637500		0.99868	-14.8947
2758625000		0.99863	-15.0462
2783612500		0.99859	-15.2035
2808600000		0.99882	-15.3547
2833587500		0.99882	-15.4782
2858575000		0.99882	-15.5958
2883562500		0.99886	-15.7475
2908550000		0.99871	-15.9066
2933537500		0.99903	-16.0892
2958525000		0.99886	-16.176
2983512500		0.99894	-16.3139
3008500000		0.99878	-16.4187
3033487500		0.99869	-16.5847
3058475000		0.99839	-16.6969
3083462500		0.99873	-16.8489
3108450000		0.99891	-16.9951
3133437500		0.99863	-17.1102
3158425000		0.99846	-17.2776
3183412500		0.99825	-17.4142
3208400000		0.99854	-17.541
3233387500		0.9985	-17.6768
3258375000		0.99823	-17.8413
3283362500		0.99776	-17.921
3308350000		0.99797	-18.1004
3333337500		0.9981	-18.2165
3358325000		0.99807	-18.3459
3383312500		0.99784	-18.4749
3408300000		0.99777	-18.5988
3433287500		0.9983	-18.7444
3458275000		0.99839	-18.8927
3483262500		0.99812	-19.0067
3508250000		0.99822	-19.1264
3533237500		0.99858	-19.2911
3558225000		0.9983	-19.4552
3583212500		0.99817	-19.58
3608200000		0.99831	-19.7076
3633187500		0.9981	-19.8623
3658175000		0.99764	-20.0106
3683162500		0.99783	-20.1408
3708150000		0.99803	-20.2944
3733137500		0.99744	-20.4237
3758125000		0.99738	-20.5611
3783112500		0.99755	-20.6677
3808100000		0.99736	-20.8252
3833087500		0.9973	-20.937
3858075000		0.99759	-21.0569
3883062500		0.99759	-21.2
3908050000		0.99749	-21.341
3933037500		0.99773	-21.4914
3958025000		0.99754	-21.6421
3983012500		0.99732	-21.7563
4008000000		0.99786	-21.924
4032987500		0.99769	-22.0693
4057975000		0.9972	-22.2054
4082962500		0.99705	-22.2861
4107950000		0.99758	-22.463
4132937500		0.99725	-22.6186
4157925000		0.99706	-22.7425
4182912500		0.99738	-22.8749
4207900000		0.99723	-23.0352
4232887500		0.99652	-23.1711
4257875000		0.99653	-23.291
4282862500		0.99685	-23.4501
4307850000		0.99648	-23.5957
4332837500		0.99621	-23.6988
4357825000		0.99641	-23.8401
4382812500		0.99596	-23.9973
4407800000		0.99605	-24.1192
4432787500		0.99642	-24.2457
4457775000		0.99634	-24.3825
4482762500		0.99614	-24.5128
4507750000		0.99628	-24.6711
4532737500		0.99601	-24.8188
4557725000		0.99608	-24.9205
4582712500		0.99652	-25.0592
4607700000		0.99623	-25.2373
4632687500		0.99561	-25.3908
4657675000		0.99572	-25.5175
4682662500		0.996	-25.6498
4707650000		0.99588	-25.7834
4732637500		0.99542	-25.9222
4757625000		0.99514	-26.063
4782612500		0.99533	-26.2083
4807600000		0.99535	-26.3365
4832587500		0.9951	-26.4399
4857575000		0.99513	-26.5653
4882562500		0.99494	-26.7372
4907550000		0.99457	-26.8815
4932537500		0.99487	-26.9844
4957525000		0.99531	-27.1152
4982512500		0.99513	-27.2755
5007500000		0.99448	-27.4219
5032487500		0.99467	-27.5575
5057475000		0.99508	-27.6975
5082462500		0.99505	-27.8375
5107450000		0.99454	-27.9637
5132437500		0.99466	-28.1064
5157425000		0.99477	-28.2768
5182412500		0.99444	-28.4116
5207400000		0.99437	-28.5124
5232387500		0.99446	-28.6421
5257375000		0.9942	-28.794
5282362500		0.99409	-28.932
5307350000		0.9941	-29.0483
5332337500		0.99429	-29.1714
5357325000		0.99416	-29.313
5382312500		0.99395	-29.4654
5407300000		0.99385	-29.6133
5432287500		0.99392	-29.7492
5457275000		0.99403	-29.8922
5482262500		0.99374	-30.0411
5507250000		0.99339	-30.1702
5532237500		0.99381	-30.2989
5557225000		0.9941	-30.4582
5582212500		0.9935	-30.6054
5607200000		0.99318	-30.7007
5632187500		0.994	-30.8253
5657175000		0.99408	-30.9897
5682162500		0.99343	-31.1005
5707150000		0.99346	-31.1951
5732137500		0.99378	-31.3589
5757125000		0.99357	-31.529
5782112500		0.99344	-31.6531
5807100000		0.99367	-31.7765
5832087500		0.99362	-31.9302
5857075000		0.99317	-32.0921
5882062500		0.99307	-32.2397
5907050000		0.99352	-32.3746
5932037500		0.99365	-32.5089
5957025000		0.99323	-32.629
5982012500		0.99324	-32.7486
6007000000		0.99366	-32.9108
6031987500		0.99349	-33.0492
6056975000		0.9934	-33.1436
6081962500		0.99349	-33.2683
6106950000		0.99308	-33.4369
6131937500		0.99303	-33.6098
6156925000		0.99302	-33.7771
6181912500		0.99275	-33.8947
6206900000		0.99293	-34.0079
6231887500		0.99303	-34.1966
6256875000		0.99234	-34.3711
6281862500		0.99245	-34.472
6306850000		0.99346	-34.5907
6331837500		0.99311	-34.7497
6356825000		0.99229	-34.8599
6381812500		0.99254	-34.9776
6406800000		0.99297	-35.1377
6431787500		0.99258	-35.2674
6456775000		0.99227	-35.3621
6481762500		0.99245	-35.5118
6506750000		0.99213	-35.6881
6531737500		0.99203	-35.8326
6556725000		0.99226	-35.9751
6581712500		0.99209	-36.1211
6606700000		0.9919	-36.2709
6631687500		0.99203	-36.4205
6656675000		0.99208	-36.5692
6681662500		0.9921	-36.6923
6706650000		0.9919	-36.8247
6731637500		0.99162	-36.9581
6756625000		0.99175	-37.0848
6781612500		0.99212	-37.2102
6806600000		0.99197	-37.3495
6831587500		0.99144	-37.4762
6856575000		0.99126	-37.6069
6881562500		0.99139	-37.757
6906550000		0.99153	-37.9103
6931537500		0.99133	-38.0499
6956525000		0.99104	-38.1902
6981512500		0.99094	-38.3466
7006500000		0.99098	-38.5178
7031487500		0.99102	-38.6567
7056475000		0.99112	-38.786
7081462500		0.99098	-38.9236
7106450000		0.99075	-39.0644
7131437500		0.99071	-39.209
7156425000		0.99069	-39.3219
7181412500		0.99102	-39.4151
7206400000		0.99107	-39.5542
7231387500		0.99043	-39.6984
7256375000		0.99038	-39.8145
7281362500		0.99076	-39.97
7306350000		0.99042	-40.1246
7331337500		0.99025	-40.2601
7356325000		0.99044	-40.4497
7381312500		0.98986	-40.6334
7406300000		0.98983	-40.743
7431287500		0.99051	-40.8792
7456275000		0.99022	-41.0454
7481262500		0.98982	-41.1635
7506250000		0.99028	-41.2772
7531237500		0.99043	-41.4073
7556225000		0.99009	-41.5089
7581212500		0.99022	-41.6376
7606200000		0.99	-41.7916
7631187500		0.98971	-41.9241
7656175000		0.98988	-42.0528
7681162500		0.9898	-42.2197
7706150000		0.98938	-42.4099
7731137500		0.98912	-42.5812
7756125000		0.98961	-42.7256
7781112500		0.98983	-42.8822
7806100000		0.98907	-43.0162
7831087500		0.98895	-43.1254
7856075000		0.98963	-43.286
7881062500		0.98951	-43.4407
7906050000		0.98925	-43.5035
7931037500		0.98959	-43.5958
7956025000		0.98919	-43.7599
7981012500		0.98885	-43.9031
8006000000		0.98937	-44.0388
8030987500		0.98951	-44.1948
8055975000		0.98866	-44.3291
8080962500		0.9883	-44.4817
8105950000		0.98853	-44.6756
8130937500		0.98878	-44.8677
8155925000		0.98871	-44.997
8180912500		0.98851	-45.1014
8205900000		0.98833	-45.2505
8230887500		0.98808	-45.4124
8255875000		0.98831	-45.5393
8280862500		0.98877	-45.6508
8305850000		0.98838	-45.7547
8330837500		0.98796	-45.862
8355825000		0.98816	-46.0168
8380812500		0.9881	-46.1871
8405800000		0.98801	-46.2979
8430787500		0.98829	-46.4176
8455775000		0.98781	-46.609
8480762500		0.98712	-46.7823
8505750000		0.98752	-46.9408
8530737500		0.988	-47.1097
8555725000		0.98745	-47.2439
8580712500		0.98703	-47.3547
8605700000		0.98718	-47.5062
8630687500		0.98729	-47.6653
8655675000		0.98735	-47.7881
8680662500		0.98742	-47.8829
8705650000		0.98732	-47.9967
8730637500		0.98693	-48.1341
8755625000		0.98686	-48.2644
8780612500		0.98705	-48.4068
8805600000		0.98682	-48.5696
8830587500		0.98638	-48.7115
8855575000		0.98635	-48.8665
8880562500		0.98642	-49.0415
8905550000		0.98632	-49.199
8930537500		0.98625	-49.3448
8955525000		0.98625	-49.4828
8980512500		0.98617	-49.6118
9005500000		0.98616	-49.7337
9030487500		0.98622	-49.8547
9055475000		0.9862	-49.9917
9080462500		0.986	-50.1169
9105450000		0.98605	-50.2144
9130437500		0.98628	-50.3406
9155425000		0.9859	-50.4947
9180412500		0.98548	-50.6533
9205400000		0.9856	-50.8202
9230387500		0.98563	-50.9919
9255375000		0.98544	-51.1167
9280362500		0.9854	-51.2523
9305350000		0.98513	-51.4339
9330337500		0.9848	-51.5925
9355325000		0.98515	-51.7108
9380312500		0.98559	-51.8286
9405300000		0.98537	-51.9616
9430287500		0.98482	-52.1061
9455275000		0.98474	-52.2512
9480262500		0.98523	-52.3842
9505250000		0.9854	-52.4919
9530237500		0.98514	-52.5972
9555225000		0.98493	-52.7593
9580212500		0.98432	-52.9482
9605200000		0.9842	-53.0669
9630187500		0.98495	-53.1848
9655175000		0.98456	-53.3598
9680162500		0.9835	-53.5005
9705150000		0.98386	-53.6501
9730137500		0.98429	-53.8444
9755125000		0.9839	-53.9659
9780112500		0.984	-54.0526
9805100000		0.98414	-54.2225
9830087500		0.98374	-54.4015
9855075000		0.98384	-54.5135
9880062500		0.98431	-54.612
9905050000		0.98411	-54.741
9930037500		0.98336	-54.89
9955025000		0.98307	-55.0498
9980012500		0.98331	-55.2032
10005000000		0.98329	-55.333
10029987500		0.98287	-55.4567
10054975000		0.98265	-55.6162
10079962500		0.98254	-55.7945
10104950000		0.98262	-55.9409
10129937500		0.98264	-56.0524
10154925000		0.98239	-56.1858
10179912500		0.98207	-56.3377
10204900000		0.98244	-56.499
10229887500		0.98269	-56.6499
10254875000		0.98213	-56.7247
10279862500		0.9821	-56.8042
10304850000		0.98208	-57.003
10329837500		0.98162	-57.2094
10354825000		0.98162	-57.3221
10379812500		0.98223	-57.4229
10404800000		0.98171	-57.5584
10429787500		0.98096	-57.7302
10454775000		0.98099	-57.9156
10479762500		0.98143	-58.0658
10504750000		0.98149	-58.1722
10529737500		0.98107	-58.2745
10554725000		0.98086	-58.4486
10579712500		0.98075	-58.6544
10604700000		0.98095	-58.7843
10629687500		0.98167	-58.8523
10654675000		0.98125	-58.9612
10679662500		0.98033	-59.111
10704650000		0.98058	-59.2976
10729637500		0.98068	-59.4603
10754625000		0.98079	-59.5435
10779612500		0.98048	-59.6402
10804600000		0.97952	-59.8284
10829587500		0.97908	-60.0132
10854575000		0.97998	-60.1935
10879562500		0.9803	-60.3438
10904550000		0.97942	-60.4414
10929537500		0.97936	-60.5487
10954525000		0.97982	-60.7705
10979512500		0.97966	-60.9629
11004500000		0.97978	-61.0368
11029487500		0.97987	-61.0984
11054475000		0.97921	-61.237
11079462500		0.97885	-61.3976
11104450000		0.97934	-61.5749
11129437500		0.97939	-61.7284
11154425000		0.97877	-61.8311
11179412500		0.97832	-61.9849
11204400000		0.97834	-62.15
11229387500		0.97825	-62.3317
11254375000		0.97862	-62.4522
11279362500		0.97883	-62.5781
11304350000		0.97819	-62.7054
11329337500		0.97814	-62.8206
11354325000		0.97893	-62.9977
11379312500		0.97842	-63.1839
11404300000		0.97764	-63.263
11429287500		0.97824	-63.3763
11454275000		0.97807	-63.5866
11479262500		0.97705	-63.7323
11504250000		0.97748	-63.8295
11529237500		0.978	-64.0268
11554225000		0.97712	-64.192
11579212500		0.97675	-64.2876
11604200000		0.97765	-64.4277
11629187500		0.97741	-64.6538
11654175000		0.97646	-64.7508
11679162500		0.97681	-64.8509
11704150000		0.9771	-65.0096
11729137500		0.97634	-65.1436
11754125000		0.97654	-65.2565
11779112500		0.97644	-65.4359
11804100000		0.97589	-65.5999
11829087500		0.97617	-65.6907
11854075000		0.97675	-65.8478
11879062500		0.97576	-66.0147
11904050000		0.97519	-66.1315
11929037500		0.97596	-66.3105
11954025000		0.97576	-66.4946
11979012500		0.97517	-66.5688
12004000000		0.9756	-66.681
12028987500		0.97519	-66.9188
12053975000		0.97434	-67.0304
12078962500		0.97484	-67.1014
12103950000		0.97549	-67.2385
12128937500		0.97473	-67.366
12153925000		0.97455	-67.536
12178912500		0.97453	-67.6768
12203900000		0.97514	-67.8321
12228887500		0.97511	-67.9419
12253875000		0.97423	-68.0186
12278862500		0.97403	-68.2144
12303850000		0.9738	-68.4604
12328837500		0.97387	-68.5699
12353825000		0.97439	-68.7105
12378812500		0.97375	-68.8077
12403800000		0.97321	-68.9497
12428787500		0.97383	-69.1451
12453775000		0.97349	-69.2823
12478762500		0.97378	-69.3292
12503750000		0.9742	-69.4852
12528737500		0.97342	-69.6613
12553725000		0.97262	-69.7799
12578712500		0.97344	-69.8761
12603700000		0.97428	-70.0654
12628687500		0.9727	-70.1599
12653675000		0.97265	-70.3257
12678662500		0.97289	-70.6053
12703650000		0.97279	-70.7249
12728637500		0.97294	-70.7965
12753625000		0.97327	-70.907
12778612500		0.9724	-71.0713
12803600000		0.97245	-71.2272
12828587500		0.97265	-71.3263
12853575000		0.97292	-71.4162
12878562500		0.9722	-71.5221
12903550000		0.9718	-71.6598
12928537500		0.97166	-71.8346
12953525000		0.97155	-72.0496
12978512500		0.97187	-72.1294
13003500000		0.97172	-72.2969
13028487500		0.97126	-72.4948
13053475000		0.97127	-72.6297
13078462500		0.97246	-72.777
13103450000		0.97245	-72.9905
13128437500		0.97163	-73.0146
13153425000		0.97173	-73.1168
13178412500		0.97194	-73.3456
13203400000		0.97147	-73.4487
13228387500		0.97146	-73.4956
13253375000		0.97131	-73.6646
13278362500		0.97047	-73.8414
13303350000		0.97044	-74.0183
13328337500		0.97134	-74.1672
13353325000		0.97139	-74.295
13378312500		0.97023	-74.4175
13403300000		0.9702	-74.5982
13428287500		0.97098	-74.7614
13453275000		0.97103	-74.9402
13478262500		0.97108	-75.0023
13503250000		0.97093	-75.1287
13528237500		0.96975	-75.278
13553225000		0.97	-75.4554
13578212500		0.97073	-75.5621
13603200000		0.96994	-75.6543
13628187500		0.96922	-75.7697
13653175000		0.96945	-75.9126
13678162500		0.96953	-76.1916
13703150000		0.96959	-76.2588
13728137500		0.97085	-76.3847
13753125000		0.96976	-76.6107
13778112500		0.96832	-76.7918
13803100000		0.96936	-76.8966
13828087500		0.96956	-77.0192
13853075000		0.9694	-77.1768
13878062500		0.96859	-77.2837
13903050000		0.96858	-77.4266
13928037500		0.96894	-77.5987
13953025000		0.96897	-77.7098
13978012500		0.96884	-77.7635
14003000000		0.96885	-77.9496
14027987500		0.96874	-78.1223
14052975000		0.9682	-78.2402
14077962500		0.96896	-78.431
14102950000		0.96842	-78.5671
14127937500		0.96748	-78.7237
14152925000		0.96785	-78.8721
14177912500		0.96745	-79.0828
14202900000		0.96719	-79.1868
14227887500		0.96792	-79.3125
14252875000		0.96758	-79.4792
14277862500		0.96683	-79.606
14302850000		0.968	-79.7228
14327837500		0.96857	-79.8574
14352825000		0.96725	-79.9336
14377812500		0.96696	-80.0862
14402800000		0.96715	-80.2775
14427787500		0.96702	-80.4701
14452775000		0.96682	-80.5459
14477762500		0.96636	-80.6618
14502750000		0.96592	-80.8338
14527737500		0.96579	-81.0579
14552725000		0.96669	-81.185
14577712500		0.96686	-81.2973
14602700000		0.96628	-81.3879
14627687500		0.96622	-81.5704
14652675000		0.96612	-81.7539
14677662500		0.96605	-81.8916
14702650000		0.96689	-81.9468
14727637500		0.96604	-82.0981
14752625000		0.96524	-82.2122
14777612500		0.96552	-82.3761
14802600000		0.96633	-82.5398
14827587500		0.96605	-82.6718
14852575000		0.96507	-82.753
14877562500		0.96511	-82.9702
14902550000		0.96501	-83.2098
14927537500		0.96529	-83.3469
14952525000		0.96594	-83.4296
14977512500		0.96535	-83.5558
15002500000		0.96412	-83.7104
15027487500		0.96407	-83.8581
15052475000		0.96508	-84.0329
15077462500		0.96503	-84.1247
15102450000		0.9647	-84.1779
15127437500		0.9646	-84.364
15152425000		0.96423	-84.5731
15177412500		0.96407	-84.6501
15202400000		0.96519	-84.7901
15227387500		0.96474	-84.9022
15252375000		0.96388	-85.0718
15277362500		0.96391	-85.214
15302350000		0.96505	-85.4517
15327337500		0.96428	-85.5825
15352325000		0.96332	-85.6774
15377312500		0.96396	-85.8495
15402300000		0.96357	-86.084
15427287500		0.96337	-86.1614
15452275000		0.96446	-86.2691
15477262500		0.96437	-86.3682
15502250000		0.96339	-86.5138
15527237500		0.96373	-86.611
15552225000		0.96453	-86.8315
15577212500		0.9633	-86.9337
15602200000		0.9628	-87.0367
15627187500		0.96265	-87.1994
15652175000		0.96208	-87.4162
15677162500		0.96246	-87.5477
15702150000		0.96316	-87.7013
15727137500		0.96254	-87.8583
15752125000		0.96224	-88.0311
15777112500		0.96364	-88.1538
15802100000		0.96411	-88.3492
15827087500		0.96288	-88.3957
15852075000		0.9623	-88.4904
15877062500		0.96224	-88.6072
15902050000		0.96219	-88.789
15927037500		0.96223	-88.9143
15952025000		0.9616	-88.993
15977012500		0.9613	-89.1222
16002000000		0.96058	-89.2439
16026987500		0.96178	-89.451
16051975000		0.96146	-89.5597
16076962500		0.96111	-89.7436
16101950000		0.96168	-89.8801
16126937500		0.96139	-90.0926
16151925000		0.96066	-90.2517
16176912500		0.96065	-90.3364
16201900000		0.96123	-90.5037
16226887500		0.95951	-90.6314
16251875000		0.9597	-90.8007
16276862500		0.96097	-90.8614
16301850000		0.96155	-90.9841
16326837500		0.96091	-91.0873
16351825000		0.9605	-91.2313
16376812500		0.9607	-91.4314
16401800000		0.96087	-91.5434
16426787500		0.96127	-91.589
16451775000		0.96009	-91.7535
16476762500		0.95961	-91.9765
16501750000		0.95941	-92.124
16526737500		0.96024	-92.3235
16551725000		0.96	-92.4154
16576712500		0.95932	-92.5619
16601700000		0.95978	-92.7269
16626687500		0.95901	-92.9179
16651675000		0.95992	-92.9674
16676662500		0.96101	-93.0683
16701650000		0.96047	-93.2057
16726637500		0.95909	-93.2931
16751625000		0.95994	-93.4857
16776612500		0.95957	-93.6019
16801600000		0.95942	-93.7003
16826587500		0.95959	-93.8786
16851575000		0.9589	-94.0835
16876562500		0.95802	-94.2735
16901550000		0.95892	-94.3976
16926537500		0.95946	-94.5564
16951525000		0.95935	-94.7321
16976512500		0.95908	-94.82
17001500000		0.9601	-94.9736
17026487500		0.96004	-95.0962
17051475000		0.95919	-95.112
17076462500		0.95945	-95.1776
17101450000		0.95927	-95.3885
17126437500		0.95884	-95.6093
17151425000		0.95894	-95.6527
17176412500		0.95889	-95.7548
17201400000		0.95816	-95.969
17226387500		0.95755	-96.1575
17251375000		0.95868	-96.3704
17276362500		0.95906	-96.5239
17301350000		0.95856	-96.6215
17326337500		0.95752	-96.7148
17351325000		0.95729	-96.9638
17376312500		0.95789	-97.1404
