! Infineon Technologies  Discrete & RF Semiconductors
! BAT24-02LS
! IAC = 0.06 mA
! One-Port S-Parameters
# Hz  S  MA  R  50
!f									S11
!Hz							Mag  Ang
309850000		0.86124	-2.2323
334837500		0.86116	-2.4832
359825000		0.86072	-2.681
384812500		0.86511	-2.8199
409800000		0.86284	-3.0121
434787500		0.85799	-3.1808
459775000		0.86293	-3.363
484762500		0.86441	-3.5668
509750000		0.86032	-3.8208
534737500		0.8598	-4.0057
559725000		0.862	-4.1529
584712500		0.86048	-4.3818
609700000		0.85834	-4.5738
634687500		0.86296	-4.7578
659675000		0.86059	-4.9444
684662500		0.85819	-5.1274
709650000		0.86241	-5.3263
734637500		0.86222	-5.5326
759625000		0.86129	-5.7107
784612500		0.86359	-5.8588
809600000		0.86038	-6.0968
834587500		0.86144	-6.3286
859575000		0.86311	-6.5755
884562500		0.85928	-6.7351
909550000		0.86268	-6.9707
934537500		0.86136	-7.1708
959525000		0.8585	-7.3385
984512500		0.86414	-7.5407
1009500000		0.85967	-7.7335
1034487500		0.85718	-7.9197
1059475000		0.86332	-8.088
1084462500		0.85963	-8.2392
1109450000		0.85877	-8.4595
1134437500		0.86383	-8.5943
1159425000		0.86032	-8.7945
1184412500		0.85984	-9.0416
1209400000		0.86125	-9.2126
1234387500		0.86091	-9.4555
1259375000		0.8599	-9.6244
1284362500		0.85955	-9.8438
1309350000		0.86095	-10.0448
1334337500		0.861	-10.2241
1359325000		0.85982	-10.4391
1384312500		0.85847	-10.6157
1409300000		0.85964	-10.7662
1434287500		0.86042	-10.9984
1459275000		0.85733	-11.1303
1484262500		0.85882	-11.2825
1509250000		0.86202	-11.4272
1534237500		0.8583	-11.6511
1559225000		0.85959	-11.8518
1584212500		0.86196	-12.0909
1609200000		0.85945	-12.3046
1634187500		0.86064	-12.5001
1659175000		0.8588	-12.7369
1684162500		0.85906	-12.9628
1709150000		0.86445	-13.1142
1734137500		0.85596	-13.3524
1759125000		0.85538	-13.5575
1784112500		0.86309	-13.6329
1809100000		0.85607	-13.8435
1834087500		0.85531	-14.0232
1859075000		0.8617	-14.1301
1884062500		0.85645	-14.3616
1909050000		0.85558	-14.495
1934037500		0.85888	-14.6608
1959025000		0.85778	-14.9209
1984012500		0.85642	-15.1279
2009000000		0.85699	-15.3459
2033987500		0.85693	-15.4867
2058975000		0.85542	-15.7527
2083962500		0.85795	-15.946
2108950000		0.85978	-16.0996
2133937500		0.85531	-16.2854
2158925000		0.85569	-16.4916
2183912500		0.86052	-16.6351
2208900000		0.85882	-16.8182
2233887500		0.8561	-17.0419
2258875000		0.85787	-17.2266
2283862500		0.85908	-17.3358
2308850000		0.85555	-17.6282
2333837500		0.85575	-17.7908
2358825000		0.86195	-17.9354
2383812500		0.85627	-18.1969
2408800000		0.85091	-18.4728
2433787500		0.85989	-18.6546
2458775000		0.86183	-18.765
2483762500		0.85599	-19.0315
2508750000		0.85792	-19.1749
2533737500		0.85979	-19.3843
2558725000		0.85897	-19.5405
2583712500		0.86003	-19.7576
2608700000		0.86083	-19.8826
2633687500		0.86001	-20.0945
2658675000		0.85616	-20.3536
2683662500		0.85812	-20.5438
2708650000		0.8615	-20.6578
2733637500		0.85837	-20.8512
2758625000		0.85825	-21.0338
2783612500		0.85747	-21.2554
2808600000		0.85597	-21.4544
2833587500		0.85982	-21.644
2858575000		0.85982	-21.8055
2883562500		0.85628	-22.0072
2908550000		0.85732	-22.2726
2933537500		0.85917	-22.4888
2958525000		0.86087	-22.6012
2983512500		0.85793	-22.8319
3008500000		0.85541	-22.8428
3033487500		0.85956	-23.061
3058475000		0.85689	-23.2707
3083462500		0.85482	-23.5029
3108450000		0.85847	-23.6561
3133437500		0.85675	-23.8878
3158425000		0.85405	-24.1056
3183412500		0.85448	-24.2887
3208400000		0.85759	-24.4451
3233387500		0.85866	-24.614
3258375000		0.85585	-24.8702
3283362500		0.85572	-25.0762
3308350000		0.85766	-25.2225
3333337500		0.85795	-25.4017
3358325000		0.85652	-25.655
3383312500		0.85472	-25.8222
3408300000		0.85775	-25.9731
3433287500		0.8561	-26.1834
3458275000		0.85227	-26.4408
3483262500		0.85663	-26.5536
3508250000		0.85692	-26.7377
3533237500		0.85248	-26.9988
3558225000		0.85501	-27.161
3583212500		0.85445	-27.3426
3608200000		0.85475	-27.5515
3633187500		0.8579	-27.6653
3658175000		0.85481	-27.9519
3683162500		0.85473	-28.1402
3708150000		0.85661	-28.3085
3733137500		0.85444	-28.5069
3758125000		0.85533	-28.6971
3783112500		0.85404	-28.8726
3808100000		0.85437	-29.1107
3833087500		0.85561	-29.2534
3858075000		0.85111	-29.5108
3883062500		0.85225	-29.6615
3908050000		0.85734	-29.7942
3933037500		0.85206	-30.0719
3958025000		0.85004	-30.2789
3983012500		0.85612	-30.3763
4008000000		0.85621	-30.6297
4032987500		0.85123	-30.8885
4057975000		0.85322	-31.0394
4082962500		0.8571	-31.1332
4107950000		0.85212	-31.43
4132937500		0.85173	-31.6238
4157925000		0.85589	-31.7591
4182912500		0.8542	-31.9793
4207900000		0.85237	-32.2118
4232887500		0.85174	-32.4046
4257875000		0.85275	-32.5716
4282862500		0.85554	-32.7279
4307850000		0.85239	-32.9648
4332837500		0.85293	-33.1349
4357825000		0.85539	-33.2891
4382812500		0.85213	-33.5508
4407800000		0.85509	-33.6622
4432787500		0.8556	-33.8701
4457775000		0.85072	-34.0816
4482762500		0.8558	-34.214
4507750000		0.85444	-34.4563
4532737500		0.84911	-34.7536
4557725000		0.85499	-34.8169
4582712500		0.85468	-35.0044
4607700000		0.84893	-35.3231
4632687500		0.85019	-35.5004
4657675000		0.85437	-35.6192
4682662500		0.85506	-35.8162
4707650000		0.85124	-36.0359
4732637500		0.85062	-36.253
4757625000		0.85373	-36.3784
4782612500		0.85299	-36.5827
4807600000		0.85211	-36.7727
4832587500		0.8515	-36.9345
4857575000		0.85319	-37.1349
4882562500		0.85128	-37.3375
4907550000		0.84885	-37.5996
4932537500		0.85306	-37.6864
4957525000		0.85262	-37.8656
4982512500		0.84838	-38.1418
5007500000		0.84999	-38.3056
5032487500		0.8517	-38.4965
5057475000		0.85278	-38.6861
5082462500		0.85134	-38.8757
5107450000		0.84873	-39.1337
5132437500		0.85178	-39.2011
5157425000		0.85222	-39.4739
5182412500		0.85052	-39.6435
5207400000		0.85293	-39.7752
5232387500		0.85153	-40.0143
5257375000		0.85021	-40.2367
5282362500		0.85221	-40.3961
5307350000		0.85051	-40.5674
5332337500		0.85111	-40.7391
5357325000		0.85264	-40.9101
5382312500		0.84991	-41.1386
5407300000		0.85048	-41.3607
5432287500		0.85302	-41.5072
5457275000		0.85281	-41.6972
5482262500		0.85067	-41.9411
5507250000		0.84946	-42.1301
5532237500		0.85321	-42.2395
5557225000		0.85241	-42.4728
5582212500		0.84832	-42.7406
5607200000		0.8513	-42.8322
5632187500		0.85415	-42.9803
5657175000		0.84907	-43.2706
5682162500		0.84836	-43.4599
5707150000		0.85344	-43.5004
5732137500		0.85199	-43.7353
5757125000		0.84924	-44.0399
5782112500		0.85167	-44.1195
5807100000		0.85253	-44.3148
5832087500		0.85037	-44.5499
5857075000		0.85157	-44.7305
5882062500		0.85113	-44.9768
5907050000		0.84825	-45.169
5932037500		0.85049	-45.3497
5957025000		0.85141	-45.4807
5982012500		0.84935	-45.6748
6007000000		0.85047	-45.9129
6031987500		0.85113	-46.0104
6056975000		0.85249	-46.1862
6081962500		0.85136	-46.3919
6106950000		0.84983	-46.6136
6131937500		0.8536	-46.7987
6156925000		0.84973	-47.0165
6181912500		0.84799	-47.2752
6206900000		0.85367	-47.2954
6231887500		0.85184	-47.5537
6256875000		0.84907	-47.8999
6281862500		0.85116	-47.9642
6306850000		0.85148	-48.1644
6331837500		0.85001	-48.3736
6356825000		0.84891	-48.5199
6381812500		0.85006	-48.712
6406800000		0.85093	-48.8586
6431787500		0.85048	-49.0902
6456775000		0.85151	-49.2033
6481762500		0.85147	-49.4093
6506750000		0.85125	-49.6422
6531737500		0.85235	-49.7979
6556725000		0.84977	-50.0042
6581712500		0.84859	-50.2757
6606700000		0.85069	-50.4086
6631687500		0.84968	-50.6407
6656675000		0.84915	-50.87
6681662500		0.84812	-51.0399
6706650000		0.84764	-51.2283
6731637500		0.84805	-51.355
6756625000		0.84739	-51.5707
6781612500		0.84917	-51.7274
6806600000		0.85128	-51.8376
6831587500		0.84876	-52.1194
6856575000		0.84912	-52.287
6881562500		0.85031	-52.4351
6906550000		0.8516	-52.6408
6931537500		0.84962	-52.8162
6956525000		0.84691	-53.0967
6981512500		0.84878	-53.2533
7006500000		0.84962	-53.477
7031487500		0.84816	-53.6892
7056475000		0.84789	-53.8595
7081462500		0.84684	-54.0778
7106450000		0.8482	-54.2112
7131437500		0.84958	-54.3466
7156425000		0.84827	-54.5745
7181412500		0.85036	-54.662
7206400000		0.84989	-54.8921
7231387500		0.84662	-55.1298
7256375000		0.8496	-55.2371
7281362500		0.85055	-55.4066
7306350000		0.84905	-55.6509
7331337500		0.84896	-55.844
7356325000		0.84571	-56.1621
7381312500		0.84632	-56.3613
7406300000		0.84823	-56.468
7431287500		0.84529	-56.769
7456275000		0.84537	-56.9328
7481262500		0.84812	-57.0339
7506250000		0.84815	-57.2154
7531237500		0.8474	-57.3825
7556225000		0.84809	-57.5354
7581212500		0.84902	-57.6859
7606200000		0.84897	-57.8895
7631187500		0.84842	-58.0869
7656175000		0.84791	-58.2664
7681162500		0.84849	-58.5199
7706150000		0.84782	-58.7242
7731137500		0.84491	-59.0321
7756125000		0.84559	-59.2063
7781112500		0.84847	-59.3049
7806100000		0.84683	-59.5388
7831087500		0.84657	-59.7027
7856075000		0.84809	-59.894
7881062500		0.84582	-60.1152
7906050000		0.84813	-60.1654
7931037500		0.84982	-60.2791
7956025000		0.8477	-60.5211
7981012500		0.84992	-60.6555
8006000000		0.8478	-60.9247
8030987500		0.84597	-61.1732
8055975000		0.84995	-61.2464
8080962500		0.84764	-61.5065
8105950000		0.84629	-61.8029
8130937500		0.8467	-61.9875
8155925000		0.84616	-62.178
8180912500		0.84849	-62.2344
8205900000		0.8479	-62.4718
8230887500		0.84515	-62.7599
8255875000		0.84738	-62.867
8280862500		0.84855	-62.9909
8305850000		0.84688	-63.1648
8330837500		0.84669	-63.3303
8355825000		0.84754	-63.5144
8380812500		0.84648	-63.7495
8405800000		0.84495	-63.9758
8430787500		0.8453	-64.1345
8455775000		0.84617	-64.3619
8480762500		0.84496	-64.5715
8505750000		0.84486	-64.8044
8530737500		0.84492	-64.996
8555725000		0.84595	-65.1195
8580712500		0.84684	-65.2468
8605700000		0.84549	-65.5008
8630687500		0.84664	-65.6687
8655675000		0.84571	-65.8649
8680662500		0.84418	-66.0297
8705650000		0.84694	-66.1216
8730637500		0.8455	-66.3093
8755625000		0.84451	-66.5542
8780612500		0.84478	-66.7055
8805600000		0.84186	-67.0281
8830587500		0.8455	-67.0845
8855575000		0.84755	-67.2441
8880562500		0.84243	-67.6232
8905550000		0.84317	-67.7698
8930537500		0.84674	-67.859
8955525000		0.84678	-68.0087
8980512500		0.84605	-68.2027
9005500000		0.84563	-68.3995
9030487500		0.84613	-68.5411
9055475000		0.84292	-68.8516
9080462500		0.84204	-69.0155
9105450000		0.84629	-69.0285
9130437500		0.84414	-69.2875
9155425000		0.8394	-69.5914
9180412500		0.84169	-69.7636
9205400000		0.84317	-69.9192
9230387500		0.84232	-70.177
9255375000		0.84433	-70.2818
9280362500		0.84422	-70.4583
9305350000		0.84091	-70.77
9330337500		0.8425	-70.9014
9355325000		0.84663	-70.9096
9380312500		0.84293	-71.2449
9405300000		0.84009	-71.473
9430287500		0.84285	-71.6094
9455275000		0.83986	-71.8773
9480262500		0.83861	-72.0897
9505250000		0.84291	-72.0915
9530237500		0.84134	-72.2892
9555225000		0.83699	-72.6444
9580212500		0.83833	-72.8161
9605200000		0.84463	-72.8036
9630187500		0.84272	-73.0429
9655175000		0.83707	-73.4273
9680162500		0.84085	-73.4581
9705150000		0.84453	-73.5576
9730137500		0.83862	-73.9588
9755125000		0.84213	-73.9908
9780112500		0.84431	-74.1038
9805100000		0.83652	-74.545
9830087500		0.83773	-74.7248
9855075000		0.84259	-74.7031
9880062500		0.84019	-74.9158
9905050000		0.8399	-75.1108
9930037500		0.84046	-75.2504
9955025000		0.8396	-75.5224
9980012500		0.84068	-75.6732
10005000000		0.84414	-75.7308
10029987500		0.84383	-75.9183
10054975000		0.8384	-76.277
10079962500		0.83892	-76.4878
10104950000		0.84281	-76.5197
10129937500		0.83878	-76.8068
10154925000		0.83725	-77.057
10179912500		0.84048	-77.1285
10204900000		0.83757	-77.4389
10229887500		0.83305	-77.7527
10254875000		0.83676	-77.7201
10279862500		0.84284	-77.6873
10304850000		0.83515	-78.1756
10329837500		0.83349	-78.4668
10354825000		0.84068	-78.3687
10379812500		0.84065	-78.5212
10404800000		0.83846	-78.7938
10429787500		0.8407	-78.8971
10454775000		0.83812	-79.2327
10479762500		0.83807	-79.4201
10504750000		0.84044	-79.4528
10529737500		0.83851	-79.6884
10554725000		0.83611	-79.9674
10579712500		0.83544	-80.2409
10604700000		0.83704	-80.3272
10629687500		0.83841	-80.4038
10654675000		0.83621	-80.65
10679662500		0.83622	-80.8157
10704650000		0.83731	-81.0352
10729637500		0.8358	-81.2175
10754625000		0.83946	-81.2364
10779612500		0.84058	-81.3656
10804600000		0.83706	-81.6959
10829587500		0.83718	-81.9335
10854575000		0.83782	-82.1452
10879562500		0.83684	-82.3342
10904550000		0.83754	-82.4244
10929537500		0.83781	-82.5853
10954525000		0.83638	-82.8979
10979512500		0.83613	-83.1151
11004500000		0.8375	-83.1563
11029487500		0.83733	-83.3028
11054475000		0.83764	-83.4524
11079462500		0.83783	-83.6519
11104450000		0.83486	-83.99
11129437500		0.83459	-84.1571
11154425000		0.83821	-84.1683
11179412500		0.83621	-84.4565
11204400000		0.83469	-84.7254
11229387500		0.83647	-84.8699
11254375000		0.83731	-84.9876
11279362500		0.8352	-85.1984
11304350000		0.83633	-85.3388
11329337500		0.83801	-85.4215
11354325000		0.8353	-85.7746
11379312500		0.83416	-85.9898
11404300000		0.83897	-85.924
11429287500		0.83791	-86.1738
11454275000		0.83377	-86.536
11479262500		0.83726	-86.5649
11504250000		0.83756	-86.7313
11529237500		0.83333	-87.1188
11554225000		0.83649	-87.1894
11579212500		0.83778	-87.2365
11604200000		0.83317	-87.624
11629187500		0.83336	-87.8563
11654175000		0.83785	-87.8086
11679162500		0.8379	-87.9831
11704150000		0.83429	-88.2989
11729137500		0.8367	-88.3413
11754125000		0.8388	-88.4564
11779112500		0.83291	-88.8671
11804100000		0.83514	-88.9797
11829087500		0.84036	-88.9004
11854075000		0.83423	-89.376
11879062500		0.83228	-89.608
11904050000		0.83664	-89.6077
11929037500		0.83441	-89.937
11954025000		0.83204	-90.192
11979012500		0.83695	-90.0606
12004000000		0.83671	-90.3059
12028987500		0.83112	-90.722
12053975000		0.8346	-90.7541
12078962500		0.84034	-90.6629
12103950000		0.83544	-91.0265
12128937500		0.83452	-91.2396
12153925000		0.83787	-91.2724
12178912500		0.83464	-91.5891
12203900000		0.83222	-91.893
12228887500		0.83506	-91.9139
12253875000		0.83563	-92.0375
12278862500		0.83022	-92.5016
12303850000		0.82994	-92.6636
12328837500		0.83784	-92.5518
12353825000		0.83505	-92.7978
12378812500		0.83118	-93.0877
12403800000		0.83699	-93.0562
12428787500		0.83651	-93.338
12453775000		0.83444	-93.5654
12478762500		0.83996	-93.4073
12503750000		0.83675	-93.7732
12528737500		0.83202	-94.1439
12553725000		0.83537	-94.112
12578712500		0.8378	-94.26
12603700000		0.83461	-94.5318
12628687500		0.83217	-94.813
12653675000		0.83149	-95.0332
12678662500		0.83087	-95.35
12703650000		0.83176	-95.4365
12728637500		0.835	-95.3523
12753625000		0.83786	-95.4459
12778612500		0.83489	-95.7609
12803600000		0.836	-95.9033
12828587500		0.84007	-95.8342
12853575000		0.8385	-96.0321
12878562500		0.83586	-96.2846
12903550000		0.83776	-96.4006
12928537500		0.83638	-96.6872
12953525000		0.83347	-96.9991
12978512500		0.83494	-97.0822
13003500000		0.83406	-97.3529
13028487500		0.8328	-97.6191
13053475000		0.83454	-97.667
13078462500		0.83402	-97.9519
13103450000		0.83422	-98.0894
13128437500		0.83922	-97.9506
13153425000		0.83561	-98.331
13178412500		0.83492	-98.5532
13203400000		0.84122	-98.3715
13228387500		0.83909	-98.6092
13253375000		0.83605	-98.9201
13278362500		0.83762	-99.0714
13303350000		0.83566	-99.3637
13328337500		0.8345	-99.5667
13353325000		0.83524	-99.7329
13378312500		0.83457	-99.8727
13403300000		0.83497	-100.0802
13428287500		0.83364	-100.3696
13453275000		0.83415	-100.4993
13478262500		0.83797	-100.4028
13503250000		0.8373	-100.6035
13528237500		0.83692	-100.8261
13553225000		0.83873	-100.9304
13578212500		0.83703	-101.1568
13603200000		0.83871	-101.1969
13628187500		0.84006	-101.2802
13653175000		0.83405	-101.824
13678162500		0.83217	-102.1413
13703150000		0.83597	-102.0671
13728137500		0.83236	-102.4357
13753125000		0.82829	-102.8097
13778112500		0.83318	-102.7821
13803100000		0.83557	-102.8641
13828087500		0.83239	-103.1817
13853075000		0.83532	-103.1591
13878062500		0.83734	-103.1829
13903050000		0.83605	-103.4506
13928037500		0.83764	-103.5671
13953025000		0.83903	-103.603
13978012500		0.83952	-103.743
14003000000		0.83611	-104.1203
14027987500		0.83391	-104.4169
14052975000		0.83621	-104.4981
14077962500		0.83448	-104.7832
14102950000		0.8321	-105.0167
14127937500		0.83433	-105.081
14152925000		0.83342	-105.3808
14177912500		0.83171	-105.6079
14202900000		0.83541	-105.5894
14227887500		0.83528	-105.7536
14252875000		0.83508	-105.915
14277862500		0.83901	-105.8968
14302850000		0.83989	-106.0245
14327837500		0.83726	-106.3032
14352825000		0.83678	-106.4217
14377812500		0.83788	-106.5668
14402800000		0.83637	-106.8829
14427787500		0.83506	-107.1255
14452775000		0.83644	-107.1417
14477762500		0.83572	-107.3307
14502750000		0.83378	-107.6516
14527737500		0.83427	-107.8724
14552725000		0.83747	-107.8897
14577712500		0.83823	-107.9562
14602700000		0.83619	-108.1983
14627687500		0.83693	-108.3702
14652675000		0.83875	-108.4539
14677662500		0.83795	-108.6329
14702650000		0.83796	-108.7213
14727637500		0.83724	-108.9296
14752625000		0.83624	-109.1708
14777612500		0.83622	-109.3838
14802600000		0.83562	-109.6086
14827587500		0.83637	-109.6693
14852575000		0.83701	-109.7579
14877562500		0.83411	-110.2127
14902550000		0.83459	-110.4143
14927537500		0.83787	-110.4006
14952525000		0.83684	-110.5378
14977512500		0.83664	-110.6827
15002500000		0.83675	-110.8512
15027487500		0.83516	-111.1648
15052475000		0.83623	-111.321
15077462500		0.8369	-111.3139
15102450000		0.83656	-111.4671
15127437500		0.83485	-111.794
15152425000		0.83381	-112.0249
15177412500		0.83524	-112.0807
15202400000		0.83527	-112.2441
15227387500		0.83402	-112.4118
15252375000		0.83602	-112.5324
15277362500		0.835	-112.8187
15302350000		0.83429	-113.0933
15327337500		0.8365	-113.0498
15352325000		0.83609	-113.1933
15377312500		0.83265	-113.6574
15402300000		0.83296	-113.8131
15427287500		0.83615	-113.7827
15452275000		0.83461	-114.0235
15477262500		0.83276	-114.1377
15502250000		0.83485	-114.2361
15527237500		0.83314	-114.4916
15552225000		0.83205	-114.7975
15577212500		0.83466	-114.7063
15602200000		0.83602	-114.8337
15627187500		0.8332	-115.1828
15652175000		0.83226	-115.4746
15677162500		0.83399	-115.5186
15702150000		0.83502	-115.6562
15727137500		0.83294	-115.9147
15752125000		0.83359	-116.0931
15777112500		0.83516	-116.258
15802100000		0.83131	-116.556
15827087500		0.83116	-116.623
15852075000		0.83305	-116.6155
15877062500		0.8309	-116.8536
15902050000		0.83175	-117.0819
15927037500		0.83358	-117.0512
15952025000		0.83228	-117.2694
15977012500		0.83269	-117.345
16002000000		0.83474	-117.4615
16026987500		0.83433	-117.7785
16051975000		0.83242	-117.9814
16076962500		0.83314	-118.1101
16101950000		0.83423	-118.3035
16126937500		0.83171	-118.5919
16151925000		0.83081	-118.792
16176912500		0.83166	-118.8414
16201900000		0.83137	-119.0883
16226887500		0.82896	-119.3201
16251875000		0.83015	-119.4319
16276862500		0.83334	-119.4188
16301850000		0.83277	-119.54
16326837500		0.83142	-119.7932
16351825000		0.83286	-119.8199
16376812500		0.83425	-120.0006
16401800000		0.83321	-120.1868
16426787500		0.83338	-120.302
16451775000		0.83129	-120.5394
16476762500		0.83026	-120.867
16501750000		0.83168	-120.9969
16526737500		0.83172	-121.2394
16551725000		0.83033	-121.4171
16576712500		0.82932	-121.5397
16601700000		0.82986	-121.7908
16626687500		0.8308	-121.8813
16651675000		0.83276	-121.9254
16676662500		0.83216	-122.0511
16701650000		0.83178	-122.1639
16726637500		0.83134	-122.3133
16751625000		0.83181	-122.5515
16776612500		0.83288	-122.612
16801600000		0.83364	-122.7432
16826587500		0.83109	-123.1149
16851575000		0.82971	-123.4554
16876562500		0.83152	-123.4982
16901550000		0.83282	-123.6221
16926537500		0.83072	-123.8922
16951525000		0.83153	-123.9823
16976512500		0.83409	-124.0637
17001500000		0.83352	-124.3086
17026487500		0.83306	-124.3281
17051475000		0.83529	-124.2428
17076462500		0.83459	-124.4605
17101450000		0.8324	-124.8359
17126437500		0.83311	-124.8993
17151425000		0.83598	-124.9106
17176412500		0.83391	-125.1274
