! Infineon Technologies  Discrete & RF Semiconductors
! BAT24-02LS
! IAC = 0.5 mA
! One-Port S-Parameters
# Hz  S  MA  R  50
!f									S11
!Hz							Mag  Ang
309850000		0.19161	-2.1189
334837500		0.1913	-3.4243
359825000		0.19226	-3.2801
384812500		0.19379	-3.4835
409800000		0.19124	-3.7154
434787500		0.18947	-4.2907
459775000		0.19357	-4.3724
484762500		0.19228	-4.3748
509750000		0.18693	-5.622
534737500		0.18768	-5.8065
559725000		0.18886	-5.332
584712500		0.18804	-6.2124
609700000		0.18786	-6.2997
634687500		0.18858	-6.7827
659675000		0.19031	-6.9875
684662500		0.1898	-7.5101
709650000		0.19374	-7.6734
734637500		0.19234	-8.1634
759625000		0.19401	-8.7113
784612500		0.1947	-8.5036
809600000		0.19143	-9.2816
834587500		0.19006	-9.8513
859575000		0.19286	-10.9437
884562500		0.18977	-10.0629
909550000		0.19073	-11.2827
934537500		0.19347	-11.688
959525000		0.19064	-11.3827
984512500		0.19354	-12.1666
1009500000		0.19068	-12.4382
1034487500		0.18838	-12.5703
1059475000		0.19397	-13.327
1084462500		0.19176	-12.7574
1109450000		0.19159	-13.7621
1134437500		0.19508	-13.711
1159425000		0.19026	-14.3849
1184412500		0.19257	-14.9533
1209400000		0.18836	-14.4149
1234387500		0.19107	-15.7635
1259375000		0.19046	-15.3858
1284362500		0.19098	-15.7658
1309350000		0.19355	-16.1731
1334337500		0.19172	-16.4652
1359325000		0.19317	-17.0103
1384312500		0.19144	-17.1726
1409300000		0.19073	-17.0845
1434287500		0.19175	-18.0223
1459275000		0.18986	-17.8115
1484262500		0.19206	-18.3546
1509250000		0.19175	-18.1194
1534237500		0.18862	-19.1424
1559225000		0.18959	-19.1936
1584212500		0.18872	-19.5123
1609200000		0.18968	-19.5332
1634187500		0.18968	-20.0783
1659175000		0.19053	-20.2148
1684162500		0.19089	-20.7625
1709150000		0.19576	-20.8092
1734137500		0.18837	-21.069
1759125000		0.18942	-21.9889
1784112500		0.19317	-21.4692
1809100000		0.18921	-21.6583
1834087500		0.18856	-22.3687
1859075000		0.19278	-22.4611
1884062500		0.18965	-22.969
1909050000		0.18867	-23.0871
1934037500		0.18729	-23.5562
1959025000		0.189	-24.1992
1984012500		0.18615	-23.7446
2009000000		0.18862	-25.0034
2033987500		0.18932	-24.4089
2058975000		0.18717	-25.5262
2083962500		0.19128	-25.5561
2108950000		0.19114	-25.8133
2133937500		0.18998	-25.807
2158925000		0.19014	-26.322
2183912500		0.19383	-26.4675
2208900000		0.19371	-26.512
2233887500		0.19001	-26.8938
2258875000		0.19155	-27.9895
2283862500		0.19383	-27.4674
2308850000		0.18885	-28.1776
2333837500		0.19162	-28.1412
2358825000		0.19265	-28.5685
2383812500		0.19168	-29.0191
2408800000		0.18872	-29.8525
2433787500		0.1958	-29.8376
2458775000		0.19653	-29.518
2483762500		0.19506	-30.5614
2508750000		0.19677	-30.0526
2533737500		0.19939	-30.5564
2558725000		0.19828	-30.6761
2583712500		0.19992	-31.3052
2608700000		0.20074	-31.4393
2633687500		0.19867	-31.6261
2658675000		0.19647	-32.2707
2683662500		0.19926	-32.5491
2708650000		0.20112	-32.165
2733637500		0.20025	-33.0213
2758625000		0.19946	-32.9819
2783612500		0.19966	-34.114
2808600000		0.19961	-33.7622
2833587500		0.19966	-34.3114
2858575000		0.20231	-34.2445
2883562500		0.19875	-34.7314
2908550000		0.20083	-35.2978
2933537500		0.20262	-35.4747
2958525000		0.20124	-35.6866
2983512500		0.20033	-36.3085
3008500000		0.19735	-35.3172
3033487500		0.20054	-35.5718
3058475000		0.19856	-35.7378
3083462500		0.19725	-36.7698
3108450000		0.20159	-36.5642
3133437500		0.19844	-37.1813
3158425000		0.19819	-37.6672
3183412500		0.19882	-37.7163
3208400000		0.20143	-37.8457
3233387500		0.20253	-37.9364
3258375000		0.20166	-38.4407
3283362500		0.20171	-39.3045
3308350000		0.204	-39.4556
3333337500		0.20328	-39.8577
3358325000		0.20163	-40.0437
3383312500		0.20037	-40.3541
3408300000		0.20329	-40.644
3433287500		0.20128	-40.8477
3458275000		0.20121	-41.5896
3483262500		0.2023	-41.6191
3508250000		0.2027	-42.0828
3533237500		0.1994	-42.6185
3558225000		0.20113	-42.3391
3583212500		0.20068	-42.6156
3608200000		0.20232	-43.1977
3633187500		0.20534	-42.9277
3658175000		0.20369	-43.7725
3683162500		0.20253	-44.139
3708150000		0.20512	-44.5064
3733137500		0.20246	-44.3894
3758125000		0.20364	-44.7572
3783112500		0.20337	-44.8878
3808100000		0.20498	-45.4907
3833087500		0.20522	-45.6884
3858075000		0.20299	-46.6118
3883062500		0.20254	-46.3776
3908050000		0.20525	-46.5731
3933037500		0.20278	-47.2326
3958025000		0.20266	-47.173
3983012500		0.20568	-47.2467
4008000000		0.20504	-48.1759
4032987500		0.20445	-48.417
4057975000		0.20478	-48.6904
4082962500		0.20603	-48.4862
4107950000		0.20478	-49.445
4132937500		0.20577	-49.2421
4157925000		0.20877	-49.4663
4182912500		0.209	-49.8686
4207900000		0.2077	-50.2826
4232887500		0.20883	-50.5235
4257875000		0.20897	-50.8777
4282862500		0.21093	-50.632
4307850000		0.2096	-51.2038
4332837500		0.21046	-51.6565
4357825000		0.21281	-51.5211
4382812500		0.21101	-52.2349
4407800000		0.21087	-52.1654
4432787500		0.21357	-52.7542
4457775000		0.20979	-52.7063
4482762500		0.2143	-52.9236
4507750000		0.21323	-53.4915
4532737500		0.21037	-54.4613
4557725000		0.21568	-53.9028
4582712500		0.2118	-54.56
4607700000		0.21034	-55.1612
4632687500		0.21242	-55.1743
4657675000		0.21337	-55.4502
4682662500		0.21665	-55.6004
4707650000		0.21217	-56.1299
4732637500		0.21189	-56.8443
4757625000		0.21469	-56.4796
4782612500		0.21125	-57.2041
4807600000		0.21507	-56.8188
4832587500		0.21217	-57.4364
4857575000		0.2165	-57.9551
4882562500		0.21501	-57.6906
4907550000		0.21228	-59.048
4932537500		0.21644	-58.4913
4957525000		0.21486	-58.7113
4982512500		0.21274	-59.3139
5007500000		0.21646	-59.0553
5032487500		0.21587	-59.9761
5057475000		0.21842	-60.0481
5082462500		0.21515	-60.4468
5107450000		0.21493	-61.5223
5132437500		0.21609	-60.2534
5157425000		0.21635	-61.7431
5182412500		0.21878	-60.8179
5207400000		0.22014	-61.1348
5232387500		0.2197	-62.0445
5257375000		0.22098	-62.0495
5282362500		0.22114	-62.606
5307350000		0.2197	-62.5345
5332337500		0.22015	-62.7837
5357325000		0.22142	-63.0646
5382312500		0.22113	-62.9983
5407300000		0.2218	-63.7861
5432287500		0.2232	-63.9879
5457275000		0.22327	-64.1362
5482262500		0.22183	-64.836
5507250000		0.22165	-64.8875
5532237500		0.22388	-64.7437
5557225000		0.22243	-65.4553
5582212500		0.22398	-65.4346
5607200000		0.2246	-65.7213
5632187500		0.22622	-66.0079
5657175000		0.22378	-66.3122
5682162500		0.22313	-67.0893
5707150000		0.22664	-66.4232
5732137500		0.2235	-67.1478
5757125000		0.22526	-67.8649
5782112500		0.22679	-67.0876
5807100000		0.22579	-68.1635
5832087500		0.22672	-67.968
5857075000		0.22523	-68.6152
5882062500		0.22784	-69.2208
5907050000		0.22551	-68.8653
5932037500		0.22705	-69.7803
5957025000		0.22916	-69.2999
5982012500		0.22643	-69.5951
6007000000		0.23004	-70.2698
6031987500		0.2298	-69.3212
6056975000		0.23104	-70.4314
6081962500		0.23159	-70.4362
6106950000		0.22874	-70.9713
6131937500		0.23267	-71.4741
6156925000		0.22712	-71.3149
6181912500		0.23023	-72.2217
6206900000		0.23323	-71.3921
6231887500		0.23093	-71.8035
6256875000		0.23491	-72.8922
6281862500		0.23551	-72.2976
6306850000		0.23539	-72.9227
6331837500		0.23429	-73.1305
6356825000		0.23295	-73.1291
6381812500		0.23583	-73.5087
6406800000		0.23491	-73.2346
6431787500		0.2377	-73.9341
6456775000		0.23833	-73.9086
6481762500		0.23693	-74.4935
6506750000		0.23757	-74.9396
6531737500		0.23687	-75.1254
6556725000		0.23436	-74.9715
6581712500		0.23587	-76.0092
6606700000		0.23902	-75.4373
6631687500		0.23809	-76.0886
6656675000		0.23937	-76.6781
6681662500		0.23814	-76.7525
6706650000		0.23838	-77.0517
6731637500		0.23676	-76.8733
6756625000		0.23828	-77.2158
6781612500		0.24075	-77.2394
6806600000		0.24188	-76.9669
6831587500		0.24145	-78.2774
6856575000		0.24316	-78.0056
6881562500		0.24007	-78.552
6906550000		0.24241	-78.9546
6931537500		0.24056	-78.6107
6956525000		0.2413	-79.3005
6981512500		0.24404	-79.1163
7006500000		0.24539	-79.7817
7031487500		0.24581	-79.7927
7056475000		0.24433	-80.1894
7081462500		0.24511	-80.5594
7106450000		0.24728	-80.1388
7131437500		0.24683	-80.2339
7156425000		0.24855	-80.6739
7181412500		0.24799	-80.7123
7206400000		0.24702	-81.591
7231387500		0.24588	-81.7815
7256375000		0.24695	-82.1445
7281362500		0.2475	-81.9506
7306350000		0.24808	-82.3704
7331337500		0.24903	-82.5086
7356325000		0.24769	-83.0707
7381312500		0.24929	-83.3478
7406300000		0.24878	-83.6451
7431287500		0.24968	-84.0346
7456275000		0.24999	-83.8736
7481262500		0.2529	-83.9047
7506250000		0.25374	-84.1043
7531237500		0.2521	-84.2449
7556225000		0.25327	-84.5182
7581212500		0.25253	-84.7891
7606200000		0.2541	-84.9348
7631187500		0.2556	-85.0507
7656175000		0.25346	-85.4304
7681162500		0.25642	-85.8959
7706150000		0.25373	-86.3046
7731137500		0.2541	-86.9661
7756125000		0.25714	-86.516
7781112500		0.25722	-86.5452
7806100000		0.25954	-86.7099
7831087500		0.25895	-87.0647
7856075000		0.26073	-87.2954
7881062500		0.25985	-87.5026
7906050000		0.26053	-87.7427
7931037500		0.26171	-87.5622
7956025000		0.25998	-87.8985
7981012500		0.26106	-88.213
8006000000		0.26128	-88.481
8030987500		0.26059	-88.9271
8055975000		0.26357	-88.9321
8080962500		0.26167	-89.597
8105950000		0.26328	-89.9122
8130937500		0.26312	-89.7877
8155925000		0.2645	-90.0374
8180912500		0.26492	-89.7088
8205900000		0.26517	-90.3459
8230887500		0.26573	-90.8428
8255875000		0.26717	-90.749
8280862500		0.26666	-91.0625
8305850000		0.26487	-91.3237
8330837500		0.26528	-91.5113
8355825000		0.26554	-91.6597
8380812500		0.26503	-92.0291
8405800000		0.26647	-92.3068
8430787500		0.26497	-92.6931
8455775000		0.26703	-93.0546
8480762500		0.26608	-93.2466
8505750000		0.2673	-93.6669
8530737500		0.26897	-93.2408
8555725000		0.26915	-93.573
8580712500		0.27062	-93.4158
8605700000		0.27037	-94.0033
8630687500		0.27132	-94.2425
8655675000		0.27203	-94.3512
8680662500		0.27015	-94.6878
8705650000		0.27201	-94.6881
8730637500		0.26986	-94.8392
8755625000		0.271	-95.4638
8780612500		0.2716	-94.8917
8805600000		0.27159	-95.9641
8830587500		0.2747	-95.389
8855575000		0.27438	-96.1021
8880562500		0.27306	-96.7617
8905550000		0.27436	-96.4504
8930537500		0.27667	-96.6664
8955525000		0.27668	-96.4945
8980512500		0.27756	-96.5941
9005500000		0.27753	-97.1566
9030487500		0.27752	-97.0632
9055475000		0.27629	-98.1964
9080462500		0.27691	-97.8557
9105450000		0.27711	-98.138
9130437500		0.27612	-98.533
9155425000		0.27349	-98.7673
9180412500		0.27723	-99.0012
9205400000		0.27732	-99.0801
9230387500		0.27905	-99.4549
9255375000		0.28072	-99.5427
9280362500		0.27974	-99.8831
9305350000		0.27913	-100.2092
9330337500		0.28123	-100.1329
9355325000		0.28124	-100.0289
9380312500		0.28172	-100.5923
9405300000		0.28085	-100.6866
9430287500		0.28419	-101.0365
9455275000		0.28148	-101.7252
9480262500		0.28168	-101.787
9505250000		0.28253	-101.6269
9530237500		0.28122	-101.9085
9555225000		0.28139	-102.2472
9580212500		0.28385	-102.2157
9605200000		0.28665	-102.3353
9630187500		0.2836	-103.0277
9655175000		0.28294	-103.5194
9680162500		0.28513	-103.3616
9705150000		0.2865	-103.4437
9730137500		0.28528	-103.7522
9755125000		0.28908	-103.3324
9780112500		0.2893	-103.9595
9805100000		0.2856	-104.5781
9830087500		0.28983	-104.5666
9855075000		0.29155	-104.3051
9880062500		0.2894	-104.5047
9905050000		0.29063	-104.6463
9930037500		0.29021	-104.7318
9955025000		0.29297	-105.0689
9980012500		0.29389	-105.0454
10005000000		0.29468	-105.3062
10029987500		0.2936	-105.8356
10054975000		0.29019	-106.5026
10079962500		0.29283	-106.6107
10104950000		0.29358	-106.4641
10129937500		0.29129	-107.0553
10154925000		0.29377	-107.164
10179912500		0.29508	-107.1509
10204900000		0.29341	-107.8685
10229887500		0.29246	-108.0427
10254875000		0.2946	-107.7331
10279862500		0.29707	-107.6488
10304850000		0.29284	-108.5799
10329837500		0.296	-108.6344
10354825000		0.29913	-108.23
10379812500		0.29692	-108.5952
10404800000		0.29816	-108.9054
10429787500		0.29838	-108.927
10454775000		0.29923	-109.5101
10479762500		0.30127	-109.3574
10504750000		0.30061	-109.4238
10529737500		0.30026	-109.9573
10554725000		0.29879	-110.2491
10579712500		0.30154	-110.4915
10604700000		0.30324	-110.1265
10629687500		0.30289	-110.2137
10654675000		0.30215	-110.8252
10679662500		0.30176	-110.9715
10704650000		0.30329	-111.4118
10729637500		0.30386	-111.2684
10754625000		0.30508	-110.9459
10779612500		0.30536	-111.3944
10804600000		0.30449	-111.6916
10829587500		0.3065	-112.1844
10854575000		0.30722	-112.3614
10879562500		0.3073	-112.3893
10904550000		0.30813	-112.495
10929537500		0.30844	-112.6125
10954525000		0.30864	-112.8338
10979512500		0.31113	-112.968
11004500000		0.31181	-112.6134
11029487500		0.31218	-113.0963
11054475000		0.31182	-113.2089
11079462500		0.31116	-113.7206
11104450000		0.31012	-114.3074
11129437500		0.31	-114.1447
11154425000		0.31083	-114.3904
11179412500		0.31026	-114.9729
11204400000		0.31207	-114.9327
11229387500		0.31422	-115.272
11254375000		0.3148	-114.9857
11279362500		0.31369	-115.5586
11304350000		0.31591	-115.3723
11329337500		0.31578	-115.3898
11354325000		0.31615	-115.9269
11379312500		0.31779	-115.6607
11404300000		0.31983	-115.708
11429287500		0.31829	-116.3227
11454275000		0.31771	-116.3801
11479262500		0.32032	-116.5995
11504250000		0.32008	-116.678
11529237500		0.31815	-117.2758
11554225000		0.32179	-117.2465
11579212500		0.31895	-117.4887
11604200000		0.3192	-118.2569
11629187500		0.32081	-117.817
11654175000		0.32372	-117.8461
11679162500		0.3241	-118.0687
11704150000		0.3233	-118.2621
11729137500		0.32529	-118.221
11754125000		0.32483	-118.6036
11779112500		0.32239	-118.9888
11804100000		0.3272	-118.8601
11829087500		0.32732	-118.5831
11854075000		0.3252	-119.588
11879062500		0.32619	-119.5515
11904050000		0.32709	-119.8429
11929037500		0.32595	-120.2858
11954025000		0.32657	-120.369
11979012500		0.32895	-119.8771
12004000000		0.32818	-120.5158
12028987500		0.32799	-120.7765
12053975000		0.33154	-120.6826
12078962500		0.33281	-120.6984
12103950000		0.3299	-121.1213
12128937500		0.33246	-121.0625
12153925000		0.33232	-121.1012
12178912500		0.33069	-121.6155
12203900000		0.33146	-121.9688
12228887500		0.33259	-121.7473
12253875000		0.33165	-122.4274
12278862500		0.33082	-122.873
12303850000		0.33263	-122.7631
12328837500		0.33714	-122.4781
12353825000		0.3323	-122.7149
12378812500		0.33497	-123.0617
12403800000		0.33802	-122.6603
12428787500		0.33795	-123.3127
12453775000		0.34045	-123.2748
12478762500		0.33886	-123.2238
12503750000		0.33639	-124.0544
12528737500		0.33674	-124.0722
12553725000		0.33961	-123.6735
12578712500		0.3429	-123.8777
12603700000		0.33925	-124.1526
12628687500		0.33952	-124.8567
12653675000		0.33852	-125.3139
12678662500		0.33831	-125.6763
12703650000		0.34114	-125.345
12728637500		0.34196	-124.9924
12753625000		0.34495	-124.9928
12778612500		0.34544	-125.1658
12803600000		0.34762	-125.1975
12828587500		0.3495	-125.2036
12853575000		0.34609	-125.5559
12878562500		0.34666	-125.7233
12903550000		0.34845	-125.7464
12928537500		0.34717	-126.1821
12953525000		0.34784	-126.417
12978512500		0.34854	-126.4835
13003500000		0.34792	-126.9091
13028487500		0.34929	-127.1424
13053475000		0.35128	-127.1714
13078462500		0.35115	-127.2723
13103450000		0.3518	-127.2663
13128437500		0.35232	-127.1907
13153425000		0.35124	-127.861
13178412500		0.35417	-127.4471
13203400000		0.3574	-127.2946
13228387500		0.35512	-127.8158
13253375000		0.3536	-128.0207
13278362500		0.35559	-128.4897
13303350000		0.35489	-128.7036
13328337500		0.3554	-128.8544
13353325000		0.35723	-128.7618
13378312500		0.35668	-128.9167
13403300000		0.35815	-129.3185
13428287500		0.35823	-129.4582
13453275000		0.35997	-129.405
13478262500		0.36248	-129.076
13503250000		0.35988	-129.3689
13528237500		0.36194	-129.7247
13553225000		0.3623	-129.6479
13578212500		0.36146	-130.0175
13603200000		0.36463	-129.7386
13628187500		0.36159	-130.3184
13653175000		0.35945	-131.251
13678162500		0.36042	-131.3421
13703150000		0.36079	-131.4644
13728137500		0.35782	-132.1256
13753125000		0.35736	-132.2572
13778112500		0.36412	-131.8848
13803100000		0.36456	-131.8017
13828087500		0.36529	-132.1203
13853075000		0.36797	-131.7254
13878062500		0.36733	-131.97
13903050000		0.36808	-132.2277
13928037500		0.37047	-131.9354
13953025000		0.37185	-131.9045
13978012500		0.3711	-132.2047
14003000000		0.36844	-132.9341
14027987500		0.36862	-133.3965
14052975000		0.36969	-133.4206
14077962500		0.36794	-133.897
14102950000		0.36844	-133.817
14127937500		0.37075	-133.8052
14152925000		0.37052	-134.2267
14177912500		0.37142	-134.3756
14202900000		0.3742	-134.1366
14227887500		0.3741	-134.3768
14252875000		0.37679	-134.2291
14277862500		0.37943	-133.9469
14302850000		0.37935	-134.2676
14327837500		0.37757	-134.3819
14352825000		0.37808	-134.6164
14377812500		0.37833	-134.9329
14402800000		0.37837	-135.2908
14427787500		0.37915	-135.4592
14452775000		0.38005	-135.2897
14477762500		0.37869	-135.6981
14502750000		0.37923	-136.0385
14527737500		0.38144	-136.068
14552725000		0.38496	-135.8709
14577712500		0.3846	-135.8503
14602700000		0.38379	-136.2516
14627687500		0.38597	-136.2273
14652675000		0.38679	-136.3067
14677662500		0.3875	-136.4722
14702650000		0.38659	-136.481
14727637500		0.38585	-136.8736
14752625000		0.38545	-137.314
14777612500		0.38564	-137.6346
14802600000		0.38666	-137.6971
14827587500		0.38717	-137.5396
14852575000		0.38668	-137.8943
14877562500		0.38644	-138.4591
14902550000		0.38857	-138.3948
14927537500		0.39185	-138.3036
14952525000		0.39019	-138.2897
14977512500		0.39119	-138.3849
15002500000		0.3916	-138.6044
15027487500		0.39137	-139.0792
15052475000		0.39389	-139.047
15077462500		0.39306	-139.0193
15102450000		0.39229	-139.3243
15127437500		0.39127	-139.7971
15152425000		0.39172	-139.9948
15177412500		0.39288	-139.9844
15202400000		0.39227	-140.1529
15227387500		0.39148	-140.3785
15252375000		0.39416	-140.4595
15277362500		0.39358	-140.8962
15302350000		0.3954	-140.8854
15327337500		0.39621	-140.7676
15352325000		0.39405	-141.2694
15377312500		0.39343	-141.7573
15402300000		0.39682	-141.6543
15427287500		0.39892	-141.4511
15452275000		0.39771	-141.7898
15477262500		0.3965	-141.8382
15502250000		0.3975	-142.0332
15527237500		0.39583	-142.5065
15552225000		0.39694	-142.5143
15577212500		0.39954	-142.0985
15602200000		0.39912	-142.5729
15627187500		0.39789	-143.0405
15652175000		0.39911	-143.3609
15677162500		0.40032	-143.3065
15702150000		0.40112	-143.4693
15727137500		0.40027	-143.5729
15752125000		0.40199	-143.7883
15777112500		0.40306	-143.9462
15802100000		0.40073	-144.3451
15827087500		0.40234	-144.092
15852075000		0.40213	-144.2366
15877062500		0.40138	-144.5878
15902050000		0.40356	-144.515
15927037500		0.40444	-144.4247
15952025000		0.40412	-144.6352
15977012500		0.40531	-144.6244
16002000000		0.40575	-144.9166
16026987500		0.40647	-145.2599
16051975000		0.40548	-145.4039
16076962500		0.40753	-145.4512
16101950000		0.40684	-145.6966
16126937500		0.40656	-146.211
16151925000		0.40761	-146.1087
16176912500		0.40837	-146.1333
16201900000		0.40807	-146.3938
16226887500		0.40782	-146.6441
16251875000		0.40941	-146.7016
16276862500		0.41205	-146.5538
16301850000		0.41054	-146.7142
16326837500		0.41089	-146.8875
16351825000		0.41209	-146.7673
16376812500		0.413	-147.184
16401800000		0.41273	-147.1841
16426787500		0.41229	-147.391
16451775000		0.41132	-147.7059
16476762500		0.4116	-148.0939
16501750000		0.41357	-148.2267
16526737500		0.41381	-148.4525
16551725000		0.41316	-148.5848
16576712500		0.41352	-148.717
16601700000		0.41472	-148.8485
16626687500		0.41718	-148.862
16651675000		0.41841	-148.7977
16676662500		0.41742	-148.9033
16701650000		0.41709	-148.9638
16726637500		0.41694	-149.1996
16751625000		0.41813	-149.3929
16776612500		0.41916	-149.3754
16801600000		0.4192	-149.5479
16826587500		0.41712	-150.1401
16851575000		0.41826	-150.4556
16876562500		0.42074	-150.3608
16901550000		0.42125	-150.5982
16926537500		0.42102	-150.7081
16951525000		0.4227	-150.5657
16976512500		0.42538	-150.571
17001500000		0.42564	-150.7621
17026487500		0.42671	-150.6141
