! Infineon Technologies  Discrete & RF Semiconductors
! BAT24-02LS
! IAC = 0.3 mA
! One-Port S-Parameters
# Hz  S  MA  R  50
!f									S11
!Hz							Mag  Ang
309850000		0.43435	-2.0152
334837500		0.43394	-2.7085
359825000		0.43422	-2.7052
384812500		0.43959	-2.8773
409800000		0.43563	-3.0975
434787500		0.43008	-3.4061
459775000		0.43757	-3.5257
484762500		0.43762	-3.6011
509750000		0.42978	-4.2634
534737500		0.43045	-4.4343
559725000		0.43314	-4.2439
584712500		0.43088	-4.7835
609700000		0.42919	-4.9205
634687500		0.43363	-5.2082
659675000		0.43315	-5.3816
684662500		0.43021	-5.6992
709650000		0.43683	-5.8201
734637500		0.43556	-6.169
759625000		0.43612	-6.5068
784612500		0.43859	-6.4693
809600000		0.43308	-6.9163
834587500		0.43287	-7.2524
859575000		0.43654	-7.8784
884562500		0.43078	-7.4618
909550000		0.43435	-8.1627
934537500		0.43565	-8.475
959525000		0.43078	-8.3786
984512500		0.4378	-8.8104
1009500000		0.43201	-9.0253
1034487500		0.42792	-9.1125
1059475000		0.43773	-9.5817
1084462500		0.43261	-9.3557
1109450000		0.43164	-9.9516
1134437500		0.43906	-10.0009
1159425000		0.43153	-10.3198
1184412500		0.43287	-10.7323
1209400000		0.4307	-10.487
1234387500		0.43268	-11.2486
1259375000		0.43153	-11.1641
1284362500		0.43157	-11.4358
1309350000		0.43477	-11.7036
1334337500		0.43307	-11.8921
1359325000		0.43316	-12.2745
1384312500		0.43107	-12.4325
1409300000		0.43148	-12.4001
1434287500		0.43295	-12.9425
1459275000		0.42902	-12.8839
1484262500		0.43181	-13.2704
1509250000		0.43411	-13.1682
1534237500		0.42823	-13.7362
1559225000		0.42989	-13.8521
1584212500		0.43095	-14.0658
1609200000		0.42992	-14.1978
1634187500		0.43064	-14.5284
1659175000		0.42981	-14.7179
1684162500		0.43028	-15.0204
1709150000		0.4391	-15.1684
1734137500		0.4259	-15.3355
1759125000		0.42635	-15.8649
1784112500		0.43649	-15.6835
1809100000		0.42744	-15.8277
1834087500		0.42625	-16.2132
1859075000		0.43499	-16.347
1884062500		0.42773	-16.6477
1909050000		0.42625	-16.7425
1934037500		0.42757	-16.9712
1959025000		0.4278	-17.4188
1984012500		0.42422	-17.2053
2009000000		0.42661	-17.958
2033987500		0.42732	-17.7489
2058975000		0.42371	-18.3378
2083962500		0.42954	-18.5018
2108950000		0.4309	-18.6651
2133937500		0.42614	-18.761
2158925000		0.42659	-19.0789
2183912500		0.4335	-19.2152
2208900000		0.43209	-19.3585
2233887500		0.42693	-19.5621
2258875000		0.42932	-20.1617
2283862500		0.43264	-20.0062
2308850000		0.42498	-20.3591
2333837500		0.42746	-20.4612
2358825000		0.43328	-20.707
2383812500		0.42819	-21.0039
2408800000		0.42056	-21.504
2433787500		0.43338	-21.6872
2458775000		0.43577	-21.5761
2483762500		0.42953	-22.2077
2508750000		0.43268	-21.9942
2533737500		0.43618	-22.4026
2558725000		0.43478	-22.5133
2583712500		0.43671	-22.9313
2608700000		0.4384	-23.0705
2633687500		0.43613	-23.17
2658675000		0.43073	-23.5382
2683662500		0.43463	-23.8407
2708650000		0.43923	-23.7038
2733637500		0.43537	-24.1738
2758625000		0.43481	-24.1991
2783612500		0.43417	-24.8795
2808600000		0.43304	-24.8078
2833587500		0.43569	-25.0635
2858575000		0.43816	-25.1772
2883562500		0.43241	-25.4862
2908550000		0.43465	-25.8972
2933537500		0.43753	-26.0854
2958525000		0.43779	-26.1646
2983512500		0.43447	-26.5705
3008500000		0.43078	-26.1235
3033487500		0.43673	-26.3438
3058475000		0.43301	-26.4627
3083462500		0.4296	-27.0559
3108450000		0.43647	-27.1025
3133437500		0.43219	-27.4099
3158425000		0.42971	-27.735
3183412500		0.43058	-27.8648
3208400000		0.43495	-27.9852
3233387500		0.43686	-28.12
3258375000		0.43387	-28.4981
3283362500		0.43322	-28.9185
3308350000		0.43716	-29.1798
3333337500		0.43658	-29.431
3358325000		0.43379	-29.5626
3383312500		0.43146	-29.7538
3408300000		0.43648	-30.0037
3433287500		0.43331	-30.1365
3458275000		0.42957	-30.6464
3483262500		0.43415	-30.7034
3508250000		0.43459	-31.0008
3533237500		0.4279	-31.2991
3558225000		0.43175	-31.2524
3583212500		0.43081	-31.4266
3608200000		0.43216	-31.873
3633187500		0.43784	-31.8637
3658175000		0.43338	-32.3122
3683162500		0.4321	-32.564
3708150000		0.43579	-32.8996
3733137500		0.43213	-32.8237
3758125000		0.43359	-33.081
3783112500		0.43241	-33.2667
3808100000		0.43365	-33.6827
3833087500		0.43484	-33.7925
3858075000		0.42879	-34.3541
3883062500		0.42969	-34.2689
3908050000		0.43598	-34.4659
3933037500		0.42927	-34.8502
3958025000		0.42798	-34.9184
3983012500		0.43553	-35.0247
4008000000		0.4343	-35.5499
4032987500		0.4298	-35.8132
4057975000		0.43171	-35.9851
4082962500		0.43607	-35.9213
4107950000		0.43032	-36.5307
4132937500		0.4311	-36.5407
4157925000		0.43686	-36.7608
4182912500		0.43539	-37.0764
4207900000		0.43258	-37.3365
4232887500		0.43324	-37.5835
4257875000		0.43389	-37.8057
4282862500		0.43798	-37.7841
4307850000		0.43412	-38.148
4332837500		0.4351	-38.4653
4357825000		0.43927	-38.5205
4382812500		0.43479	-38.9328
4407800000		0.43714	-38.8527
4432787500		0.43947	-39.3792
4457775000		0.43258	-39.3472
4482762500		0.44042	-39.6239
4507750000		0.43799	-39.9239
4532737500		0.43081	-40.4952
4557725000		0.44043	-40.368
4582712500		0.43641	-40.5942
4607700000		0.43055	-41.0345
4632687500		0.43362	-41.1776
4657675000		0.43749	-41.3565
4682662500		0.4406	-41.652
4707650000		0.43368	-41.863
4732637500		0.43269	-42.2918
4757625000		0.43819	-42.2052
4782612500		0.43412	-42.5085
4807600000		0.43725	-42.5895
4832587500		0.43384	-42.8327
4857575000		0.43842	-43.3638
4882562500		0.43626	-43.2426
4907550000		0.43075	-43.8741
4932537500		0.43807	-43.7798
4957525000		0.43637	-43.9156
4982512500		0.43088	-44.2549
5007500000		0.43597	-44.3272
5032487500		0.43588	-44.8021
5057475000		0.43902	-45.07
5082462500		0.43492	-45.19
5107450000		0.4319	-45.8509
5132437500		0.43662	-45.209
5157425000		0.43554	-46.0575
5182412500		0.43758	-45.8378
5207400000		0.44022	-46.0754
5232387500		0.43792	-46.6245
5257375000		0.43808	-46.766
5282362500		0.4393	-47.0682
5307350000		0.43699	-47.0579
5332337500		0.43779	-47.2924
5357325000		0.43993	-47.4971
5382312500		0.43797	-47.5767
5407300000		0.4383	-48.0784
5432287500		0.44147	-48.2925
5457275000		0.44136	-48.4442
5482262500		0.43797	-48.8393
5507250000		0.43703	-48.9128
5532237500		0.44211	-48.9595
5557225000		0.43955	-49.3458
5582212500		0.43814	-49.5982
5607200000		0.44077	-49.736
5632187500		0.44371	-49.9554
5657175000		0.43764	-50.1889
5682162500		0.43626	-50.6538
5707150000		0.44426	-50.4211
5732137500		0.43968	-50.721
5757125000		0.43835	-51.3468
5782112500		0.44266	-51.0051
5807100000		0.44125	-51.5693
5832087500		0.44105	-51.6495
5857075000		0.44029	-51.9176
5882062500		0.44166	-52.48
5907050000		0.43785	-52.2851
5932037500		0.43973	-52.8638
5957025000		0.44324	-52.7754
5982012500		0.439	-52.8778
6007000000		0.44203	-53.4935
6031987500		0.44364	-52.9986
6056975000		0.44451	-53.6958
6081962500		0.44449	-53.8369
6106950000		0.44069	-54.0383
6131937500		0.4466	-54.5133
6156925000		0.43947	-54.2518
6181912500		0.4397	-55.0329
6206900000		0.44787	-54.6633
6231887500		0.4441	-54.8347
6256875000		0.44392	-55.7992
6281862500		0.44676	-55.5198
6306850000		0.44574	-55.9032
6331837500		0.44402	-56.0899
6356825000		0.4427	-56.0759
6381812500		0.44557	-56.4849
6406800000		0.4458	-56.3178
6431787500		0.4471	-56.9227
6456775000		0.44889	-56.9927
6481762500		0.44695	-57.2489
6506750000		0.44711	-57.5926
6531737500		0.44763	-57.7048
6556725000		0.44404	-57.5741
6581712500		0.44324	-58.3613
6606700000		0.44855	-58.213
6631687500		0.44603	-58.5964
6656675000		0.44596	-59.1044
6681662500		0.44429	-59.1567
6706650000		0.44389	-59.3798
6731637500		0.4435	-59.2184
6756625000		0.44406	-59.6147
6781612500		0.44741	-59.8002
6806600000		0.45066	-59.7115
6831587500		0.44682	-60.5303
6856575000		0.44922	-60.5376
6881562500		0.44686	-60.6189
6906550000		0.44956	-61.0582
6931537500		0.44753	-60.8532
6956525000		0.44522	-61.3896
6981512500		0.44917	-61.4521
7006500000		0.45009	-61.9468
7031487500		0.44947	-62.0938
7056475000		0.44762	-62.2958
7081462500		0.44706	-62.6058
7106450000		0.45063	-62.5216
7131437500		0.45131	-62.5612
7156425000		0.45145	-63.0559
7181412500		0.45281	-63.0353
7206400000		0.45078	-63.5254
7231387500		0.44768	-63.6987
7256375000		0.45042	-63.919
7281362500		0.45213	-63.9177
7306350000		0.45102	-64.281
7331337500		0.45187	-64.4482
7356325000		0.44777	-64.8374
7381312500		0.44948	-65.1288
7406300000		0.45029	-65.2511
7431287500		0.44829	-65.7347
7456275000		0.44868	-65.6652
7481262500		0.45315	-65.8204
7506250000		0.45354	-66.0669
7531237500		0.45186	-66.1521
7556225000		0.45343	-66.4179
7581212500		0.45334	-66.5395
7606200000		0.45451	-66.7495
7631187500		0.4554	-66.9965
7656175000		0.45301	-67.1592
7681162500		0.45569	-67.682
7706150000		0.45289	-67.7735
7731137500		0.45004	-68.2742
7756125000		0.45327	-68.2788
7781112500		0.45539	-68.2575
7806100000		0.45659	-68.6458
7831087500		0.45535	-68.813
7856075000		0.45753	-69.0933
7881062500		0.45496	-69.2904
7906050000		0.45709	-69.4483
7931037500		0.45996	-69.4507
7956025000		0.45686	-69.6082
7981012500		0.45923	-69.8295
8006000000		0.45768	-70.1616
8030987500		0.45527	-70.5127
8055975000		0.46135	-70.6306
8080962500		0.45733	-70.9781
8105950000		0.45687	-71.3311
8130937500		0.45723	-71.2933
8155925000		0.45765	-71.6083
8180912500		0.4607	-71.4268
8205900000		0.45994	-71.8862
8230887500		0.45766	-72.3476
8255875000		0.4606	-72.3662
8280862500		0.46077	-72.5685
8305850000		0.4582	-72.7057
8330837500		0.45861	-72.8961
8355825000		0.45945	-73.025
8380812500		0.45788	-73.2699
8405800000		0.45778	-73.6516
8430787500		0.45646	-73.8316
8455775000		0.45874	-74.1877
8480762500		0.45721	-74.284
8505750000		0.45712	-74.6567
8530737500		0.45919	-74.61
8555725000		0.45997	-74.829
8580712500		0.46266	-74.8675
8605700000		0.46046	-75.2587
8630687500		0.46174	-75.4761
8655675000		0.46185	-75.7156
8680662500		0.45862	-75.8477
8705650000		0.46252	-75.9481
8730637500		0.46015	-75.9833
8755625000		0.45937	-76.5056
8780612500		0.46147	-76.28
8805600000		0.45766	-77.0372
8830587500		0.46424	-76.836
8855575000		0.4646	-77.2133
8880562500		0.45893	-77.7369
8905550000		0.46113	-77.6821
8930537500		0.46517	-77.8513
8955525000		0.46586	-77.8285
8980512500		0.46614	-78.0321
9005500000		0.46502	-78.4335
9030487500		0.46606	-78.4067
9055475000		0.46099	-79.1487
9080462500		0.46172	-79.0766
9105450000		0.46452	-79.1462
9130437500		0.46219	-79.4737
9155425000		0.45684	-79.6377
9180412500		0.46136	-79.9969
9205400000		0.46258	-80.0483
9230387500		0.46289	-80.5039
9255375000		0.46561	-80.639
9280362500		0.46449	-80.8158
9305350000		0.46138	-81.0955
9330337500		0.46442	-81.1962
9355325000		0.46771	-81.0165
9380312500		0.46504	-81.6503
9405300000		0.46222	-81.7807
9430287500		0.46645	-82.1379
9455275000		0.46135	-82.4993
9480262500		0.46033	-82.6628
9505250000		0.46463	-82.5563
9530237500		0.46273	-82.7487
9555225000		0.45959	-83.1745
9580212500		0.46257	-83.2798
9605200000		0.46938	-83.3799
9630187500		0.46482	-83.752
9655175000		0.45986	-84.2386
9680162500		0.46475	-84.1465
9705150000		0.46856	-84.2326
9730137500		0.46284	-84.5698
9755125000		0.46913	-84.5195
9780112500		0.47024	-84.9158
9805100000		0.46111	-85.3195
9830087500		0.46483	-85.5806
9855075000		0.47012	-85.4206
9880062500		0.46685	-85.5828
9905050000		0.46774	-85.8242
9930037500		0.46818	-85.8217
9955025000		0.46944	-86.3311
9980012500		0.47093	-86.386
10005000000		0.47388	-86.52
10029987500		0.47266	-86.8382
10054975000		0.46546	-87.2163
10079962500		0.4677	-87.4922
10104950000		0.47159	-87.3838
10129937500		0.46633	-87.7757
10154925000		0.46706	-88.117
10179912500		0.47055	-88.0683
10204900000		0.46625	-88.5532
10229887500		0.46208	-88.8394
10254875000		0.46709	-88.7098
10279862500		0.47401	-88.6875
10304850000		0.4644	-89.2691
10329837500		0.46535	-89.5886
10354825000		0.47354	-89.3395
10379812500		0.47159	-89.5163
10404800000		0.47097	-89.9125
10429787500		0.47322	-89.8411
10454775000		0.47102	-90.3872
10479762500		0.47269	-90.5292
10504750000		0.47401	-90.4815
10529737500		0.47216	-90.9095
10554725000		0.46919	-91.0719
10579712500		0.47021	-91.4707
10604700000		0.4731	-91.3732
10629687500		0.47395	-91.4517
10654675000		0.47142	-91.914
10679662500		0.47156	-91.9943
10704650000		0.47255	-92.3431
10729637500		0.47245	-92.4034
10754625000		0.47662	-92.2387
10779612500		0.47746	-92.5437
10804600000		0.4747	-92.7965
10829587500		0.47544	-93.2436
10854575000		0.47591	-93.45
10879562500		0.47546	-93.5976
10904550000		0.47676	-93.7075
10929537500		0.47732	-93.802
10954525000		0.47612	-94.0983
10979512500		0.47769	-94.4078
11004500000		0.47999	-94.245
11029487500		0.47943	-94.6226
11054475000		0.47984	-94.6631
11079462500		0.47897	-94.9627
11104450000		0.47516	-95.4399
11129437500		0.47573	-95.4397
11154425000		0.47895	-95.5461
11179412500		0.47668	-95.9855
11204400000		0.47713	-96.1483
11229387500		0.47889	-96.4185
11254375000		0.48105	-96.3834
11279362500		0.47776	-96.7655
11304350000		0.48089	-96.7751
11329337500		0.48218	-96.776
11354325000		0.47963	-97.3111
11379312500		0.48089	-97.365
11404300000		0.48591	-97.3279
11429287500		0.48326	-97.7516
11454275000		0.48036	-97.9673
11479262500		0.48439	-98.0988
11504250000		0.48485	-98.2448
11529237500		0.47936	-98.7122
11554225000		0.4848	-98.8016
11579212500		0.48359	-98.7499
11604200000		0.47939	-99.5134
11629187500		0.48176	-99.409
11654175000		0.48707	-99.431
11679162500		0.48719	-99.6598
11704150000		0.48381	-99.9355
11729137500		0.4874	-99.9411
11754125000		0.48824	-100.1539
11779112500		0.48217	-100.5024
11804100000		0.48739	-100.6664
11829087500		0.49195	-100.3839
11854075000		0.48455	-101.1694
11879062500		0.48458	-101.3214
11904050000		0.48795	-101.401
11929037500		0.48505	-101.7737
11954025000		0.48374	-101.9868
11979012500		0.49021	-101.6685
12004000000		0.48851	-102.106
12028987500		0.48481	-102.5239
12053975000		0.48979	-102.5416
12078962500		0.49454	-102.4882
12103950000		0.48849	-102.8024
12128937500		0.49015	-102.9724
12153925000		0.49278	-102.9175
12178912500		0.48881	-103.3177
12203900000		0.48699	-103.7545
12228887500		0.49068	-103.6621
12253875000		0.48952	-104.0238
12278862500		0.48506	-104.513
12303850000		0.48643	-104.5629
12328837500		0.49549	-104.4161
12353825000		0.49012	-104.4377
12378812500		0.48924	-105.0212
12403800000		0.49646	-104.7324
12428787500		0.4948	-105.2381
12453775000		0.49517	-105.4676
12478762500		0.49809	-105.1859
12503750000		0.49316	-105.7781
12528737500		0.49077	-105.9828
12553725000		0.49582	-105.7642
12578712500		0.49958	-106.1404
12603700000		0.49473	-106.2847
12628687500		0.49243	-106.8876
12653675000		0.49095	-107.1335
12678662500		0.48959	-107.4452
12703650000		0.49294	-107.4194
12728637500		0.49667	-107.1379
12753625000		0.50106	-107.2877
12778612500		0.49946	-107.5396
12803600000		0.50141	-107.6672
12828587500		0.50594	-107.7157
12853575000		0.50202	-107.8563
12878562500		0.50084	-108.1216
12903550000		0.50373	-108.1652
12928537500		0.50134	-108.4717
12953525000		0.49984	-108.8698
12978512500		0.50128	-108.9484
13003500000		0.50007	-109.2857
13028487500		0.49971	-109.6112
13053475000		0.50231	-109.6308
13078462500		0.50117	-109.8001
13103450000		0.50252	-109.9161
13128437500		0.50699	-109.7483
13153425000		0.50277	-110.2706
13178412500		0.50525	-110.3007
13203400000		0.51238	-110.1385
13228387500		0.50875	-110.4943
13253375000		0.50575	-110.6898
13278362500		0.50776	-111.025
13303350000		0.5058	-111.2579
13328337500		0.50499	-111.5085
13353325000		0.50721	-111.6065
13378312500		0.50669	-111.6996
13403300000		0.50732	-112.0353
13428287500		0.50627	-112.2965
13453275000		0.50783	-112.3665
13478262500		0.51332	-112.1985
13503250000		0.51086	-112.3121
13528237500		0.51185	-112.6642
13553225000		0.51382	-112.6395
13578212500		0.51122	-112.9794
13603200000		0.51584	-112.9539
13628187500		0.5141	-113.131
13653175000		0.50707	-113.9467
13678162500		0.50649	-114.1238
13703150000		0.5089	-114.0728
13728137500		0.5038	-114.6699
13753125000		0.50117	-114.8954
13778112500		0.51011	-114.8074
13803100000		0.51183	-114.7472
13828087500		0.50965	-115.2044
13853075000		0.51467	-115.0131
13878062500		0.51571	-115.0704
13903050000		0.51504	-115.3827
13928037500		0.51848	-115.3155
13953025000		0.52072	-115.3545
13978012500		0.52027	-115.5605
14003000000		0.51537	-116.0935
14027987500		0.51341	-116.5229
14052975000		0.51576	-116.5396
14077962500		0.51261	-116.8635
14102950000		0.51203	-116.9959
14127937500		0.51558	-117.0043
14152925000		0.51405	-117.3471
14177912500		0.51352	-117.6262
14202900000		0.5187	-117.5499
14227887500		0.51815	-117.7475
14252875000		0.52039	-117.8463
14277862500		0.52563	-117.6151
14302850000		0.5255	-117.8892
14327837500		0.5227	-118.0641
14352825000		0.52286	-118.2661
14377812500		0.52365	-118.4511
14402800000		0.52219	-118.8127
14427787500		0.52162	-119.0793
14452775000		0.52385	-119.0035
14477762500		0.52215	-119.2746
14502750000		0.52109	-119.6056
14527737500		0.52286	-119.7633
14552725000		0.5275	-119.7651
14577712500		0.52827	-119.7557
14602700000		0.52587	-120.0877
14627687500		0.5281	-120.1963
14652675000		0.53002	-120.2241
14677662500		0.52987	-120.4855
14702650000		0.5294	-120.5182
14727637500		0.52841	-120.7959
14752625000		0.52707	-121.1058
14777612500		0.52648	-121.3684
14802600000		0.52662	-121.5703
14827587500		0.52835	-121.521
14852575000		0.52846	-121.7302
14877562500		0.52553	-122.2754
14902550000		0.52743	-122.3538
14927537500		0.53196	-122.3409
14952525000		0.53048	-122.3722
14977512500		0.53139	-122.5225
15002500000		0.53196	-122.7133
15027487500		0.52974	-123.1154
15052475000		0.53184	-123.2155
15077462500		0.53232	-123.1927
15102450000		0.5314	-123.4085
15127437500		0.52923	-123.7795
15152425000		0.52863	-124.0004
15177412500		0.53031	-124.0448
15202400000		0.52987	-124.226
15227387500		0.52876	-124.4284
15252375000		0.53216	-124.5557
15277362500		0.53021	-124.8973
15302350000		0.53109	-125.0986
15327337500		0.53375	-124.9815
15352325000		0.53172	-125.2356
15377312500		0.52841	-125.7743
15402300000		0.53109	-125.8736
15427287500		0.53485	-125.7247
15452275000		0.53246	-126.0643
15477262500		0.53082	-126.1031
15502250000		0.53309	-126.2625
15527237500		0.53013	-126.5817
15552225000		0.53005	-126.7973
15577212500		0.53503	-126.5741
15602200000		0.53521	-126.8431
15627187500		0.53219	-127.26
15652175000		0.53191	-127.5386
15677162500		0.53412	-127.5944
15702150000		0.5351	-127.7703
15727137500		0.53337	-127.934
15752125000		0.53478	-128.1491
15777112500		0.53594	-128.3028
15802100000		0.53155	-128.6865
15827087500		0.53319	-128.6592
15852075000		0.53429	-128.6447
15877062500		0.53228	-128.9496
15902050000		0.53456	-129.1013
15927037500		0.53676	-128.9946
15952025000		0.53563	-129.2183
15977012500		0.53737	-129.2895
16002000000		0.53872	-129.449
16026987500		0.53836	-129.8077
16051975000		0.53643	-129.9502
16076962500		0.5387	-130.1236
16101950000		0.53852	-130.2749
16126937500		0.5363	-130.7432
16151925000		0.5369	-130.7999
16176912500		0.53785	-130.8389
16201900000		0.53715	-131.0937
16226887500		0.53558	-131.3571
16251875000		0.53737	-131.4893
16276862500		0.54137	-131.4536
16301850000		0.53985	-131.527
16326837500		0.53923	-131.743
16351825000		0.5417	-131.6774
16376812500		0.54247	-131.9647
16401800000		0.54208	-132.143
16426787500		0.54147	-132.2997
16451775000		0.53976	-132.5564
16476762500		0.53906	-132.8805
16501750000		0.54094	-133.0382
16526737500		0.54067	-133.2458
16551725000		0.53942	-133.4339
16576712500		0.53929	-133.6236
16601700000		0.54028	-133.7925
16626687500		0.54257	-133.8889
16651675000		0.54441	-133.8858
16676662500		0.54344	-134.0068
16701650000		0.5435	-134.0953
16726637500		0.54327	-134.2834
16751625000		0.54397	-134.4972
16776612500		0.54582	-134.5528
16801600000		0.54633	-134.6859
16826587500		0.54281	-135.141
16851575000		0.54259	-135.5057
16876562500		0.54572	-135.555
16901550000		0.5462	-135.7027
16926537500		0.54472	-135.9212
16951525000		0.54692	-135.8921
16976512500		0.55021	-135.9472
17001500000		0.54958	-136.1954
17026487500		0.55063	-136.174
17051475000		0.55347	-135.984
17076462500		0.55107	-136.2877
17101450000		0.54943	-136.6653
