! Infineon Technologies  Discrete & RF Semiconductors
! BAT24-02LS
! IAC = 0.8 mA
! One-Port S-Parameters
# Hz  S  MA  R  50
!f									S11
!Hz							Mag  Ang
309850000		0.04966	-179.406
334837500		0.04993	-176.4669
359825000		0.04888	-176.7762
384812500		0.05023	-176.7862
409800000		0.05104	-176.7674
434787500		0.05017	-175.6607
459775000		0.04957	-175.4627
484762500		0.05108	-175.8464
509750000		0.05366	-173.8694
534737500		0.05345	-173.646
559725000		0.05322	-174.7938
584712500		0.05303	-173.1937
609700000		0.05227	-172.9653
634687500		0.05411	-172.6691
659675000		0.05171	-171.7533
684662500		0.05067	-170.4642
709650000		0.04988	-169.7995
734637500		0.05103	-169.1823
759625000		0.04977	-167.5989
784612500		0.0502	-168.3707
809600000		0.05155	-167.3386
834587500		0.05359	-166.8996
859575000		0.05353	-164.4268
884562500		0.05299	-166.4463
909550000		0.05473	-164.6151
934537500		0.05279	-162.9904
959525000		0.05278	-164.0949
984512500		0.05413	-162.9331
1009500000		0.05448	-162.8194
1034487500		0.05491	-163.0418
1059475000		0.05475	-161.0783
1084462500		0.05374	-162.1781
1109450000		0.0544	-160.3931
1134437500		0.05448	-160.455
1159425000		0.0566	-160.5101
1184412500		0.05552	-158.7978
1209400000		0.05805	-161.8257
1234387500		0.05786	-158.8431
1259375000		0.05729	-159.6025
1284362500		0.05716	-158.8152
1309350000		0.05661	-157.5367
1334337500		0.05779	-157.9329
1359325000		0.05701	-156.4251
1384312500		0.05783	-156.9442
1409300000		0.05864	-157.8637
1434287500		0.05966	-156.4105
1459275000		0.05921	-156.9748
1484262500		0.05904	-155.6656
1509250000		0.0601	-157.1204
1534237500		0.06177	-156.3856
1559225000		0.06166	-156.3515
1584212500		0.06331	-157.0001
1609200000		0.06183	-156.2585
1634187500		0.06276	-155.9402
1659175000		0.06161	-155.1117
1684162500		0.06226	-154.4464
1709150000		0.06182	-153.684
1734137500		0.06269	-154.7446
1759125000		0.06331	-153.2203
1784112500		0.06361	-154.4032
1809100000		0.06337	-154.4915
1834087500		0.06445	-153.8668
1859075000		0.06466	-153.493
1884062500		0.065	-153.1419
1909050000		0.06535	-153.3852
1934037500		0.06797	-154.3965
1959025000		0.06768	-152.9373
1984012500		0.06772	-154.4327
2009000000		0.06862	-152.3087
2033987500		0.06715	-152.6653
2058975000		0.06906	-152.1884
2083962500		0.06808	-151.0914
2108950000		0.06912	-151.3853
2133937500		0.06785	-150.8247
2158925000		0.06859	-150.5132
2183912500		0.0687	-150.047
2208900000		0.06817	-149.8012
2233887500		0.06959	-150.7331
2258875000		0.07138	-149.5614
2283862500		0.06998	-149.3582
2308850000		0.07177	-150.2528
2333837500		0.07054	-149.1428
2358825000		0.07282	-149.9968
2383812500		0.07258	-149.0759
2408800000		0.07281	-148.0954
2433787500		0.07252	-147.0551
2458775000		0.07214	-147.473
2483762500		0.07267	-145.9592
2508750000		0.07156	-146.1119
2533737500		0.07199	-144.9514
2558725000		0.07218	-145.3187
2583712500		0.07291	-144.5383
2608700000		0.07319	-144.625
2633687500		0.07418	-145.4996
2658675000		0.07488	-145.0197
2683662500		0.07486	-144.0173
2708650000		0.07435	-144.4945
2733637500		0.07524	-143.6712
2758625000		0.07538	-144.1519
2783612500		0.07741	-143.3986
2808600000		0.07609	-143.222
2833587500		0.07806	-144.0118
2858575000		0.07711	-143.0255
2883562500		0.07807	-143.6029
2908550000		0.07875	-142.6161
2933537500		0.07894	-142.388
2958525000		0.08019	-143.5037
2983512500		0.0807	-143.1429
3008500000		0.07838	-144.7704
3033487500		0.07906	-144.3964
3058475000		0.07921	-144.6869
3083462500		0.08079	-144.169
3108450000		0.08004	-143.4959
3133437500		0.08161	-144.3788
3158425000		0.08188	-143.6192
3183412500		0.08183	-143.3365
3208400000		0.082	-142.9742
3233387500		0.08208	-142.8404
3258375000		0.08255	-142.5181
3283362500		0.08426	-142.1881
3308350000		0.0846	-141.7208
3333337500		0.08556	-142.0163
3358325000		0.08571	-142.5095
3383312500		0.08624	-142.7149
3408300000		0.08703	-142.284
3433287500		0.08742	-142.8187
3458275000		0.08767	-141.5863
3483262500		0.08858	-142.3207
3508250000		0.08944	-142.3637
3533237500		0.08994	-142.6282
3558225000		0.08959	-142.6891
3583212500		0.09001	-142.8233
3608200000		0.09076	-142.0848
3633187500		0.09038	-141.825
3658175000		0.09162	-141.6531
3683162500		0.0924	-142.0544
3708150000		0.09306	-141.5256
3733137500		0.09269	-142.2676
3758125000		0.09336	-142.029
3783112500		0.09341	-141.8298
3808100000		0.09434	-141.1598
3833087500		0.09496	-141.4879
3858075000		0.09611	-141.2895
3883062500		0.09583	-141.8757
3908050000		0.09696	-141.9894
3933037500		0.09743	-141.8636
3958025000		0.09674	-141.5483
3983012500		0.09788	-141.909
4008000000		0.09981	-142.1585
4032987500		0.0992	-141.2861
4057975000		0.1001	-141.733
4082962500		0.10021	-142.1756
4107950000		0.10118	-141.5607
4132937500		0.10046	-141.0788
4157925000		0.10141	-140.8824
4182912500		0.10177	-140.4108
4207900000		0.10226	-140.5186
4232887500		0.10253	-140.1096
4257875000		0.10341	-140.3178
4282862500		0.10314	-140.2262
4307850000		0.10375	-140.1318
4332837500		0.10469	-140.0166
4357825000		0.10464	-139.7763
4382812500		0.10569	-139.831
4407800000		0.10604	-140.6178
4432787500		0.10709	-139.8617
4457775000		0.10608	-140.2224
4482762500		0.1072	-139.7919
4507750000		0.10838	-140.0435
4532737500		0.10956	-139.9665
4557725000		0.10903	-139.3958
4582712500		0.11053	-140.8997
4607700000		0.11083	-140.4058
4632687500		0.111	-140.0693
4657675000		0.11222	-140.5825
4682662500		0.11231	-139.6154
4707650000		0.11282	-140.5901
4732637500		0.11431	-140.8298
4757625000		0.114	-140.6658
4782612500		0.11553	-141.7436
4807600000		0.11421	-140.3371
4832587500		0.1154	-141.3216
4857575000		0.1166	-140.3616
4882562500		0.11581	-140.5767
4907550000		0.11849	-141.1713
4932537500		0.11768	-140.5666
4957525000		0.11801	-141.121
4982512500		0.11858	-141.1859
5007500000		0.11829	-140.3846
5032487500		0.12057	-141.064
5057475000		0.12066	-140.5392
5082462500		0.12124	-141.4737
5107450000		0.12316	-141.3157
5132437500		0.12078	-141.4276
5157425000		0.1241	-141.5855
5182412500		0.1216	-140.3872
5207400000		0.12253	-140.4591
5232387500		0.12429	-140.5585
5257375000		0.12405	-139.9539
5282362500		0.1256	-140.4385
5307350000		0.12502	-140.6364
5332337500		0.12553	-140.7054
5357325000		0.1264	-140.7801
5382312500		0.12584	-140.4887
5407300000		0.12767	-140.5985
5432287500		0.12843	-140.7334
5457275000		0.12863	-140.7787
5482262500		0.12985	-141.0653
5507250000		0.12974	-141.0016
5532237500		0.12994	-141.0284
5557225000		0.13124	-141.5416
5582212500		0.13055	-140.4445
5607200000		0.13165	-140.8886
5632187500		0.13265	-140.9838
5657175000		0.13229	-140.9619
5682162500		0.13389	-141.3655
5707150000		0.13324	-141.2658
5732137500		0.13453	-142.1301
5757125000		0.13582	-141.32
5782112500		0.13438	-141.2137
5807100000		0.13671	-141.9522
5832087500		0.13594	-141.4489
5857075000		0.13757	-142.321
5882062500		0.13903	-141.8052
5907050000		0.1375	-141.812
5932037500		0.13977	-141.953
5957025000		0.13883	-141.5911
5982012500		0.13895	-142.0737
6007000000		0.14083	-141.4265
6031987500		0.13854	-141.3867
6056975000		0.14117	-141.6268
6081962500		0.14096	-141.5011
6106950000		0.14188	-142.2998
6131937500		0.14387	-142.1203
6156925000		0.14252	-143.057
6181912500		0.1445	-142.1783
6206900000		0.14343	-142.1707
6231887500		0.14394	-142.6804
6256875000		0.14655	-141.4039
6281862500		0.14535	-141.3274
6306850000		0.14652	-141.5396
6331837500		0.14649	-141.8251
6356825000		0.14619	-142.2198
6381812500		0.14745	-141.8092
6406800000		0.14666	-142.1006
6431787500		0.14836	-141.6125
6456775000		0.14837	-141.7293
6481762500		0.14958	-142.3381
6506750000		0.15074	-142.3973
6531737500		0.15118	-142.9409
6556725000		0.15013	-143.2755
6581712500		0.15249	-143.0763
6606700000		0.15172	-142.5467
6631687500		0.15298	-142.7934
6656675000		0.15435	-142.5451
6681662500		0.15408	-142.7743
6706650000		0.15459	-142.8319
6731637500		0.15392	-143.3915
6756625000		0.15471	-143.0684
6781612500		0.15511	-142.718
6806600000		0.15471	-142.7866
6831587500		0.15742	-143.0388
6856575000		0.15699	-142.6985
6881562500		0.15799	-143.8518
6906550000		0.15925	-143.7078
6931537500		0.15795	-143.9268
6956525000		0.15936	-143.5982
6981512500		0.15954	-143.1532
7006500000		0.1614	-143.2247
7031487500		0.16122	-142.9388
7056475000		0.16176	-143.3815
7081462500		0.16257	-143.2206
7106450000		0.16196	-142.7726
7131437500		0.16213	-143.1544
7156425000		0.16308	-142.7871
7181412500		0.16305	-143.3613
7206400000		0.16477	-144.0476
7231387500		0.16471	-144.0916
7256375000		0.16598	-144.4431
7281362500		0.16556	-144.4475
7306350000		0.16652	-144.2864
7331337500		0.16701	-144.2547
7356325000		0.16779	-144.3817
7381312500		0.16883	-144.2778
7406300000		0.16954	-144.8659
7431287500		0.17015	-144.3926
7456275000		0.16981	-144.164
7481262500		0.17064	-143.9123
7506250000		0.17101	-143.8206
7531237500		0.17068	-144.2288
7556225000		0.17143	-144.3375
7581212500		0.17197	-144.8273
7606200000		0.17256	-144.5914
7631187500		0.17292	-144.3279
7656175000		0.17326	-144.9464
7681162500		0.1749	-144.7408
7706150000		0.17556	-145.5469
7731137500		0.17711	-145.3658
7756125000		0.17655	-144.4337
7781112500		0.17674	-144.7783
7806100000		0.17732	-144.2952
7831087500		0.17811	-144.5508
7856075000		0.17901	-144.4651
7881062500		0.17893	-144.4392
7906050000		0.1796	-144.7276
7931037500		0.17919	-144.7791
7956025000		0.17951	-145.1283
7981012500		0.18068	-145.4517
8006000000		0.18094	-145.3496
8030987500		0.18154	-145.4235
8055975000		0.18238	-145.5413
8080962500		0.18366	-146.0589
8105950000		0.18491	-145.5967
8130937500		0.18457	-145.573
8155925000		0.18524	-145.3296
8180912500		0.18442	-145.5193
8205900000		0.18593	-145.8356
8230887500		0.18716	-145.5929
8255875000		0.1873	-145.4938
8280862500		0.18766	-145.905
8305850000		0.18747	-146.3311
8330837500		0.18787	-146.4687
8355825000		0.18833	-146.6709
8380812500		0.18898	-146.885
8405800000		0.18959	-146.6222
8430787500		0.19007	-147.2
8455775000		0.19152	-147.2531
8480762500		0.19195	-147.4766
8505750000		0.19339	-147.317
8530737500		0.19253	-146.7435
8555725000		0.19339	-147.0382
8580712500		0.19322	-146.9697
8605700000		0.19453	-147.1442
8630687500		0.19537	-147.1998
8655675000		0.19547	-147.0697
8680662500		0.19552	-147.3794
8705650000		0.19587	-147.4733
8730637500		0.19544	-147.9792
8755625000		0.19714	-147.9666
8780612500		0.19568	-147.7367
8805600000		0.19819	-147.8911
8830587500		0.19775	-147.5717
8855575000		0.19952	-148.335
8880562500		0.20052	-148.3589
8905550000		0.20018	-147.9836
8930537500		0.20158	-148.0762
8955525000		0.20101	-148.0547
8980512500		0.20127	-147.9131
9005500000		0.20241	-148.179
9030487500		0.20188	-148.3433
9055475000		0.20403	-148.8126
9080462500		0.20313	-148.4514
9105450000		0.20392	-149.0633
9130437500		0.20407	-149.415
9155425000		0.20357	-149.579
9180412500		0.2054	-149.3483
9205400000		0.20572	-149.619
9230387500		0.20702	-149.3848
9255375000		0.20772	-149.368
9280362500		0.20821	-149.7913
9305350000		0.20882	-149.767
9330337500		0.20949	-149.4961
9355325000		0.20926	-149.9369
9380312500		0.21011	-149.8845
9405300000		0.20981	-149.7396
9430287500		0.2117	-149.7249
9455275000		0.21246	-150.3257
9480262500		0.21246	-150.0918
9505250000		0.21217	-150.3584
9530237500		0.21202	-150.7839
9555225000		0.21259	-150.5218
9580212500		0.21348	-150.2289
9605200000		0.21472	-150.5799
9630187500		0.21511	-151.3679
9655175000		0.21587	-151.2036
9680162500		0.21663	-151.1874
9705150000		0.21734	-151.4705
9730137500		0.21749	-151.179
9755125000		0.21767	-150.6287
9780112500		0.21895	-151.3345
9805100000		0.21899	-151.566
9830087500		0.22059	-150.7962
9855075000		0.22045	-150.8844
9880062500		0.21971	-151.1657
9905050000		0.22012	-151.0791
9930037500		0.2202	-151.4202
9955025000		0.22191	-151.091
9980012500		0.22211	-150.9807
10005000000		0.22289	-151.4323
10029987500		0.22361	-152.0848
10054975000		0.22419	-152.5791
10079962500		0.2255	-152.2019
10104950000		0.2253	-152.4503
10129937500		0.22562	-152.8506
10154925000		0.2266	-152.3358
10179912500		0.22725	-152.4993
10204900000		0.22831	-152.9769
10229887500		0.22796	-152.684
10254875000		0.22783	-152.5094
10279862500		0.22812	-152.8876
10304850000		0.22889	-153.5038
10329837500		0.2303	-152.7285
10354825000		0.23036	-152.7542
10379812500		0.23006	-153.3879
10404800000		0.23108	-153.2708
10429787500		0.23155	-153.6076
10454775000		0.23345	-153.5705
10479762500		0.23369	-153.0334
10504750000		0.23336	-153.4481
10529737500		0.23422	-153.8177
10554725000		0.23454	-154.0536
10579712500		0.2363	-153.6361
10604700000		0.23588	-153.2309
10629687500		0.23542	-153.4917
10654675000		0.23621	-153.8936
10679662500		0.2365	-154.2055
10704650000		0.23836	-154.3568
10729637500		0.23803	-154.0053
10754625000		0.23731	-153.9732
10779612500		0.23821	-154.4848
10804600000		0.23874	-154.6797
10829587500		0.24113	-154.6751
10854575000		0.24185	-154.6784
10879562500		0.24161	-154.5427
10904550000		0.24212	-154.6162
10929537500		0.24247	-154.7825
10954525000		0.24331	-154.7604
10979512500		0.24438	-154.3559
11004500000		0.24329	-154.1701
11029487500		0.24421	-154.4235
11054475000		0.24421	-154.7435
11079462500		0.2453	-155.2933
11104450000		0.24621	-155.5383
11129437500		0.24539	-155.4675
11154425000		0.24615	-155.9667
11179412500		0.24735	-156.377
11204400000		0.24808	-155.9221
11229387500		0.25022	-155.9141
11254375000		0.24936	-155.7961
11279362500		0.25031	-156.0793
11304350000		0.25052	-155.8184
11329337500		0.25052	-156.0646
11354325000		0.25179	-156.0746
11379312500		0.2515	-155.545
11404300000		0.25233	-155.8122
11429287500		0.25292	-156.4257
11454275000		0.25269	-156.2045
11479262500		0.25455	-156.3126
11504250000		0.25419	-156.5531
11529237500		0.25506	-156.7777
11554225000		0.25637	-156.6116
11579212500		0.25576	-157.4032
11604200000		0.25758	-157.4387
11629187500		0.25702	-156.9385
11654175000		0.25845	-156.966
11679162500		0.25891	-157.116
11704150000		0.25902	-156.992
11729137500		0.25956	-156.9411
11754125000		0.25991	-157.5717
11779112500		0.25988	-157.6921
11804100000		0.26176	-157.0758
11829087500		0.26078	-157.4187
11854075000		0.262	-157.8777
11879062500		0.26223	-157.5914
11904050000		0.26353	-158.1237
11929037500		0.26401	-158.4329
11954025000		0.26462	-158.1137
11979012500		0.26407	-157.9833
12004000000		0.26507	-158.5492
12028987500		0.26563	-158.3387
12053975000		0.26729	-158.0416
12078962500		0.26745	-158.3638
12103950000		0.26711	-158.6558
12128937500		0.26797	-158.2112
12153925000		0.26797	-158.6769
12178912500		0.2685	-159.0443
12203900000		0.26931	-158.8787
12228887500		0.26876	-158.8937
12253875000		0.2699	-159.6313
12278862500		0.27071	-159.6977
12303850000		0.27172	-159.2461
12328837500		0.27276	-159.142
12353825000		0.27074	-159.8201
12378812500		0.27271	-159.3794
12403800000		0.27304	-159.3131
12428787500		0.2749	-159.6772
12453775000		0.27589	-159.0817
12478762500		0.27462	-159.7235
12503750000		0.27501	-160.4764
12528737500		0.27534	-160.1473
12553725000		0.27606	-159.7687
12578712500		0.27748	-159.647
12603700000		0.2761	-160.1293
12628687500		0.27799	-160.4873
12653675000		0.27869	-160.9622
12678662500		0.27989	-161.122
12703650000		0.28023	-160.5662
12728637500		0.2794	-160.5035
12753625000		0.28028	-160.4382
12778612500		0.28114	-160.3183
12803600000		0.2825	-160.0809
12828587500		0.28285	-160.1615
12853575000		0.28168	-160.7691
12878562500		0.28224	-160.6991
12903550000		0.28317	-160.6854
12928537500		0.28377	-161.1566
12953525000		0.28453	-160.9778
12978512500		0.2848	-161.0783
13003500000		0.28527	-161.4927
13028487500		0.28716	-161.4477
13053475000		0.28823	-161.2902
13078462500		0.28813	-161.2389
13103450000		0.28807	-161.1744
13128437500		0.2876	-161.6407
13153425000		0.28878	-161.9798
13178412500		0.28937	-161.1857
13203400000		0.29011	-161.2366
13228387500		0.28966	-161.7947
13253375000		0.28945	-161.9828
13278362500		0.29185	-162.2286
13303350000		0.29214	-162.4435
13328337500		0.29281	-162.2892
13353325000		0.29296	-162.0644
13378312500		0.29313	-162.3021
13403300000		0.29516	-162.5202
13428287500		0.29564	-162.4319
13453275000		0.29627	-162.1073
13478262500		0.29586	-161.9413
13503250000		0.29508	-162.4888
13528237500		0.29712	-162.5415
13553225000		0.29674	-162.6776
13578212500		0.29736	-162.8178
13603200000		0.29746	-162.4484
13628187500		0.29714	-163.4811
13653175000		0.29855	-164.0612
13678162500		0.29956	-163.7863
13703150000		0.30003	-164.1106
13728137500		0.29964	-164.7739
13753125000		0.29967	-164.6145
13778112500		0.30235	-163.9741
13803100000		0.30249	-164.0719
13828087500		0.30364	-163.8263
13853075000		0.30354	-163.4975
13878062500		0.30361	-163.9935
13903050000		0.30472	-164.0618
13928037500		0.30504	-163.6769
13953025000		0.30534	-163.5826
13978012500		0.30503	-164.0033
14003000000		0.30528	-164.6955
14027987500		0.30681	-164.8619
14052975000		0.30743	-164.9392
14077962500		0.30749	-165.3703
14102950000		0.30748	-165.1208
14127937500		0.30873	-165.0919
14152925000		0.3096	-165.417
14177912500		0.31071	-165.2477
14202900000		0.31118	-165.054
14227887500		0.31168	-165.2316
14252875000		0.31288	-164.8449
14277862500		0.3134	-164.6586
14302850000		0.31381	-164.9233
14327837500		0.31265	-165.0097
14352825000		0.31334	-165.157
14377812500		0.3141	-165.5424
14402800000		0.31504	-165.7835
14427787500		0.31607	-165.67
14452775000		0.31563	-165.5782
14477762500		0.31578	-166.1111
14502750000		0.31697	-166.2249
14527737500		0.31866	-166.0133
14552725000		0.32005	-165.6162
14577712500		0.31927	-165.7418
14602700000		0.31979	-166.0174
14627687500		0.32097	-165.8881
14652675000		0.32161	-165.9906
14677662500		0.32213	-165.954
14702650000		0.32114	-166.06
14727637500		0.32135	-166.4206
14752625000		0.32227	-166.8389
14777612500		0.3234	-167.0776
14802600000		0.324	-166.9498
14827587500		0.32343	-166.8527
14852575000		0.3236	-167.3513
14877562500		0.32519	-167.6456
14902550000		0.3268	-167.4037
14927537500		0.32805	-167.1244
14952525000		0.32667	-167.2364
14977512500		0.32711	-167.2443
15002500000		0.32792	-167.5111
15027487500		0.32963	-167.806
15052475000		0.33065	-167.4833
15077462500		0.32977	-167.5703
15102450000		0.32957	-167.9737
15127437500		0.33007	-168.3801
15152425000		0.33111	-168.3855
15177412500		0.33167	-168.3764
15202400000		0.33101	-168.5615
15227387500		0.33083	-168.7887
15252375000		0.33263	-168.8004
15277362500		0.33392	-169.1895
15302350000		0.33471	-168.8533
15327337500		0.33459	-168.8291
15352325000		0.33415	-169.5647
15377312500		0.33503	-169.7688
15402300000		0.33731	-169.3584
15427287500		0.33792	-169.1939
15452275000		0.33752	-169.426
15477262500		0.33665	-169.4806
15502250000		0.33728	-169.7704
15527237500		0.33753	-170.2462
15552225000		0.33822	-170.0119
15577212500		0.33811	-169.6634
15602200000		0.33854	-170.2024
15627187500		0.33898	-170.6279
15652175000		0.34093	-170.6997
15677162500		0.3415	-170.6197
15702150000		0.34211	-170.7172
15727137500		0.3419	-170.8235
15752125000		0.34353	-170.9073
15777112500		0.34434	-170.9931
15802100000		0.34406	-171.2343
15827087500		0.3441	-170.8621
15852075000		0.34397	-171.1983
15877062500		0.34414	-171.4465
15902050000		0.34533	-171.2297
15927037500		0.34525	-171.1903
15952025000		0.34528	-171.3234
15977012500		0.34557	-171.2704
16002000000		0.34647	-171.7032
16026987500		0.34741	-171.8876
16051975000		0.34737	-171.9171
16076962500		0.34837	-171.8813
16101950000		0.34862	-172.1874
16126937500		0.34974	-172.5184
16151925000		0.35013	-172.292
16176912500		0.35067	-172.3012
16201900000		0.35077	-172.5267
16226887500		0.35135	-172.6585
16251875000		0.3527	-172.6011
16276862500		0.35349	-172.4047
16301850000		0.35255	-172.6307
16326837500		0.35284	-172.6604
16351825000		0.353	-172.6179
16376812500		0.3546	-173.0178
16401800000		0.35417	-172.9791
16426787500		0.35411	-173.1591
16451775000		0.35377	-173.5146
16476762500		0.35502	-173.7831
16501750000		0.35703	-173.8533
16526737500		0.35755	-173.9544
16551725000		0.35743	-173.9766
16576712500		0.35792	-174.0659
16601700000		0.35886	-174.1057
16626687500		0.36074	-173.9407
16651675000		0.36102	-173.8172
16676662500		0.3602	-173.9577
16701650000		0.35966	-174.0618
