! Infineon Technologies  Discrete & RF Semiconductors
! BAT15-02LRH
! IAC = 0.05 mA
! One-Port S-Parameters
# Hz  S  MA  R  50
!f									S11
!Hz							Mag  Ang
309850000		0.88178	-2.6204
409800000		0.88284	-3.5003
509750000		0.88063	-4.4135
609700000		0.87922	-5.2713
709650000		0.88286	-6.1854
809600000		0.87974	-7.0816
909550000		0.88282	-7.9846
1009500000		0.87927	-8.8982
1109450000		0.8796	-9.7897
1209400000		0.8807	-10.7146
1309350000		0.88006	-11.6239
1409300000		0.87876	-12.5455
1509250000		0.87833	-13.3222
1609200000		0.87475	-14.2882
1709150000		0.87623	-15.1847
1809100000		0.86698	-15.8081
1909050000		0.86959	-16.5456
2009000000		0.86944	-17.3925
2108950000		0.87348	-18.1619
2208900000		0.87254	-19.1512
2308850000		0.86937	-20.0314
2408800000		0.86711	-20.994
2508750000		0.87254	-21.8827
2608700000		0.87029	-22.7642
2708650000		0.86828	-23.4987
2808600000		0.86399	-24.2706
2908550000		0.86522	-24.9327
3008500000		0.86519	-25.6105
3108450000		0.8677	-26.4142
3208400000		0.86984	-27.257
3308350000		0.86996	-28.2677
3408300000		0.8687	-29.134
3508250000		0.86408	-29.9836
3608200000		0.8666	-30.7084
3708150000		0.86684	-31.5698
3808100000		0.86648	-32.4647
3908050000		0.86688	-33.2709
4008000000		0.86411	-34.1656
4107950000		0.86185	-35.0568
4207900000		0.86441	-35.8793
4307850000		0.86436	-36.7285
4407800000		0.86849	-37.475
4507750000		0.86304	-38.4404
4607700000		0.86311	-39.3038
4707650000		0.86461	-40.1394
4807600000		0.86431	-41.0365
4907550000		0.86538	-41.7974
5007500000		0.86651	-42.7385
5107450000		0.86399	-43.5567
5207400000		0.86573	-44.4544
5307350000		0.86476	-45.347
5407300000		0.86705	-46.1583
5507250000		0.86544	-47.0987
5607200000		0.86728	-47.9228
5707150000		0.86521	-48.8342
5807100000		0.8624	-49.7497
5907050000		0.86098	-50.6853
6007000000		0.86271	-51.4402
6106950000		0.86336	-52.3364
6206900000		0.861	-53.2192
6306850000		0.86004	-54.1087
6406800000		0.86041	-54.9821
6506750000		0.86035	-55.7777
6606700000		0.85672	-56.7004
6706650000		0.85842	-57.5285
6806600000		0.85716	-58.3919
6906550000		0.85525	-59.2779
7006500000		0.85532	-60.135
7106450000		0.85876	-60.9032
7206400000		0.85377	-61.8668
7306350000		0.85352	-62.717
7406300000		0.85201	-63.6165
7506250000		0.85488	-64.3564
7606200000		0.85264	-65.2447
7706150000		0.85066	-66.1494
7806100000		0.8537	-66.8631
7906050000		0.85552	-67.6738
8006000000		0.85045	-68.6106
8105950000		0.85279	-69.4121
8205900000		0.85059	-70.2908
8305850000		0.85128	-71.0971
8405800000		0.85106	-71.9091
8505750000		0.85103	-72.781
8605700000		0.85134	-73.6042
8705650000		0.85051	-74.4798
8805600000		0.85376	-75.2051
8905550000		0.85394	-76.0418
9005500000		0.85116	-76.9948
9105450000		0.84946	-77.9166
9205400000		0.84993	-78.7613
9305350000		0.85222	-79.533
9405300000		0.85316	-80.3425
9505250000		0.85083	-81.3633
9605200000		0.84954	-82.2956
9705150000		0.848	-83.2096
9805100000		0.85445	-83.8333
9905050000		0.85582	-84.6685
10005000000		0.85209	-85.7012
10104950000		0.84976	-86.6611
10204900000		0.85353	-87.4436
10304850000		0.85625	-88.2017
10404800000		0.85497	-89.1491
10504750000		0.85378	-90.0679
10604700000		0.85851	-90.7755
10704650000		0.85554	-91.8059
10804600000		0.85633	-92.636
10904550000		0.85668	-93.5539
11004500000		0.85879	-94.3195
11104450000		0.85847	-95.2218
11204400000		0.85799	-96.1927
11304350000		0.85673	-97.1042
11404300000		0.85491	-98.079
11504250000		0.85773	-98.837
11604200000		0.85958	-99.6793
11704150000		0.8609	-100.4699
11804100000		0.85803	-101.5246
11904050000		0.85591	-102.5282
12004000000		0.85857	-103.2972
12103950000		0.86184	-103.9782
12203900000		0.86156	-104.9566
12303850000		0.86081	-105.913
12403800000		0.85803	-107.0163
12503750000		0.86173	-107.7253
12603700000		0.86698	-108.4612
12703650000		0.86411	-109.6047
12803600000		0.86642	-110.399
12903550000		0.86981	-111.215
!
!				Infineon Technologies AG
