! Infineon Technologies  Discrete & RF Semiconductors
! BAT15-02LRH
! VCA = 3 V
! One-Port S-Parameters
# Hz  S  MA  R  50
!f									S11
!Hz							Mag  Ang
309850000		0.99917	-2.1023
409800000		0.99909	-2.7445
509750000		0.99922	-3.431
609700000		0.99891	-4.1131
709650000		0.99862	-4.7913
809600000		0.99767	-5.4139
909550000		0.99862	-6.1172
1009500000		0.99819	-6.8027
1109450000		0.9978	-7.4809
1209400000		0.99783	-8.2334
1309350000		0.9969	-8.8983
1409300000		0.9957	-9.6281
1509250000		0.9937	-10.2088
1609200000		0.9931	-10.9557
1709150000		0.98954	-11.6708
1809100000		0.98639	-12.0503
1909050000		0.9879	-12.5799
2009000000		0.98815	-13.2063
2108950000		0.99022	-13.8031
2208900000		0.99035	-14.5743
2308850000		0.98956	-15.256
2408800000		0.98943	-15.9062
2508750000		0.98784	-16.7154
2608700000		0.98356	-17.4104
2708650000		0.9808	-17.8957
2808600000		0.97925	-18.3664
2908550000		0.97976	-18.8264
3008500000		0.98135	-19.4014
3108450000		0.98253	-19.9662
3208400000		0.98382	-20.632
3308350000		0.98428	-21.4036
3408300000		0.98343	-22.0913
3508250000		0.98119	-22.6312
3608200000		0.98168	-23.1983
3708150000		0.98251	-23.8092
3808100000		0.98246	-24.5094
3908050000		0.98197	-25.1388
4008000000		0.98211	-25.768
4107950000		0.98216	-26.4094
4207900000		0.98206	-27.0525
4307850000		0.98157	-27.6909
4407800000		0.98133	-28.3116
4507750000		0.98189	-28.9359
4607700000		0.98212	-29.5938
4707650000		0.98214	-30.2617
4807600000		0.9823	-30.9076
4907550000		0.98213	-31.56
5007500000		0.98188	-32.24
5107450000		0.9817	-32.8798
5207400000		0.98167	-33.5297
5307350000		0.98176	-34.1921
5407300000		0.98159	-34.8636
5507250000		0.98118	-35.5415
5607200000		0.98084	-36.2164
5707150000		0.98066	-36.8734
5807100000		0.98021	-37.5359
5907050000		0.97979	-38.2118
6007000000		0.97945	-38.8748
6106950000		0.97891	-39.5506
6206900000		0.97837	-40.2083
6306850000		0.97768	-40.8934
6406800000		0.97709	-41.5636
6506750000		0.9763	-42.2053
6606700000		0.97542	-42.8585
6706650000		0.97485	-43.5251
6806600000		0.97448	-44.1737
6906550000		0.97349	-44.8142
7006500000		0.97292	-45.4956
7106450000		0.97223	-46.1714
7206400000		0.97139	-46.8013
7306350000		0.97059	-47.4378
7406300000		0.97013	-48.0992
7506250000		0.96929	-48.748
7606200000		0.96816	-49.3799
7706150000		0.96758	-50.0147
7806100000		0.96698	-50.6495
7906050000		0.96632	-51.276
8006000000		0.96556	-51.9056
8105950000		0.96491	-52.5409
8205900000		0.96427	-53.1607
8305850000		0.96411	-53.759
8405800000		0.96399	-54.3699
8505750000		0.96371	-54.9963
8605700000		0.96361	-55.6342
8705650000		0.96338	-56.2603
8805600000		0.96327	-56.8836
8905550000		0.96359	-57.5189
9005500000		0.96382	-58.1445
9105450000		0.964	-58.7712
9205400000		0.96394	-59.4406
9305350000		0.96376	-60.068
9405300000		0.96422	-60.699
9505250000		0.96447	-61.3704
9605200000		0.96477	-62.022
9705150000		0.96512	-62.6607
9805100000		0.96514	-63.3113
9905050000		0.96547	-63.9703
10005000000		0.96601	-64.6155
10104950000		0.96667	-65.2592
10204900000		0.96696	-65.9709
10304850000		0.96698	-66.6367
10404800000		0.96766	-67.2737
10504750000		0.96837	-67.9292
10604700000		0.96913	-68.6211
10704650000		0.96936	-69.3096
10804600000		0.96973	-69.9796
10904550000		0.97035	-70.6838
11004500000		0.9708	-71.3587
11104450000		0.97133	-72.0395
11204400000		0.97231	-72.7387
11304350000		0.97213	-73.4106
11404300000		0.97266	-74.103
11504250000		0.97306	-74.7573
11604200000		0.97409	-75.4625
11704150000		0.97397	-76.1436
11804100000		0.97465	-76.8276
11904050000		0.97536	-77.5237
12004000000		0.97583	-78.1999
12103950000		0.9764	-78.8481
12203900000		0.97723	-79.5384
12303850000		0.97815	-80.2319
12403800000		0.97895	-80.9593
12503750000		0.97913	-81.6251
12603700000		0.98061	-82.2926
12703650000		0.98276	-83.0061
12803600000		0.984	-83.6917
12903550000		0.9842	-84.4306
!
!				Infineon Technologies AG
