! Infineon Technologies  Discrete & RF Semiconductors
! BAT17-04
! IAC = 2 mA
! One-Port S-Parameters
# Hz  S  MA  R  50
!f									S11
!Hz							Mag  Ang
309850000		0.50077	173.7881
409800000		0.50139	171.8808
509750000		0.50148	170.0578
609700000		0.50216	168.1844
709650000		0.50177	166.4293
809600000		0.50192	164.6985
909550000		0.50285	162.9541
1009500000		0.50498	161.1101
1109450000		0.50665	159.4616
1209400000		0.50823	157.6557
1309350000		0.50933	155.9318
1409300000		0.51114	154.1935
1509250000		0.51401	152.5489
1609200000		0.51658	150.7438
1709150000		0.51986	149.0026
1809100000		0.52239	147.3341
1909050000		0.52587	145.6991
2009000000		0.52886	143.9546
2108950000		0.53229	142.3481
2208900000		0.53467	140.7475
2308850000		0.53831	139.1017
2408800000		0.54082	137.5478
2508750000		0.5441	135.9254
2608700000		0.54745	134.4708
2708650000		0.55112	132.8181
2808600000		0.55566	131.3793
2908550000		0.55874	129.862
3008500000		0.56364	128.3072
3108450000		0.5673	126.8592
3208400000		0.5723	125.4013
3308350000		0.57595	124.1152
3408300000		0.58035	122.7986
3508250000		0.58433	121.4959
3608200000		0.59015	120.0668
3708150000		0.59464	118.839
3808100000		0.59892	117.5978
3908050000		0.60297	116.3517
4008000000		0.60844	115.0976
4107950000		0.61341	113.8633
4207900000		0.61879	112.6384
4307850000		0.62376	111.4579
4407800000		0.62936	110.2908
4507750000		0.63431	109.1631
4607700000		0.63963	107.9427
4707650000		0.64495	106.8411
4807600000		0.64933	105.6833
4907550000		0.65393	104.585
5007500000		0.65828	103.4584
5107450000		0.66332	102.255
5207400000		0.66722	101.2078
5307350000		0.67059	100.1491
5407300000		0.67453	99.0632
5507250000		0.67851	98.0448
5607200000		0.68182	96.9708
5707150000		0.68572	96.0122
5807100000		0.68817	95.0372
5907050000		0.69191	94.0391
6007000000		0.69446	93.1205
6106950000		0.69779	92.1675
6206900000		0.70047	91.2364
6306850000		0.70388	90.294
6406800000		0.70649	89.3766
6506750000		0.70965	88.4298
6606700000		0.71239	87.4905
6706650000		0.71523	86.5315
6806600000		0.71815	85.6349
6906550000		0.72098	84.6535
7006500000		0.72388	83.6102
7106450000		0.72697	82.6893
7206400000		0.72909	81.635
7306350000		0.73205	80.5803
!
!				Infineon Technologies AG
