! Infineon Technologies  Discrete & RF Semiconductors
! BAT17-04
! IAC = 0.03 mA
! One-Port S-Parameters
# Hz  S  MA  R  50
!f									S11
!Hz							Mag  Ang
309850000		0.92799	-7.4668
409800000		0.92793	-9.8938
509750000		0.92774	-12.3295
609700000		0.92747	-14.7471
709650000		0.92812	-17.2421
809600000		0.92504	-19.7515
909550000		0.9253	-22.3588
1009500000		0.92549	-24.8023
1109450000		0.92613	-27.3439
1209400000		0.92355	-29.9841
1309350000		0.92157	-32.6492
1409300000		0.91896	-35.281
1509250000		0.91738	-37.9747
1609200000		0.91572	-40.6638
1709150000		0.9171	-43.1852
1809100000		0.91456	-45.9187
1909050000		0.91146	-48.7737
2009000000		0.90778	-51.7531
2108950000		0.90816	-54.4828
2208900000		0.90525	-57.4625
2308850000		0.90299	-60.4317
2408800000		0.89996	-63.6793
2508750000		0.90016	-66.5275
2608700000		0.89932	-69.698
2708650000		0.89626	-72.9017
2808600000		0.89779	-76.0482
2908550000		0.89508	-79.5366
3008500000		0.89241	-82.9447
3108450000		0.89034	-86.582
3208400000		0.89109	-89.8085
3308350000		0.88834	-93.5137
3408300000		0.88381	-97.4222
3508250000		0.88124	-101.2271
3608200000		0.8798	-104.7422
3708150000		0.87579	-108.7381
3808100000		0.87118	-112.8079
3908050000		0.86617	-116.8532
4008000000		0.8622	-120.9716
4107950000		0.85978	-124.834
4207900000		0.85962	-128.4512
4307850000		0.85905	-132.1568
4407800000		0.85571	-136.3842
4507750000		0.85338	-140.5261
4607700000		0.85257	-144.5091
4707650000		0.85566	-147.986
4807600000		0.85474	-152.079
4907550000		0.85648	-155.9176
5007500000		0.8569	-159.9791
5107450000		0.85893	-163.8311
5207400000		0.86068	-167.7067
5307350000		0.86346	-171.343
5407300000		0.8649	-175.1393
5507250000		0.86624	-178.9629
5607200000		0.86751	177.4018
5707150000		0.8699	173.9457
5807100000		0.87096	170.5992
5907050000		0.87111	166.9803
6007000000		0.8726	163.8793
6106950000		0.87414	160.7259
6206900000		0.87528	157.7149
6306850000		0.87562	154.5333
6406800000		0.87563	151.5295
6506750000		0.87702	148.6837
6606700000		0.87755	145.8803
6706650000		0.87835	143.0585
6806600000		0.87976	140.45
6906550000		0.88067	137.8175
7006500000		0.88232	135.3036
7106450000		0.88409	132.8092
7206400000		0.88516	130.4124
7306350000		0.88632	127.8886
!
!				Infineon Technologies AG
