! Infineon Technologies  Discrete & RF Semiconductors
! BAT17-04
! IAC = 0.5 mA
! One-Port S-Parameters
# Hz  S  MA  R  50
!f									S11
!Hz							Mag  Ang
309850000		0.1698	-10.0452
409800000		0.16755	-13.0352
509750000		0.16751	-16.6939
609700000		0.16563	-20.4632
709650000		0.16932	-24.6972
809600000		0.166	-28.9302
909550000		0.16802	-33.7158
1009500000		0.16552	-37.5472
1109450000		0.16824	-41.4746
1209400000		0.16249	-44.7903
1309350000		0.16263	-50.1333
1409300000		0.16213	-54.5578
1509250000		0.15858	-60.3902
1609200000		0.15893	-64.9917
1709150000		0.16243	-67.9949
1809100000		0.16242	-74.0238
1909050000		0.15779	-79.7981
2009000000		0.15562	-86.1659
2108950000		0.16223	-91.0355
2208900000		0.16468	-96.6901
2308850000		0.16547	-102.6131
2408800000		0.1694	-107.3623
2508750000		0.17431	-111.8954
2608700000		0.18045	-117.5122
2708650000		0.1832	-122.8721
2808600000		0.19258	-128.1792
2908550000		0.19752	-133.3232
3008500000		0.19927	-138.8919
3108450000		0.20762	-143.7518
3208400000		0.21616	-148.397
3308350000		0.22689	-152.7402
3408300000		0.23494	-157.744
3508250000		0.24548	-161.9111
3608200000		0.25358	-166.5175
3708150000		0.2653	-170.6485
3808100000		0.27606	-174.3149
3908050000		0.28668	-178.0286
4008000000		0.29828	177.8337
4107950000		0.30991	174.3343
4207900000		0.32351	171.6342
4307850000		0.33631	168.9083
4407800000		0.34907	165.2888
4507750000		0.36171	162.3576
4607700000		0.37421	159.3233
4707650000		0.38849	157.1843
4807600000		0.40059	154.5136
4907550000		0.41434	152.1922
5007500000		0.42732	149.5378
5107450000		0.43935	146.6276
5207400000		0.45331	144.5555
5307350000		0.46645	142.5536
5407300000		0.47901	140.2619
5507250000		0.49054	137.7879
5607200000		0.50175	135.5464
5707150000		0.51393	133.4981
5807100000		0.52474	131.6802
5907050000		0.53537	129.4625
6007000000		0.54609	127.8375
6106950000		0.55701	126.0401
6206900000		0.56662	124.2724
6306850000		0.57645	122.4128
6406800000		0.58528	120.614
6506750000		0.5946	118.8879
6606700000		0.60313	117.1744
6706650000		0.61158	115.4266
6806600000		0.62056	113.8836
6906550000		0.62795	112.1382
7006500000		0.63643	110.5262
7106450000		0.64497	108.9964
7206400000		0.65193	107.3841
7306350000		0.65934	105.6839
!
!				Infineon Technologies AG
