! Infineon Technologies  Discrete & RF Semiconductors
! BAT17-04
! IAC = 0.8 mA
! One-Port S-Parameters
# Hz  S  MA  R  50
!f									S11
!Hz							Mag  Ang
309850000		0.08811	177.8235
409800000		0.09094	176.8439
509750000		0.092	176.9335
609700000		0.09474	176.5052
709650000		0.09393	177.7105
809600000		0.09614	177.9898
909550000		0.09869	179.0411
1009500000		0.10401	177.8141
1109450000		0.10658	177.9471
1209400000		0.111	176.0002
1309350000		0.1149	176.4053
1409300000		0.11902	175.7879
1509250000		0.12697	174.9063
1609200000		0.1318	173.8617
1709150000		0.13578	172.4033
1809100000		0.14313	171.6745
1909050000		0.15156	169.8153
2009000000		0.1593	168.5127
2108950000		0.16576	167.9118
2208900000		0.17247	167.1214
2308850000		0.18098	165.5026
2408800000		0.18658	164.6572
2508750000		0.19339	163.3827
2608700000		0.20257	162.2434
2708650000		0.21068	160.455
2808600000		0.22152	159.2251
2908550000		0.22967	157.6802
3008500000		0.23937	155.035
3108450000		0.2487	153.7086
3208400000		0.25959	151.9169
3308350000		0.26939	150.8431
3408300000		0.2802	149.1593
3508250000		0.2904	147.7986
3608200000		0.30189	145.515
3708150000		0.31305	144.1548
3808100000		0.3229	142.8139
3908050000		0.33286	141.3794
4008000000		0.34503	139.5724
4107950000		0.35627	137.9586
4207900000		0.36715	136.6198
4307850000		0.37768	135.262
4407800000		0.39016	133.5896
4507750000		0.40109	132.2076
4607700000		0.41235	130.6063
4707650000		0.42335	129.3591
4807600000		0.43365	127.9525
4907550000		0.4444	126.6954
5007500000		0.45528	125.2418
5107450000		0.46666	123.4288
5207400000		0.47693	122.2792
5307350000		0.48662	121.1004
5407300000		0.49685	119.6921
5507250000		0.50705	118.1495
5607200000		0.51634	116.6968
5707150000		0.52623	115.391
5807100000		0.53438	114.2209
5907050000		0.54362	112.7715
6007000000		0.55152	111.6983
6106950000		0.56017	110.4762
6206900000		0.5679	109.2548
6306850000		0.57621	108.0009
6406800000		0.58363	106.7623
6506750000		0.59136	105.5205
6606700000		0.59855	104.2876
6706650000		0.6058	103.0277
6806600000		0.61311	101.9078
6906550000		0.61975	100.5885
7006500000		0.6267	99.3367
7106450000		0.63387	98.1947
7206400000		0.63966	96.9118
7306350000		0.64626	95.5709
!
!				Infineon Technologies AG
