! Infineon Technologies  Discrete & RF Semiconductors
! BAT17-04
! VCA = 0.4 V
! One-Port S-Parameters
# Hz  S  MA  R  50
!f									S11
!Hz							Mag  Ang
309850000		0.99995	-5.3564
409800000		0.99957	-7.0751
509750000		0.99991	-8.8023
609700000		0.99952	-10.5079
709650000		0.9994	-12.2819
809600000		0.99945	-14.0239
909550000		0.99953	-15.8448
1009500000		0.99884	-17.5848
1109450000		0.99857	-19.435
1209400000		0.99866	-21.2631
1309350000		0.99794	-23.1205
1409300000		0.99667	-24.9501
1509250000		0.99636	-26.8236
1609200000		0.9955	-28.7153
1709150000		0.99417	-30.6466
1809100000		0.9926	-32.5311
1909050000		0.99186	-34.4545
2009000000		0.9909	-36.4288
2108950000		0.98944	-38.429
2208900000		0.98811	-40.4016
2308850000		0.98768	-42.4068
2408800000		0.98719	-44.5348
2508750000		0.98692	-46.6032
2608700000		0.9865	-48.8155
2708650000		0.98625	-50.9435
2808600000		0.98617	-53.2896
2908550000		0.98593	-55.5407
3008500000		0.98569	-57.9862
3108450000		0.98574	-60.49
3208400000		0.98477	-62.9901
3308350000		0.98376	-65.597
3408300000		0.98249	-68.283
3508250000		0.9815	-71.0429
3608200000		0.9794	-73.7574
3708150000		0.97695	-76.641
3808100000		0.97427	-79.5485
3908050000		0.97143	-82.4453
4008000000		0.96837	-85.4438
4107950000		0.96507	-88.435
4207900000		0.96139	-91.5034
4307850000		0.95796	-94.6153
4407800000		0.95477	-97.7757
4507750000		0.95189	-100.9561
4607700000		0.94933	-104.1716
4707650000		0.94691	-107.4744
4807600000		0.94511	-110.7673
4907550000		0.94383	-114.1448
5007500000		0.94304	-117.5501
5107450000		0.94274	-120.9789
5207400000		0.94212	-124.5513
5307350000		0.94222	-128.059
5407300000		0.94168	-131.6919
5507250000		0.94185	-135.3576
5607200000		0.94153	-138.9774
5707150000		0.94103	-142.6756
5807100000		0.9404	-146.2802
5907050000		0.9393	-149.9694
6007000000		0.93825	-153.5587
6106950000		0.93698	-157.2105
6206900000		0.93591	-160.741
6306850000		0.93448	-164.2563
6406800000		0.9329	-167.7305
6506750000		0.93181	-171.1491
6606700000		0.93031	-174.5174
6706650000		0.92944	-177.8392
6806600000		0.92846	178.8759
6906550000		0.92783	175.7215
7006500000		0.92685	172.5073
7106450000		0.92647	169.3416
7206400000		0.92573	166.3008
7306350000		0.92533	163.1624
!
!				Infineon Technologies AG
