! Infineon Technologies  Discrete & RF Semiconductors
! BAT17-04
! IAC = 8 mA
! One-Port S-Parameters
# Hz  S  MA  R  50
!f									S11
!Hz							Mag  Ang
309850000		0.79047	173.6385
409800000		0.7894	171.7032
509750000		0.78875	169.7682
609700000		0.78838	167.7936
709650000		0.78759	165.9416
809600000		0.7877	164.0518
909550000		0.78729	162.1676
1009500000		0.78731	160.2523
1109450000		0.78759	158.5005
1209400000		0.78822	156.6282
1309350000		0.78845	154.7916
1409300000		0.7891	152.9601
1509250000		0.79024	151.2119
1609200000		0.79153	149.3296
1709150000		0.79244	147.54
1809100000		0.79329	145.7491
1909050000		0.79499	144.0174
2009000000		0.79682	142.1764
2108950000		0.79801	140.4299
2208900000		0.79891	138.7217
2308850000		0.80003	136.996
2408800000		0.8016	135.2716
2508750000		0.80262	133.5184
2608700000		0.80356	131.9015
2708650000		0.80462	130.195
2808600000		0.80598	128.6436
2908550000		0.80675	127.0048
3008500000		0.80795	125.4938
3108450000		0.80908	123.943
3208400000		0.81043	122.4544
3308350000		0.81185	121.0123
3408300000		0.81349	119.61
3508250000		0.81499	118.2203
3608200000		0.81693	116.815
3708150000		0.81921	115.4572
3808100000		0.8215	114.1155
3908050000		0.82361	112.784
4008000000		0.82605	111.4676
4107950000		0.82836	110.1581
4207900000		0.83113	108.8594
4307850000		0.83367	107.6039
4407800000		0.83656	106.362
4507750000		0.8393	105.1365
4607700000		0.84183	103.8537
4707650000		0.84469	102.6638
4807600000		0.84671	101.4173
4907550000		0.84881	100.2232
5007500000		0.85032	99.0126
5107450000		0.8518	97.7807
5207400000		0.85303	96.6436
5307350000		0.85376	95.492
5407300000		0.85467	94.355
5507250000		0.85514	93.3079
5607200000		0.85528	92.204
5707150000		0.85607	91.2026
5807100000		0.85606	90.176
5907050000		0.8567	89.1631
6007000000		0.85683	88.1944
6106950000		0.85755	87.2096
6206900000		0.85769	86.2494
6306850000		0.85871	85.2738
6406800000		0.85886	84.3388
6506750000		0.85972	83.3714
6606700000		0.86019	82.413
6706650000		0.86074	81.4292
6806600000		0.86167	80.5007
6906550000		0.86227	79.5128
7006500000		0.86324	78.4471
7106450000		0.8643	77.4873
7206400000		0.8645	76.4131
7306350000		0.86539	75.3555
!
!				Infineon Technologies AG
