! Infineon Technologies  Discrete & RF Semiconductors
! BAT17-04
! VCA = 0.8 V
! One-Port S-Parameters
# Hz  S  MA  R  50
!f									S11
!Hz							Mag  Ang
309850000		0.99995	-4.9337
409800000		0.99963	-6.5169
509750000		1.0001	-8.1084
609700000		0.99959	-9.6771
709650000		0.99948	-11.3107
809600000		0.9996	-12.9125
909550000		0.99972	-14.5908
1009500000		0.99908	-16.1847
1109450000		0.99889	-17.8902
1209400000		0.99901	-19.573
1309350000		0.9984	-21.2795
1409300000		0.99719	-22.9575
1509250000		0.997	-24.6767
1609200000		0.99627	-26.414
1709150000		0.99498	-28.1838
1809100000		0.99355	-29.908
1909050000		0.99292	-31.6659
2009000000		0.99179	-33.4385
2108950000		0.9906	-35.2923
2208900000		0.98937	-37.0923
2308850000		0.9891	-38.9137
2408800000		0.98865	-40.8577
2508750000		0.98844	-42.7253
2608700000		0.98815	-44.7427
2708650000		0.98786	-46.6325
2808600000		0.98804	-48.8
2908550000		0.988	-50.8338
3008500000		0.98784	-53.025
3108450000		0.98835	-55.3365
3208400000		0.98769	-57.6044
3308350000		0.98686	-59.9747
3408300000		0.98608	-62.4192
3508250000		0.98546	-64.9433
3608200000		0.98364	-67.4093
3708150000		0.98148	-70.0507
3808100000		0.97914	-72.7114
3908050000		0.97666	-75.373
4008000000		0.97388	-78.1207
4107950000		0.97077	-80.8652
4207900000		0.96725	-83.6829
4307850000		0.96401	-86.5528
4407800000		0.9609	-89.4651
4507750000		0.95801	-92.4086
4607700000		0.95542	-95.3814
4707650000		0.95278	-98.4538
4807600000		0.95084	-101.5161
4907550000		0.94938	-104.6652
5007500000		0.94847	-107.8542
5107450000		0.9479	-111.0645
5207400000		0.94719	-114.4291
5307350000		0.94715	-117.7545
5407300000		0.94656	-121.2022
5507250000		0.9466	-124.7169
5607200000		0.94637	-128.1923
5707150000		0.94574	-131.7706
5807100000		0.94522	-135.2847
5907050000		0.944	-138.8871
6007000000		0.94309	-142.4274
6106950000		0.94178	-146.0325
6206900000		0.94066	-149.5531
6306850000		0.93905	-153.0696
6406800000		0.93748	-156.5681
6506750000		0.93623	-160.0194
6606700000		0.93449	-163.4385
6706650000		0.93346	-166.8202
6806600000		0.9322	-170.1909
6906550000		0.93137	-173.4276
7006500000		0.93006	-176.7222
7106450000		0.92942	179.9979
7206400000		0.92859	176.8567
7306350000		0.92788	173.6042
!
!				Infineon Technologies AG
