! Infineon Technologies  Discrete & RF Semiconductors
! BAT17-04
! IAC = 4 mA
! One-Port S-Parameters
# Hz  S  MA  R  50
!f									S11
!Hz							Mag  Ang
309850000		0.68597	173.6611
409800000		0.68559	171.7041
509750000		0.68514	169.7926
609700000		0.685	167.8593
709650000		0.68454	166.0264
809600000		0.68485	164.158
909550000		0.6849	162.2986
1009500000		0.68555	160.3921
1109450000		0.68637	158.6584
1209400000		0.68735	156.7987
1309350000		0.68805	154.9755
1409300000		0.68913	153.1618
1509250000		0.69083	151.4313
1609200000		0.69261	149.5602
1709150000		0.69433	147.7804
1809100000		0.69579	146.0123
1909050000		0.6981	144.2999
2009000000		0.70029	142.4826
2108950000		0.70234	140.754
2208900000		0.70388	139.0726
2308850000		0.70606	137.337
2408800000		0.70794	135.6739
2508750000		0.70989	133.9403
2608700000		0.71172	132.348
2708650000		0.71375	130.66
2808600000		0.71611	129.1332
2908550000		0.71783	127.51
3008500000		0.72036	125.963
3108450000		0.72215	124.5025
3208400000		0.72474	122.9925
3308350000		0.72707	121.5735
3408300000		0.72969	120.1879
3508250000		0.73196	118.8137
3608200000		0.73524	117.3821
3708150000		0.73821	116.0787
3808100000		0.74122	114.7564
3908050000		0.74399	113.4396
4008000000		0.74736	112.1394
4107950000		0.75049	110.8517
4207900000		0.7541	109.5721
4307850000		0.75742	108.3347
4407800000		0.76114	107.1159
4507750000		0.7646	105.9169
4607700000		0.76802	104.6534
4707650000		0.77161	103.489
4807600000		0.77445	102.264
4907550000		0.77734	101.0982
5007500000		0.77973	99.9148
5107450000		0.78225	98.7032
5207400000		0.78441	97.5862
5307350000		0.786	96.4587
5407300000		0.78785	95.3376
5507250000		0.78938	94.3093
5607200000		0.79055	93.2167
5707150000		0.79236	92.2337
5807100000		0.79307	91.2232
5907050000		0.7947	90.2182
6007000000		0.79561	89.263
6106950000		0.79716	88.2917
6206900000		0.79805	87.346
6306850000		0.79983	86.3802
6406800000		0.80072	85.4536
6506750000		0.80227	84.4976
6606700000		0.80346	83.5501
6706650000		0.8047	82.5759
6806600000		0.80619	81.6588
6906550000		0.80744	80.6827
7006500000		0.809	79.6243
7106450000		0.81063	78.6795
7206400000		0.8114	77.6171
7306350000		0.81291	76.5693
!
!				Infineon Technologies AG
