! Infineon Technologies  Discrete & RF Semiconductors
! BAT17-04
! VCA = 1 V
! One-Port S-Parameters
# Hz  S  MA  R  50
!f									S11
!Hz							Mag  Ang
309850000		1.0003	-4.8342
409800000		0.99966	-6.338
509750000		1	-7.8863
609700000		0.99965	-9.4102
709650000		0.99952	-10.9972
809600000		0.99969	-12.5549
909550000		0.99982	-14.1875
1009500000		0.99913	-15.7358
1109450000		0.99899	-17.3936
1209400000		0.99914	-19.0288
1309350000		0.99855	-20.6877
1409300000		0.99741	-22.3173
1509250000		0.99715	-23.9858
1609200000		0.99644	-25.6751
1709150000		0.99528	-27.391
1809100000		0.99384	-29.0659
1909050000		0.9932	-30.7691
2009000000		0.99232	-32.5231
2108950000		0.99096	-34.2862
2208900000		0.98996	-36.0635
2308850000		0.98945	-37.7886
2408800000		0.98927	-39.7091
2508750000		0.98887	-41.4772
2608700000		0.98869	-43.431
2708650000		0.98856	-45.2878
2808600000		0.98864	-47.3538
2908550000		0.98892	-49.355
3008500000		0.98871	-51.4686
3108450000		0.98907	-53.6739
3208400000		0.98852	-55.8667
3308350000		0.98776	-58.1605
3408300000		0.98706	-60.5258
3508250000		0.98652	-62.9708
3608200000		0.98491	-65.3545
3708150000		0.98289	-67.9159
3808100000		0.98062	-70.4964
3908050000		0.9783	-73.0754
4008000000		0.97556	-75.7388
4107950000		0.97253	-78.402
4207900000		0.96911	-81.1329
4307850000		0.96595	-83.9182
4407800000		0.96288	-86.7468
4507750000		0.95995	-89.6062
4607700000		0.95735	-92.4922
4707650000		0.95469	-95.4828
4807600000		0.95273	-98.4621
4907550000		0.95124	-101.5269
5007500000		0.95023	-104.6346
5107450000		0.94967	-107.7644
5207400000		0.94891	-111.0511
5307350000		0.94878	-114.3044
5407300000		0.9482	-117.6782
5507250000		0.9482	-121.1296
5607200000		0.94802	-124.5397
5707150000		0.94733	-128.062
5807100000		0.94685	-131.5334
5907050000		0.94567	-135.0908
6007000000		0.94479	-138.5963
6106950000		0.94343	-142.1726
6206900000		0.94236	-145.6756
6306850000		0.94069	-149.1773
6406800000		0.93913	-152.6668
6506750000		0.93779	-156.1157
6606700000		0.93601	-159.5397
6706650000		0.93495	-162.9272
6806600000		0.93366	-166.3121
6906550000		0.93273	-169.5677
7006500000		0.9314	-172.8773
7106450000		0.93068	-176.185
7206400000		0.9297	-179.3497
7306350000		0.92894	177.3682
!
!				Infineon Technologies AG
