! Infineon Technologies  Discrete & RF Semiconductors
! BAT17-04
! VCA = 0.5 V
! One-Port S-Parameters
# Hz  S  MA  R  50
!f									S11
!Hz							Mag  Ang
309850000		0.99998	-5.2245
409800000		0.99959	-6.9006
509750000		0.99988	-8.586
609700000		0.99957	-10.2491
709650000		0.99948	-11.9797
809600000		0.99948	-13.6781
909550000		0.99959	-15.454
1009500000		0.99895	-17.1463
1109450000		0.99868	-18.9531
1209400000		0.99876	-20.7354
1309350000		0.99811	-22.5456
1409300000		0.99686	-24.3258
1509250000		0.99659	-26.1517
1609200000		0.99574	-27.9954
1709150000		0.99445	-29.8784
1809100000		0.99293	-31.712
1909050000		0.99222	-33.5842
2009000000		0.99133	-35.5043
2108950000		0.9896	-37.418
2208900000		0.98877	-39.4033
2308850000		0.988	-41.2809
2408800000		0.98798	-43.4233
2508750000		0.98739	-45.3888
2608700000		0.9871	-47.5424
2708650000		0.98696	-49.6094
2808600000		0.9868	-51.8857
2908550000		0.98686	-54.106
3008500000		0.98649	-56.4435
3108450000		0.98662	-58.8818
3208400000		0.9858	-61.3102
3308350000		0.9848	-63.8412
3408300000		0.98369	-66.4542
3508250000		0.98282	-69.1421
3608200000		0.98079	-71.7811
3708150000		0.9784	-74.5879
3808100000		0.97587	-77.4193
3908050000		0.97313	-80.2463
4008000000		0.97016	-83.1703
4107950000		0.96692	-86.0851
4207900000		0.96327	-89.0776
4307850000		0.95993	-92.1168
4407800000		0.95677	-95.2051
4507750000		0.95382	-98.3135
4607700000		0.95124	-101.4569
4707650000		0.94871	-104.6916
4807600000		0.94689	-107.9167
4907550000		0.94558	-111.2281
5007500000		0.9447	-114.5726
5107450000		0.94435	-117.9373
5207400000		0.9437	-121.4519
5307350000		0.94376	-124.9093
5407300000		0.94322	-128.4927
5507250000		0.94327	-132.1191
5607200000		0.94306	-135.7027
5707150000		0.94249	-139.3694
5807100000		0.94182	-142.9555
5907050000		0.94065	-146.6235
6007000000		0.9397	-150.2066
6106950000		0.9384	-153.8508
6206900000		0.93734	-157.3866
6306850000		0.9358	-160.9084
6406800000		0.93425	-164.3976
6506750000		0.93308	-167.8314
6606700000		0.93149	-171.2199
6706650000		0.93061	-174.5668
6806600000		0.92953	-177.8855
6906550000		0.92885	178.9328
7006500000		0.92774	175.6878
7106450000		0.92732	172.4824
7206400000		0.92656	169.4082
7306350000		0.92602	166.2333
!
!				Infineon Technologies AG
