! Infineon Technologies  Discrete & RF Semiconductors
! BAT17-04
! IAC = 0.9 mA
! One-Port S-Parameters
# Hz  S  MA  R  50
!f									S11
!Hz							Mag  Ang
309850000		0.15066	175.7028
409800000		0.15322	174.2782
509750000		0.1541	173.4248
609700000		0.15646	172.2853
709650000		0.15537	172.0142
809600000		0.15665	171.3588
909550000		0.15861	171.1156
1009500000		0.16346	169.7583
1109450000		0.16571	169.1041
1209400000		0.16954	167.429
1309350000		0.17223	166.9916
1409300000		0.1756	166.0237
1509250000		0.18234	165.1122
1609200000		0.18654	163.893
1709150000		0.19075	162.3736
1809100000		0.19684	161.5052
1909050000		0.20431	160.053
2009000000		0.21074	158.8885
2108950000		0.21646	158.018
2208900000		0.22185	157.1743
2308850000		0.22938	155.807
2408800000		0.23391	154.888
2508750000		0.24006	153.6233
2608700000		0.24794	152.6189
2708650000		0.25518	151.0913
2808600000		0.26487	149.9943
2908550000		0.27202	148.6273
3008500000		0.28132	146.4958
3108450000		0.28946	145.3218
3208400000		0.29953	143.7809
3308350000		0.30795	142.819
3408300000		0.31758	141.4664
3508250000		0.32662	140.2455
3608200000		0.33764	138.3004
3708150000		0.34744	137.1338
3808100000		0.35617	135.9636
3908050000		0.36498	134.7201
4008000000		0.37613	133.1839
4107950000		0.38638	131.7798
4207900000		0.39629	130.5516
4307850000		0.40586	129.3221
4407800000		0.41723	127.8931
4507750000		0.42699	126.7078
4607700000		0.43746	125.2533
4707650000		0.44738	124.127
4807600000		0.45679	122.8458
4907550000		0.46644	121.7018
5007500000		0.47626	120.4068
5107450000		0.48687	118.7833
5207400000		0.49602	117.7313
5307350000		0.50459	116.6438
5407300000		0.51385	115.3653
5507250000		0.52322	113.9852
5607200000		0.53176	112.6345
5707150000		0.54068	111.4735
5807100000		0.54791	110.3904
5907050000		0.55645	109.0779
6007000000		0.56344	108.0784
6106950000		0.57129	106.9509
6206900000		0.57827	105.8215
6306850000		0.58589	104.6729
6406800000		0.59267	103.5271
6506750000		0.59976	102.3751
6606700000		0.60633	101.2309
6706650000		0.613	100.0589
6806600000		0.61969	99.0135
6906550000		0.62588	97.7793
7006500000		0.63224	96.5921
7106450000		0.63885	95.521
7206400000		0.64414	94.3015
7306350000		0.65028	93.0324
!
!				Infineon Technologies AG
