! Infineon Technologies  Discrete & RF Semiconductors
! BAT17-04
! IAC = 3 mA
! One-Port S-Parameters
# Hz  S  MA  R  50
!f									S11
!Hz							Mag  Ang
309850000		0.62091	173.6882
409800000		0.62085	171.746
509750000		0.62061	169.8518
609700000		0.62086	167.9004
709650000		0.62032	166.1281
809600000		0.62066	164.2836
909550000		0.62105	162.4518
1009500000		0.62215	160.5613
1109450000		0.6233	158.8459
1209400000		0.62448	157.0016
1309350000		0.62534	155.1988
1409300000		0.62672	153.4015
1509250000		0.62885	151.6909
1609200000		0.63084	149.8364
1709150000		0.63311	148.0663
1809100000		0.63493	146.3219
1909050000		0.6376	144.629
2009000000		0.63999	142.8399
2108950000		0.64263	141.1309
2208900000		0.64423	139.5097
2308850000		0.64708	137.7637
2408800000		0.64912	136.1588
2508750000		0.65178	134.4128
2608700000		0.654	132.8818
2708650000		0.6567	131.1814
2808600000		0.65986	129.6741
2908550000		0.66208	128.0712
3008500000		0.66538	126.5238
3108450000		0.66786	125.0513
3208400000		0.67111	123.5914
3308350000		0.67393	122.1958
3408300000		0.67715	120.8272
3508250000		0.68004	119.4734
3608200000		0.68416	118.0441
3708150000		0.68759	116.7609
3808100000		0.69101	115.4608
3908050000		0.69419	114.162
4008000000		0.69825	112.88
4107950000		0.70194	111.6067
4207900000		0.70612	110.3431
4307850000		0.71	109.1246
4407800000		0.71428	107.9221
4507750000		0.71826	106.743
4607700000		0.72222	105.4973
4707650000		0.72637	104.3529
4807600000		0.72967	103.1514
4907550000		0.73315	102.0067
5007500000		0.73615	100.8419
5107450000		0.73947	99.6385
5207400000		0.74221	98.542
5307350000		0.74435	97.4375
5407300000		0.74694	96.3308
5507250000		0.74926	95.3096
5607200000		0.75105	94.2268
5707150000		0.75354	93.2539
5807100000		0.7548	92.2563
5907050000		0.7571	91.2568
6007000000		0.75855	90.3155
6106950000		0.76068	89.3509
6206900000		0.76218	88.4117
6306850000		0.76439	87.4567
6406800000		0.76584	86.5377
6506750000		0.76792	85.5856
6606700000		0.76961	84.6434
6706650000		0.7713	83.6801
6806600000		0.77322	82.773
6906550000		0.77496	81.8002
7006500000		0.77693	80.7482
7106450000		0.77901	79.812
7206400000		0.78023	78.7576
7306350000		0.78219	77.7104
!
!				Infineon Technologies AG
