! Infineon Technologies  Discrete & RF Semiconductors
! BAT17-04
! IAC = 0.1 mA
! One-Port S-Parameters
# Hz  S  MA  R  50
!f									S11
!Hz							Mag  Ang
309850000		0.77537	-7.7875
409800000		0.77548	-10.2873
509750000		0.77507	-12.8666
609700000		0.77484	-15.3992
709650000		0.77705	-18.0829
809600000		0.77049	-20.7787
909550000		0.77108	-23.5638
1009500000		0.77241	-26.1454
1109450000		0.77511	-28.8191
1209400000		0.76908	-31.5097
1309350000		0.76614	-34.4006
1409300000		0.76273	-37.188
1509250000		0.75941	-40.1059
1609200000		0.75765	-42.9506
1709150000		0.76422	-45.5228
1809100000		0.76102	-48.5204
1909050000		0.75485	-51.5398
2009000000		0.74721	-54.6998
2108950000		0.75165	-57.702
2208900000		0.74709	-60.8993
2308850000		0.74299	-64.0494
2408800000		0.73822	-67.4899
2508750000		0.73998	-70.5221
2608700000		0.73939	-73.9512
2708650000		0.73439	-77.3505
2808600000		0.73891	-80.7828
2908550000		0.73395	-84.4732
3008500000		0.73015	-88.0003
3108450000		0.72765	-91.8611
3208400000		0.73173	-95.3067
3308350000		0.72943	-99.2374
3408300000		0.72336	-103.2939
3508250000		0.72156	-107.3316
3608200000		0.72251	-111.057
3708150000		0.71889	-115.2682
3808100000		0.71459	-119.477
3908050000		0.70991	-123.6734
4008000000		0.70647	-128.0099
4107950000		0.70618	-132.0273
4207900000		0.7112	-135.7775
4307850000		0.71478	-139.5397
4407800000		0.71217	-143.965
4507750000		0.71123	-148.1824
4607700000		0.71282	-152.2495
4707650000		0.72171	-155.7434
4807600000		0.72251	-159.835
4907550000		0.72775	-163.6564
5007500000		0.73007	-167.7143
5107450000		0.73421	-171.5967
5207400000		0.73965	-175.3794
5307350000		0.7461	-178.9194
5407300000		0.75092	177.3834
5507250000		0.75436	173.6418
5607200000		0.7585	170.1186
5707150000		0.76453	166.7863
5807100000		0.7692	163.6035
5907050000		0.77173	160.1299
6007000000		0.77716	157.2064
6106950000		0.78247	154.215
6206900000		0.78679	151.3609
6306850000		0.78963	148.3504
6406800000		0.79235	145.511
6506750000		0.79654	142.8159
6606700000		0.7997	140.1655
6706650000		0.80273	137.5031
6806600000		0.807	135.055
6906550000		0.80968	132.553
7006500000		0.81414	130.1744
7106450000		0.81829	127.8351
7206400000		0.82152	125.5615
7306350000		0.82465	123.1693
!
!				Infineon Technologies AG
