! Infineon Technologies  Discrete & RF Semiconductors
! BAT17-04
! VCA = 0.3 V
! One-Port S-Parameters
# Hz  S  MA  R  50
!f									S11
!Hz							Mag  Ang
309850000		1.0001	-5.5458
409800000		0.99953	-7.2839
509750000		0.99958	-9.031
609700000		0.99939	-10.8218
709650000		0.99927	-12.6456
809600000		0.99929	-14.4389
909550000		0.99937	-16.3158
1009500000		0.99865	-18.1081
1109450000		0.99837	-20.0143
1209400000		0.99848	-21.8957
1309350000		0.99773	-23.809
1409300000		0.99641	-25.6948
1509250000		0.99606	-27.6269
1609200000		0.99518	-29.5776
1709150000		0.99385	-31.5694
1809100000		0.99223	-33.5157
1909050000		0.99142	-35.501
2009000000		0.99046	-37.5355
2108950000		0.98892	-39.5999
2208900000		0.9878	-41.6744
2308850000		0.98712	-43.713
2408800000		0.98656	-45.9109
2508750000		0.98623	-48.0506
2608700000		0.98585	-50.3409
2708650000		0.98553	-52.5467
2808600000		0.98534	-54.9665
2908550000		0.98527	-57.3353
3008500000		0.98468	-59.8285
3108450000		0.9846	-62.4162
3208400000		0.98359	-65.0038
3308350000		0.98223	-67.6572
3408300000		0.98107	-70.4674
3508250000		0.97972	-73.2801
3608200000		0.9777	-76.12
3708150000		0.97512	-79.0892
3808100000		0.97229	-82.083
3908050000		0.96933	-85.0667
4008000000		0.9662	-88.154
4107950000		0.96283	-91.2288
4207900000		0.95912	-94.3867
4307850000		0.95566	-97.5833
4407800000		0.95244	-100.8253
4507750000		0.94959	-104.084
4607700000		0.94703	-107.3827
4707650000		0.94469	-110.7634
4807600000		0.94293	-114.1296
4907550000		0.94171	-117.5782
5007500000		0.94099	-121.0537
5107450000		0.94087	-124.5484
5207400000		0.94027	-128.1825
5307350000		0.94043	-131.7418
5407300000		0.93994	-135.431
5507250000		0.94017	-139.1322
5607200000		0.93985	-142.7911
5707150000		0.93937	-146.5135
5807100000		0.93873	-150.1368
5907050000		0.93758	-153.8383
6007000000		0.93659	-157.4271
6106950000		0.93533	-161.0772
6206900000		0.93433	-164.5992
6306850000		0.93293	-168.0984
6406800000		0.93138	-171.5501
6506750000		0.93035	-174.9422
6606700000		0.92893	-178.2786
6706650000		0.92812	178.434
6806600000		0.92722	175.1878
6906550000		0.92669	172.0767
7006500000		0.92578	168.9
7106450000		0.92557	165.7824
7206400000		0.9249	162.785
7306350000		0.92457	159.693
!
!				Infineon Technologies AG
