! Infineon Technologies  Discrete & RF Semiconductors
! BAT17-04
! IAC = 0.6 mA
! One-Port S-Parameters
# Hz  S  MA  R  50
!f									S11
!Hz							Mag  Ang
309850000		0.07051	-13.7506
409800000		0.0682	-18.0357
509750000		0.06846	-23.6424
609700000		0.06707	-29.5666
709650000		0.07133	-35.8443
809600000		0.07057	-42.6687
909550000		0.07377	-49.9385
1009500000		0.07218	-56.367
1109450000		0.07556	-61.7538
1209400000		0.07232	-67.5304
1309350000		0.07592	-75.2237
1409300000		0.07812	-81.4732
1509250000		0.07973	-90.8059
1609200000		0.08291	-96.7269
1709150000		0.08598	-100.1296
1809100000		0.0912	-107.7131
1909050000		0.09334	-116.0143
2009000000		0.09831	-123.5052
2108950000		0.1068	-127.3515
2208900000		0.1142	-132.4081
2308850000		0.12066	-138.2587
2408800000		0.1279	-141.8697
2508750000		0.13522	-145.5255
2608700000		0.14525	-149.8586
2708650000		0.15236	-154.4032
2808600000		0.16448	-158.2989
2908550000		0.17306	-162.2467
3008500000		0.17971	-167.3027
3108450000		0.19057	-170.6663
3208400000		0.20147	-174.2663
3308350000		0.21378	-177.0471
3408300000		0.22504	179.2718
3508250000		0.23713	176.3824
3608200000		0.2477	172.6063
3708150000		0.26088	169.755
3808100000		0.27258	167.2132
3908050000		0.28426	164.5619
4008000000		0.29737	161.4404
4107950000		0.30987	158.7785
4207900000		0.32292	156.7589
4307850000		0.33543	154.6857
4407800000		0.34921	151.9247
4507750000		0.362	149.7163
4607700000		0.37478	147.3066
4707650000		0.38803	145.6207
4807600000		0.40006	143.5328
4907550000		0.4131	141.7153
5007500000		0.42592	139.6019
5107450000		0.43823	137.1439
5207400000		0.45117	135.5181
5307350000		0.46331	133.9033
5407300000		0.4754	132.0079
5507250000		0.48687	129.9235
5607200000		0.49769	128.0228
5707150000		0.50932	126.2945
5807100000		0.5194	124.7741
5907050000		0.52987	122.88
6007000000		0.53975	121.509
6106950000		0.55005	119.9639
6206900000		0.5592	118.4301
6306850000		0.5688	116.8296
6406800000		0.57736	115.2662
6506750000		0.58634	113.7452
6606700000		0.5946	112.232
6706650000		0.60283	110.6886
6806600000		0.61139	109.3251
6906550000		0.61873	107.7496
7006500000		0.62682	106.2909
7106450000		0.63503	104.9257
7206400000		0.6417	103.4521
7306350000		0.64902	101.8933
!
!				Infineon Technologies AG
