! Infineon Technologies  Discrete & RF Semiconductors
! BAT17-04
! IAC = 0.01 mA
! One-Port S-Parameters
# Hz  S  MA  R  50
!f									S11
!Hz							Mag  Ang
309850000		0.97531	-7.2365
409800000		0.97507	-9.569
509750000		0.97504	-11.9237
609700000		0.97462	-14.2499
709650000		0.97462	-16.6406
809600000		0.9735	-19.0795
909550000		0.97337	-21.5449
1009500000		0.97287	-23.8984
1109450000		0.9727	-26.3487
1209400000		0.97162	-28.8996
1309350000		0.97015	-31.4561
1409300000		0.96809	-33.9876
1509250000		0.96703	-36.569
1609200000		0.9656	-39.1669
1709150000		0.96478	-41.6284
1809100000		0.96242	-44.2422
1909050000		0.9606	-46.9746
2009000000		0.95848	-49.8274
2108950000		0.95721	-52.4572
2208900000		0.95516	-55.3137
2308850000		0.95366	-58.1529
2408800000		0.95199	-61.282
2508750000		0.95127	-64.0209
2608700000		0.9504	-67.0612
2708650000		0.94864	-70.1661
2808600000		0.94874	-73.195
2908550000		0.94694	-76.5104
3008500000		0.94481	-79.8189
3108450000		0.94327	-83.3261
3208400000		0.94232	-86.4513
3308350000		0.93987	-90.0296
3408300000		0.93641	-93.813
3508250000		0.93395	-97.5075
3608200000		0.93133	-100.9097
3708150000		0.92734	-104.7508
3808100000		0.92338	-108.7447
3908050000		0.91891	-112.6927
4008000000		0.91505	-116.6886
4107950000		0.91194	-120.4564
4207900000		0.90964	-124.009
4307850000		0.9074	-127.6652
4407800000		0.90437	-131.7852
4507750000		0.90194	-135.8683
4607700000		0.90046	-139.7933
4707650000		0.90098	-143.2654
4807600000		0.89982	-147.3306
4907550000		0.90039	-151.1665
5007500000		0.90053	-155.21
5107450000		0.90176	-159.0296
5207400000		0.90237	-162.9332
5307350000		0.90393	-166.608
5407300000		0.90428	-170.4419
5507250000		0.9051	-174.2928
5607200000		0.90544	-177.9723
5707150000		0.90644	178.5131
5807100000		0.90629	175.0827
5907050000		0.90584	171.3952
6007000000		0.90591	168.2054
6106950000		0.90605	164.966
6206900000		0.90596	161.8736
6306850000		0.90563	158.6017
6406800000		0.90481	155.5061
6506750000		0.90511	152.5787
6606700000		0.90478	149.69
6706650000		0.90488	146.7789
6806600000		0.90537	144.0781
6906550000		0.9056	141.3701
7006500000		0.90613	138.776
7106450000		0.9071	136.1946
7206400000		0.90733	133.7207
7306350000		0.90785	131.1192
!
!				Infineon Technologies AG
