! Infineon Technologies  Discrete & RF Semiconductors
! BAT17-04
! VCA = 0.2 V
! One-Port S-Parameters
# Hz  S  MA  R  50
!f									S11
!Hz							Mag  Ang
309850000		0.99992	-5.705
409800000		0.99946	-7.537
509750000		0.99975	-9.3783
609700000		0.99938	-11.2006
709650000		0.99924	-13.0916
809600000		0.9992	-14.947
909550000		0.99928	-16.8863
1009500000		0.99858	-18.7463
1109450000		0.99831	-20.7184
1209400000		0.99831	-22.6687
1309350000		0.99752	-24.65
1409300000		0.99614	-26.6035
1509250000		0.9958	-28.6066
1609200000		0.99487	-30.6302
1709150000		0.99342	-32.6952
1809100000		0.99179	-34.7133
1909050000		0.99092	-36.776
2009000000		0.98995	-38.8871
2108950000		0.98831	-41.0325
2208900000		0.98713	-43.1842
2308850000		0.98642	-45.3098
2408800000		0.98587	-47.5916
2508750000		0.98544	-49.8197
2608700000		0.98477	-52.1634
2708650000		0.98458	-54.4987
2808600000		0.98433	-57.0141
2908550000		0.98419	-59.4799
3008500000		0.98338	-62.0718
3108450000		0.98321	-64.7594
3208400000		0.98186	-67.42
3308350000		0.98077	-70.2427
3408300000		0.9792	-73.1227
3508250000		0.97794	-76.074
3608200000		0.9755	-78.9832
3708150000		0.97278	-82.058
3808100000		0.96987	-85.1534
3908050000		0.96672	-88.2364
4008000000		0.96346	-91.4296
4107950000		0.96014	-94.6018
4207900000		0.95629	-97.8596
4307850000		0.95282	-101.1548
4407800000		0.94959	-104.4931
4507750000		0.94682	-107.842
4607700000		0.94431	-111.2332
4707650000		0.94202	-114.6983
4807600000		0.9404	-118.1453
4907550000		0.93936	-121.6746
5007500000		0.93871	-125.2233
5107450000		0.93862	-128.7883
5207400000		0.93813	-132.4849
5307350000		0.93834	-136.1
5407300000		0.93789	-139.8388
5507250000		0.9382	-143.5779
5607200000		0.93785	-147.2714
5707150000		0.93746	-151.0103
5807100000		0.93679	-154.642
5907050000		0.93575	-158.349
6007000000		0.93475	-161.9294
6106950000		0.93358	-165.5697
6206900000		0.93255	-169.0655
6306850000		0.93129	-172.5401
6406800000		0.92973	-175.9553
6506750000		0.92882	-179.3092
6606700000		0.92746	177.4017
6706650000		0.92679	174.1574
6806600000		0.92594	170.9656
6906550000		0.92556	167.907
7006500000		0.92473	164.7818
7106450000		0.92455	161.7274
7206400000		0.92397	158.784
7306350000		0.92372	155.7548
!
!				Infineon Technologies AG
