! Infineon Technologies  Discrete & RF Semiconductors
! BAT17-04
! IAC = 0.08 mA
! One-Port S-Parameters
# Hz  S  MA  R  50
!f									S11
!Hz							Mag  Ang
309850000		0.81717	-7.7254
409800000		0.81753	-10.2395
509750000		0.81672	-12.7343
609700000		0.8167	-15.2617
709650000		0.81854	-17.8987
809600000		0.81271	-20.5593
909550000		0.81314	-23.2892
1009500000		0.81435	-25.8414
1109450000		0.81658	-28.4845
1209400000		0.81128	-31.1773
1309350000		0.80846	-34.0057
1409300000		0.80523	-36.7585
1509250000		0.80237	-39.6168
1609200000		0.80056	-42.4228
1709150000		0.80606	-44.9869
1809100000		0.80299	-47.9134
1909050000		0.7976	-50.8983
2009000000		0.79097	-54.0386
2108950000		0.79439	-56.9385
2208900000		0.7901	-60.0821
2308850000		0.78654	-63.2139
2408800000		0.78169	-66.5473
2508750000		0.78333	-69.5717
2608700000		0.78268	-72.9332
2708650000		0.77806	-76.288
2808600000		0.78217	-79.6712
2908550000		0.77743	-83.2835
3008500000		0.77391	-86.782
3108450000		0.77137	-90.586
3208400000		0.77488	-93.9741
3308350000		0.77233	-97.8467
3408300000		0.7665	-101.8926
3508250000		0.76435	-105.8459
3608200000		0.76483	-109.5173
3708150000		0.76098	-113.6743
3808100000		0.75636	-117.8505
3908050000		0.75137	-122.0089
4008000000		0.74758	-126.2899
4107950000		0.74679	-130.2681
4207900000		0.75055	-133.9888
4307850000		0.75323	-137.7594
4407800000		0.75004	-142.1123
4507750000		0.74855	-146.3159
4607700000		0.74947	-150.3646
4707650000		0.75707	-153.8572
4807600000		0.75727	-157.9547
4907550000		0.76155	-161.7848
5007500000		0.76324	-165.8504
5107450000		0.76683	-169.726
5207400000		0.77123	-173.537
5307350000		0.77674	-177.1076
5407300000		0.78066	179.1652
5507250000		0.78347	175.4
5607200000		0.78681	171.8422
5707150000		0.79199	168.4795
5807100000		0.79568	165.25
5907050000		0.7975	161.7375
6007000000		0.80199	158.7657
6106950000		0.80634	155.7318
6206900000		0.80988	152.8362
6306850000		0.81201	149.7818
6406800000		0.81396	146.9026
6506750000		0.81742	144.1669
6606700000		0.81992	141.4786
6706650000		0.82232	138.776
6806600000		0.82585	136.288
6906550000		0.82806	133.7524
7006500000		0.83185	131.3391
7106450000		0.83534	128.963
7206400000		0.83807	126.6585
7306350000		0.84072	124.2322
!
!				Infineon Technologies AG
