! Infineon Technologies  Discrete & RF Semiconductors
! BAT17-04
! IAC = 9 mA
! One-Port S-Parameters
# Hz  S  MA  R  50
!f									S11
!Hz							Mag  Ang
309850000		0.80244	173.6368
409800000		0.80135	171.7021
509750000		0.80068	169.7666
609700000		0.80027	167.7907
709650000		0.79942	165.9373
809600000		0.79954	164.0464
909550000		0.79903	162.1615
1009500000		0.79899	160.2436
1109450000		0.7992	158.4918
1209400000		0.7998	156.6189
1309350000		0.79995	154.7807
1409300000		0.80054	152.9502
1509250000		0.80159	151.2007
1609200000		0.8029	149.317
1709150000		0.80367	147.5261
1809100000		0.80445	145.7352
1909050000		0.80613	144.003
2009000000		0.80786	142.1597
2108950000		0.80895	140.4108
2208900000		0.80983	138.7006
2308850000		0.81108	136.9423
2408800000		0.81234	135.2481
2508750000		0.81306	133.5245
2608700000		0.81409	131.8733
2708650000		0.81504	130.1644
2808600000		0.81624	128.6131
2908550000		0.81686	126.972
3008500000		0.81816	125.4281
3108450000		0.81899	123.9118
3208400000		0.82016	122.4217
3308350000		0.82151	120.9776
3408300000		0.82304	119.5756
3508250000		0.82442	118.1821
3608200000		0.82642	116.7427
3708150000		0.82852	115.42
3808100000		0.83073	114.0763
3908050000		0.83274	112.744
4008000000		0.83501	111.4241
4107950000		0.83721	110.1163
4207900000		0.83987	108.8161
4307850000		0.84234	107.5563
4407800000		0.84514	106.3135
4507750000		0.84786	105.0867
4607700000		0.85028	103.8019
4707650000		0.85303	102.6072
4807600000		0.85501	101.3593
4907550000		0.85701	100.1629
5007500000		0.85839	98.9514
5107450000		0.85975	97.7187
5207400000		0.86092	96.5779
5307350000		0.86154	95.4249
5407300000		0.86229	94.2847
5507250000		0.86268	93.2346
5607200000		0.86275	92.1298
5707150000		0.86347	91.1286
5807100000		0.86328	90.0998
5907050000		0.86386	89.0861
6007000000		0.86395	88.1156
6106950000		0.86451	87.1311
6206900000		0.86459	86.1697
6306850000		0.86553	85.1915
6406800000		0.8656	84.2566
6506750000		0.86638	83.2886
6606700000		0.86681	82.3307
6706650000		0.8673	81.3446
6806600000		0.86813	80.4146
6906550000		0.86867	79.4282
7006500000		0.86953	78.3597
7106450000		0.87061	77.3968
7206400000		0.87075	76.3245
7306350000		0.87153	75.2661
!
!				Infineon Technologies AG
