! Infineon Technologies  Discrete & RF Semiconductors
! BAT17-04
! IAC = 0.07 mA
! One-Port S-Parameters
# Hz  S  MA  R  50
!f									S11
!Hz							Mag  Ang
309850000		0.83864	-7.6925
409800000		0.83871	-10.1641
509750000		0.83817	-12.6768
609700000		0.83807	-15.1853
709650000		0.83975	-17.7969
809600000		0.83431	-20.4385
909550000		0.83472	-23.1417
1009500000		0.83583	-25.6775
1109450000		0.83777	-28.3029
1209400000		0.83296	-30.9934
1309350000		0.83029	-33.7911
1409300000		0.8271	-36.5254
1509250000		0.82445	-39.3519
1609200000		0.82265	-42.1394
1709150000		0.8275	-44.6986
1809100000		0.82458	-47.5854
1909050000		0.8195	-50.5527
2009000000		0.81334	-53.6657
2108950000		0.81631	-56.5331
2208900000		0.81226	-59.6492
2308850000		0.80891	-62.7524
2408800000		0.80422	-66.0676
2508750000		0.80574	-69.068
2608700000		0.80503	-72.3977
2708650000		0.80078	-75.7599
2808600000		0.80438	-79.0694
2908550000		0.7999	-82.6549
3008500000		0.79651	-86.1402
3108450000		0.79404	-89.914
3208400000		0.79711	-93.2746
3308350000		0.79445	-97.1176
3408300000		0.78878	-101.1416
3508250000		0.78652	-105.0685
3608200000		0.78671	-108.7141
3708150000		0.78276	-112.84
3808100000		0.77803	-117.0006
3908050000		0.77292	-121.1401
4008000000		0.7689	-125.3564
4107950000		0.76793	-129.3525
4207900000		0.77111	-133.0533
4307850000		0.77319	-136.8148
4407800000		0.76993	-141.1456
4507750000		0.76818	-145.3384
4607700000		0.76876	-149.3765
4707650000		0.77562	-152.8706
4807600000		0.77548	-156.9662
4907550000		0.77927	-160.802
5007500000		0.78066	-164.8663
5107450000		0.78398	-168.7408
5207400000		0.78784	-172.5677
5307350000		0.79286	-176.15
5407300000		0.79629	-179.8893
5507250000		0.79882	176.335
5607200000		0.80175	172.7621
5707150000		0.8064	169.3796
5807100000		0.80964	166.1284
5907050000		0.81112	162.598
6007000000		0.81503	159.603
6106950000		0.81892	156.5472
6206900000		0.82204	153.6297
6306850000		0.82379	150.5531
6406800000		0.82534	147.6504
6506750000		0.82847	144.8957
6606700000		0.8306	142.1869
6706650000		0.83274	139.4648
6806600000		0.83587	136.9556
6906550000		0.83783	134.4053
7006500000		0.84121	131.9729
7106450000		0.84441	129.5773
7206400000		0.8468	127.2561
7306350000		0.8492	124.8142
!
!				Infineon Technologies AG
