! Infineon Technologies  Discrete & RF Semiconductors
! BAT17-04
! IAC = 0.7 mA
! One-Port S-Parameters
# Hz  S  MA  R  50
!f									S11
!Hz							Mag  Ang
309850000		0.01688	-159.4308
409800000		0.02026	-159.8531
509750000		0.02288	-154.1766
609700000		0.02696	-153.3531
709650000		0.02946	-144.3184
809600000		0.03434	-143.9811
909550000		0.04008	-141.2007
1009500000		0.04544	-145.8784
1109450000		0.04991	-145.1818
1209400000		0.05393	-150.5754
1309350000		0.0607	-150.5711
1409300000		0.06618	-152.2931
1509250000		0.07514	-156.051
1609200000		0.08092	-158.112
1709150000		0.08468	-159.9474
1809100000		0.09363	-162.2591
1909050000		0.10213	-166.4969
2009000000		0.11101	-169.4387
2108950000		0.1189	-170.2796
2208900000		0.12733	-171.9986
2308850000		0.13646	-174.8863
2408800000		0.14352	-176.2336
2508750000		0.15119	-178.1108
2608700000		0.16169	179.9551
2708650000		0.17034	177.2608
2808600000		0.1824	175.3506
2908550000		0.19159	173.0163
3008500000		0.2008	169.4274
3108450000		0.21141	167.5157
3208400000		0.22283	165.1026
3308350000		0.23421	163.5506
3408300000		0.24592	161.1735
3508250000		0.2574	159.3227
3608200000		0.26896	156.4437
3708150000		0.28149	154.5865
3808100000		0.29252	152.8498
3908050000		0.30361	150.9915
4008000000		0.31663	148.6892
4107950000		0.32876	146.6829
4207900000		0.34076	145.1105
4307850000		0.35235	143.4973
4407800000		0.36577	141.398
4507750000		0.3778	139.7096
4607700000		0.39001	137.7692
4707650000		0.40194	136.4174
4807600000		0.41333	134.7166
4907550000		0.42526	133.2476
5007500000		0.43724	131.5383
5107450000		0.44923	129.449
5207400000		0.46086	128.1214
5307350000		0.47175	126.7778
5407300000		0.48295	125.1721
5507250000		0.4939	123.4007
5607200000		0.50404	121.7592
5707150000		0.51484	120.2787
5807100000		0.52394	118.967
5907050000		0.53393	117.3303
6007000000		0.5428	116.1358
6106950000		0.55229	114.7828
6206900000		0.56077	113.4291
6306850000		0.56976	112.0288
6406800000		0.57779	110.6491
6506750000		0.58622	109.2897
6606700000		0.59402	107.9382
6706650000		0.60176	106.555
6806600000		0.60974	105.3317
6906550000		0.61677	103.8988
7006500000		0.62432	102.5578
7106450000		0.63202	101.3189
7206400000		0.63834	99.9535
7306350000		0.64534	98.5184
!
!				Infineon Technologies AG
