! Infineon Technologies  Discrete & RF Semiconductors
! BAT17-04
! IAC = 0.06 mA
! One-Port S-Parameters
# Hz  S  MA  R  50
!f									S11
!Hz							Mag  Ang
309850000		0.86046	-7.6576
409800000		0.86041	-10.1153
509750000		0.8597	-12.5797
609700000		0.85986	-15.0989
709650000		0.86125	-17.6879
809600000		0.8562	-20.2763
909550000		0.85669	-22.9821
1009500000		0.85758	-25.499
1109450000		0.85928	-28.1086
1209400000		0.85497	-30.7942
1309350000		0.85241	-33.5603
1409300000		0.84927	-36.2707
1509250000		0.84701	-39.0699
1609200000		0.84521	-41.8344
1709150000		0.84932	-44.3873
1809100000		0.84642	-47.239
1909050000		0.84186	-50.1846
2009000000		0.83622	-53.2697
2108950000		0.83865	-56.1035
2208900000		0.83476	-59.1908
2308850000		0.83167	-62.2656
2408800000		0.8275	-65.5969
2508750000		0.82852	-68.5373
2608700000		0.82777	-71.8297
2708650000		0.82387	-75.1655
2808600000		0.82703	-78.4342
2908550000		0.82281	-81.9944
3008500000		0.81962	-85.4638
3108450000		0.81696	-89.1731
3208400000		0.81981	-92.5407
3308350000		0.81708	-96.3508
3408300000		0.8116	-100.3512
3508250000		0.80924	-104.2488
3608200000		0.80914	-107.8665
3708150000		0.80509	-111.9675
3808100000		0.80031	-116.1084
3908050000		0.79517	-120.2286
4008000000		0.79102	-124.4145
4107950000		0.78978	-128.3908
4207900000		0.7922	-132.0728
4307850000		0.79369	-135.8228
4407800000		0.79034	-140.129
4507750000		0.78839	-144.3156
4607700000		0.7886	-148.3399
4707650000		0.79467	-151.8297
4807600000		0.79431	-155.928
4907550000		0.7976	-159.7648
5007500000		0.79872	-163.8294
5107450000		0.80169	-167.7004
5207400000		0.8051	-171.5382
5307350000		0.80952	-175.1344
5407300000		0.81251	-178.8885
5507250000		0.81475	177.3228
5607200000		0.81722	173.7359
5707150000		0.82134	170.3365
5807100000		0.8241	167.0639
5907050000		0.82525	163.512
6007000000		0.82858	160.495
6106950000		0.83191	157.4154
6206900000		0.83458	154.4776
6306850000		0.83596	151.3785
6406800000		0.8372	148.4536
6506750000		0.83989	145.6786
6606700000		0.84164	142.9484
6706650000		0.84339	140.2062
6806600000		0.84615	137.6752
6906550000		0.84782	135.1058
7006500000		0.85083	132.6547
7106450000		0.8537	130.2396
7206400000		0.85581	127.9026
7306350000		0.85789	125.4403
!
!				Infineon Technologies AG
