! Infineon Technologies  Discrete & RF Semiconductors
! BAT17-04
! IAC = 0.4 mA
! One-Port S-Parameters
# Hz  S  MA  R  50
!f									S11
!Hz							Mag  Ang
309850000		0.28662	-8.9478
409800000		0.28488	-11.6494
509750000		0.28477	-14.7444
609700000		0.28302	-17.9334
709650000		0.28667	-21.4418
809600000		0.28138	-24.9026
909550000		0.28329	-28.7736
1009500000		0.28143	-31.9218
1109450000		0.28462	-35.2272
1209400000		0.27752	-37.9912
1309350000		0.276	-42.2285
1409300000		0.27433	-45.821
1509250000		0.26906	-50.1696
1609200000		0.26846	-53.9061
1709150000		0.27386	-56.617
1809100000		0.2716	-61.2633
1909050000		0.26409	-65.4533
2009000000		0.25783	-70.2125
2108950000		0.26392	-74.451
2208900000		0.26268	-79.0957
2308850000		0.25993	-83.7776
2408800000		0.26043	-88.0657
2508750000		0.26366	-92.1408
2608700000		0.26623	-97.1548
2708650000		0.26498	-101.8474
2808600000		0.27171	-106.8604
2908550000		0.27228	-111.7773
3008500000		0.26983	-116.5947
3108450000		0.27418	-121.6295
3208400000		0.28013	-126.2018
3308350000		0.28713	-131.1248
3408300000		0.28999	-136.3746
3508250000		0.29705	-141.1589
3608200000		0.302	-145.8468
3708150000		0.30981	-150.7604
3808100000		0.31738	-155.1601
3908050000		0.32464	-159.6183
4008000000		0.33264	-164.4421
4107950000		0.34187	-168.5892
4207900000		0.355	-171.9732
4307850000		0.36695	-175.3446
4407800000		0.37674	-179.7028
4507750000		0.38765	176.6324
4607700000		0.39857	173.0258
4707650000		0.41332	170.3425
4807600000		0.4243	167.0196
4907550000		0.43783	164.1111
5007500000		0.44978	160.8627
5107450000		0.46086	157.4797
5207400000		0.47484	154.876
5307350000		0.48827	152.3921
5407300000		0.50059	149.6453
5507250000		0.5114	146.7417
5607200000		0.52237	144.1061
5707150000		0.53458	141.682
5807100000		0.54563	139.5004
5907050000		0.55565	136.9097
6007000000		0.56681	134.9617
6106950000		0.57791	132.8585
6206900000		0.58763	130.8093
6306850000		0.59714	128.6406
6406800000		0.60569	126.574
6506750000		0.61502	124.5999
6606700000		0.62345	122.6481
6706650000		0.63163	120.668
6806600000		0.64061	118.9044
6906550000		0.64772	116.9628
7006500000		0.65632	115.1688
7106450000		0.66479	113.4448
7206400000		0.67175	111.6756
7306350000		0.67897	109.804
!
!				Infineon Technologies AG
