! Infineon Technologies  Discrete & RF Semiconductors
! BAT17-04
! VCA = 0.7 V
! One-Port S-Parameters
# Hz  S  MA  R  50
!f									S11
!Hz							Mag  Ang
309850000		0.99998	-5.0171
409800000		0.99964	-6.6254
509750000		0.99997	-8.2437
609700000		0.99962	-9.8404
709650000		0.99949	-11.5012
809600000		0.9996	-13.1311
909550000		0.99969	-14.837
1009500000		0.99906	-16.4599
1109450000		0.99885	-18.195
1209400000		0.99897	-19.9052
1309350000		0.99839	-21.6403
1409300000		0.99711	-23.348
1509250000		0.99693	-25.0981
1609200000		0.99614	-26.869
1709150000		0.99488	-28.6684
1809100000		0.99339	-30.4235
1909050000		0.99273	-32.2131
2009000000		0.99181	-34.0537
2108950000		0.99041	-35.9096
2208900000		0.98939	-37.7792
2308850000		0.98881	-39.5993
2408800000		0.98839	-41.5782
2508750000		0.98816	-43.4878
2608700000		0.98791	-45.5427
2708650000		0.98745	-47.4702
2808600000		0.98775	-49.6812
2908550000		0.98788	-51.7967
3008500000		0.98762	-54.0242
3108450000		0.98788	-56.3497
3208400000		0.98719	-58.663
3308350000		0.98607	-61.0445
3408300000		0.9854	-63.5743
3508250000		0.98467	-66.1445
3608200000		0.98287	-68.661
3708150000		0.98068	-71.3492
3808100000		0.97825	-74.0613
3908050000		0.9757	-76.7674
4008000000		0.97256	-79.532
4107950000		0.96968	-82.3648
4207900000		0.96617	-85.2333
4307850000		0.96289	-88.152
4407800000		0.95973	-91.1147
4507750000		0.95683	-94.1073
4607700000		0.95418	-97.1302
4707650000		0.95157	-100.25
4807600000		0.94971	-103.3637
4907550000		0.94829	-106.5594
5007500000		0.94736	-109.7938
5107450000		0.9469	-113.0518
5207400000		0.94617	-116.4631
5307350000		0.94609	-119.8292
5407300000		0.94552	-123.3198
5507250000		0.94564	-126.8682
5607200000		0.94536	-130.3777
5707150000		0.94474	-133.9861
5807100000		0.94421	-137.5257
5907050000		0.94308	-141.1506
6007000000		0.94207	-144.7041
6106950000		0.94075	-148.3259
6206900000		0.93966	-151.8557
6306850000		0.93809	-155.3775
6406800000		0.9365	-158.875
6506750000		0.93523	-162.325
6606700000		0.93358	-165.7391
6706650000		0.93258	-169.1125
6806600000		0.93133	-172.47
6906550000		0.9306	-175.6958
7006500000		0.92943	-178.9783
7106450000		0.92879	177.7631
7206400000		0.92792	174.6384
7306350000		0.92732	171.4069
!
!				Infineon Technologies AG
