! Infineon Technologies  Discrete & RF Semiconductors
! BAT17-04
! VCA = 0.9 V
! One-Port S-Parameters
# Hz  S  MA  R  50
!f									S11
!Hz							Mag  Ang
309850000		0.99995	-4.8626
409800000		0.99962	-6.422
509750000		0.99996	-7.9904
609700000		0.99938	-9.5041
709650000		0.9995	-11.1449
809600000		0.9996	-12.7213
909550000		0.99973	-14.3757
1009500000		0.99914	-15.9459
1109450000		0.99891	-17.6272
1209400000		0.99905	-19.283
1309350000		0.99847	-20.9644
1409300000		0.99727	-22.6151
1509250000		0.99708	-24.3089
1609200000		0.9963	-26.0219
1709150000		0.99513	-27.761
1809100000		0.99366	-29.4575
1909050000		0.99302	-31.1871
2009000000		0.99215	-32.967
2108950000		0.99079	-34.7559
2208900000		0.98978	-36.5579
2308850000		0.98923	-38.314
2408800000		0.98879	-40.223
2508750000		0.98868	-42.0598
2608700000		0.98842	-44.0445
2708650000		0.98833	-45.9316
2808600000		0.98835	-48.0298
2908550000		0.98865	-50.0645
3008500000		0.98837	-52.2081
3108450000		0.9887	-54.4507
3208400000		0.98817	-56.6799
3308350000		0.98739	-59.0053
3408300000		0.98656	-61.4098
3508250000		0.98599	-63.8926
3608200000		0.98413	-66.2847
3708150000		0.98227	-68.9117
3808100000		0.97997	-71.5322
3908050000		0.97754	-74.1481
4008000000		0.97478	-76.8513
4107950000		0.97172	-79.5531
4207900000		0.96828	-82.3264
4307850000		0.96502	-85.1518
4407800000		0.96192	-88.0185
4507750000		0.95901	-90.9175
4607700000		0.95642	-93.8454
4707650000		0.95378	-96.8713
4807600000		0.95186	-99.8916
4907550000		0.95031	-102.9981
5007500000		0.94934	-106.1441
5107450000		0.94886	-109.3128
5207400000		0.94812	-112.6356
5307350000		0.94798	-115.9233
5407300000		0.94741	-119.3326
5507250000		0.94745	-122.8126
5607200000		0.94723	-126.2553
5707150000		0.94653	-129.8065
5807100000		0.94601	-133.2981
5907050000		0.94485	-136.8759
6007000000		0.94393	-140.3987
6106950000		0.94258	-143.9924
6206900000		0.94154	-147.5041
6306850000		0.93988	-151.013
6406800000		0.93825	-154.5067
6506750000		0.93696	-157.9577
6606700000		0.93531	-161.3823
6706650000		0.93422	-164.7674
6806600000		0.93288	-168.146
6906550000		0.93203	-171.393
7006500000		0.93076	-174.6965
7106450000		0.93002	-177.9912
7206400000		0.9291	178.8522
7306350000		0.92838	175.5855
!
!				Infineon Technologies AG
