! Infineon Technologies  Discrete & RF Semiconductors
! BAT17-04
! IAC = 0.05 mA
! One-Port S-Parameters
# Hz  S  MA  R  50
!f									S11
!Hz							Mag  Ang
309850000		0.88238	-7.5778
409800000		0.88253	-10.055
509750000		0.88212	-12.5352
609700000		0.88203	-15.0028
709650000		0.88317	-17.5629
809600000		0.87894	-20.161
909550000		0.87911	-22.8044
1009500000		0.87982	-25.3005
1109450000		0.88119	-27.8896
1209400000		0.87739	-30.5664
1309350000		0.87501	-33.3013
1409300000		0.87203	-35.9902
1509250000		0.86995	-38.7564
1609200000		0.86819	-41.5005
1709150000		0.87146	-44.0469
1809100000		0.86873	-46.8587
1909050000		0.86457	-49.7791
2009000000		0.85952	-52.8347
2108950000		0.86134	-55.6351
2208900000		0.8578	-58.6919
2308850000		0.85492	-61.7316
2408800000		0.85084	-65.0056
2508750000		0.85183	-67.9568
2608700000		0.85106	-71.2095
2708650000		0.84741	-74.5216
2808600000		0.85012	-77.7485
2908550000		0.84626	-81.2772
3008500000		0.84327	-84.7314
3108450000		0.84089	-88.4432
3208400000		0.84297	-91.7426
3308350000		0.84022	-95.5227
3408300000		0.83499	-99.4945
3508250000		0.83254	-103.3667
3608200000		0.83206	-106.9554
3708150000		0.82781	-110.9922
3808100000		0.82302	-115.1118
3908050000		0.81803	-119.2442
4008000000		0.81404	-123.4364
4107950000		0.81229	-127.3511
4207900000		0.81394	-131.0159
4307850000		0.81479	-134.7506
4407800000		0.81142	-139.0346
4507750000		0.80925	-143.2074
4607700000		0.80915	-147.2224
4707650000		0.81429	-150.7071
4807600000		0.81374	-154.8036
4907550000		0.8165	-158.6439
5007500000		0.81734	-162.7091
5107450000		0.82005	-166.5748
5207400000		0.82288	-170.4258
5307350000		0.82679	-174.0344
5407300000		0.82927	-177.8007
5507250000		0.83117	178.3989
5607200000		0.83329	174.7948
5707150000		0.83686	171.3791
5807100000		0.83909	168.0825
5907050000		0.83986	164.5122
6007000000		0.84263	161.4679
6106950000		0.84536	158.3665
6206900000		0.84753	155.4063
6306850000		0.84862	152.2812
6406800000		0.84944	149.3349
6506750000		0.85172	146.5364
6606700000		0.8531	143.7855
6706650000		0.85456	141.0199
6806600000		0.85689	138.4652
6906550000		0.85827	135.8785
7006500000		0.86091	133.4076
7106450000		0.86339	130.9724
7206400000		0.8652	128.6152
7306350000		0.86703	126.1354
!
!				Infineon Technologies AG
