! Infineon Technologies  Discrete & RF Semiconductors
! BAT17-04
! VCA = 0.1 V
! One-Port S-Parameters
# Hz  S  MA  R  50
!f									S11
!Hz							Mag  Ang
309850000		0.99988	-5.9473
409800000		0.99953	-7.8561
509750000		0.9998	-9.7771
609700000		0.99937	-11.6778
709650000		0.99921	-13.6463
809600000		0.99918	-15.5862
909550000		0.99921	-17.6054
1009500000		0.99842	-19.55
1109450000		0.99805	-21.607
1209400000		0.99805	-23.6395
1309350000		0.9972	-25.7089
1409300000		0.99581	-27.7501
1509250000		0.9954	-29.8401
1609200000		0.99436	-31.9526
1709150000		0.99289	-34.1105
1809100000		0.99113	-36.2188
1909050000		0.99022	-38.3778
2009000000		0.98924	-40.5829
2108950000		0.98754	-42.8311
2208900000		0.9863	-45.0831
2308850000		0.98551	-47.3123
2408800000		0.98511	-49.7378
2508750000		0.98439	-52.0401
2608700000		0.9838	-54.5283
2708650000		0.9831	-56.9093
2808600000		0.98298	-59.5801
2908550000		0.98267	-62.164
3008500000		0.98178	-64.8823
3108450000		0.98116	-67.6579
3208400000		0.9801	-70.5136
3308350000		0.97863	-73.4295
3408300000		0.9769	-76.441
3508250000		0.97543	-79.5122
3608200000		0.97281	-82.5566
3708150000		0.96988	-85.7512
3808100000		0.96687	-88.9719
3908050000		0.96352	-92.1722
4008000000		0.96016	-95.4877
4107950000		0.95669	-98.78
4207900000		0.9528	-102.1557
4307850000		0.94933	-105.5626
4407800000		0.94621	-109.0087
4507750000		0.94349	-112.4601
4607700000		0.94106	-115.9533
4707650000		0.93897	-119.5133
4807600000		0.93744	-123.0517
4907550000		0.93653	-126.6644
5007500000		0.936	-130.29
5107450000		0.93612	-133.9317
5207400000		0.93568	-137.6911
5307350000		0.93602	-141.356
5407300000		0.93557	-145.1427
5507250000		0.93595	-148.9086
5607200000		0.93563	-152.6255
5707150000		0.93532	-156.3739
5807100000		0.93462	-160.0015
5907050000		0.93366	-163.7005
6007000000		0.93267	-167.2584
6106950000		0.93155	-170.8675
6206900000		0.93059	-174.3235
6306850000		0.92944	-177.7501
6406800000		0.92794	178.8876
6506750000		0.92715	175.591
6606700000		0.92589	172.3635
6706650000		0.92531	169.1859
6806600000		0.92466	166.0681
6906550000		0.92427	163.0783
7006500000		0.92361	160.0209
7106450000		0.92364	157.045
7206400000		0.92309	154.1733
7306350000		0.92292	151.2214
!
!				Infineon Technologies AG
