! Infineon Technologies  Discrete & RF Semiconductors
! BAT17-04
! IAC = 5 mA
! One-Port S-Parameters
# Hz  S  MA  R  50
!f									S11
!Hz							Mag  Ang
309850000		0.72677	173.6484
409800000		0.72617	171.6849
509750000		0.72549	169.7976
609700000		0.72536	167.8259
709650000		0.72457	166.015
809600000		0.72501	164.1035
909550000		0.72489	162.2317
1009500000		0.72528	160.3228
1109450000		0.72589	158.5776
1209400000		0.72674	156.712
1309350000		0.72729	154.8826
1409300000		0.72819	153.0598
1509250000		0.7297	151.3185
1609200000		0.73124	149.443
1709150000		0.73266	147.6599
1809100000		0.73386	145.88
1909050000		0.73596	144.158
2009000000		0.73798	142.3294
2108950000		0.73955	140.6245
2208900000		0.74102	138.8982
2308850000		0.74268	137.1822
2408800000		0.74458	135.4747
2508750000		0.74619	133.7296
2608700000		0.74766	132.1264
2708650000		0.74927	130.4303
2808600000		0.75124	128.8933
2908550000		0.75266	127.2609
3008500000		0.75457	125.75
3108450000		0.75627	124.2106
3208400000		0.75825	122.7305
3308350000		0.76028	121.2977
3408300000		0.76252	119.9038
3508250000		0.76444	118.5231
3608200000		0.76727	117.0888
3708150000		0.76996	115.7754
3808100000		0.77265	114.4424
3908050000		0.77514	113.1209
4008000000		0.7781	111.8122
4107950000		0.78094	110.5146
4207900000		0.78421	109.2279
4307850000		0.78723	107.9796
4407800000		0.79059	106.7523
4507750000		0.79379	105.5414
4607700000		0.79679	104.2697
4707650000		0.80008	103.0933
4807600000		0.8026	101.8589
4907550000		0.80522	100.68
5007500000		0.80725	99.4855
5107450000		0.80933	98.266
5207400000		0.81113	97.1375
5307350000		0.81237	96.002
5407300000		0.81382	94.8748
5507250000		0.81492	93.8387
5607200000		0.81568	92.7412
5707150000		0.81705	91.751
5807100000		0.81749	90.7316
5907050000		0.81871	89.7247
6007000000		0.81933	88.7644
6106950000		0.82054	87.7877
6206900000		0.82116	86.836
6306850000		0.8226	85.8646
6406800000		0.82318	84.9355
6506750000		0.82441	83.9738
6606700000		0.82535	83.0232
6706650000		0.82625	82.0447
6806600000		0.82754	81.1224
6906550000		0.82852	80.1423
7006500000		0.82979	79.0829
7106450000		0.83125	78.1277
7206400000		0.83178	77.0614
7306350000		0.83304	76.0112
!
!				Infineon Technologies AG
