! Infineon Technologies  Discrete & RF Semiconductors
! BAT17-04
! IAC = 1 mA
! One-Port S-Parameters
# Hz  S  MA  R  50
!f									S11
!Hz							Mag  Ang
309850000		0.20495	174.9283
409800000		0.20729	173.3269
509750000		0.20805	172.1055
609700000		0.21016	170.6636
709650000		0.20911	169.8268
809600000		0.20987	168.7683
909550000		0.21164	167.9526
1009500000		0.21615	166.4594
1109450000		0.21832	165.4376
1209400000		0.22166	163.7778
1309350000		0.22378	162.8849
1409300000		0.22673	161.6703
1509250000		0.23261	160.5726
1609200000		0.23645	159.1866
1709150000		0.24082	157.6061
1809100000		0.24609	156.5215
1909050000		0.25271	155.1199
2009000000		0.25819	153.8706
2108950000		0.26351	152.7784
2208900000		0.26797	151.8059
2308850000		0.27476	150.4119
2408800000		0.27862	149.3633
2508750000		0.28426	148.0357
2608700000		0.29115	146.974
2708650000		0.29763	145.5403
2808600000		0.30644	144.3861
2908550000		0.31276	143.0498
3008500000		0.32148	141.1563
3108450000		0.32868	139.9914
3208400000		0.33799	138.5536
3308350000		0.34528	137.6061
3408300000		0.35404	136.303
3508250000		0.36195	135.1646
3608200000		0.37235	133.4155
3708150000		0.38103	132.3149
3808100000		0.38883	131.2009
3908050000		0.39664	130.0351
4008000000		0.40682	128.6411
4107950000		0.4161	127.385
4207900000		0.42513	126.1961
4307850000		0.43399	124.9922
4407800000		0.44436	123.6999
4507750000		0.4533	122.5656
4607700000		0.46281	121.2506
4707650000		0.47189	120.1703
4807600000		0.48039	118.9709
4907550000		0.48911	117.8868
5007500000		0.49799	116.6831
5107450000		0.50783	115.1921
5207400000		0.51594	114.1871
5307350000		0.52356	113.1453
5407300000		0.53195	111.9502
5507250000		0.54057	110.682
5607200000		0.54821	109.4419
5707150000		0.55644	108.333
5807100000		0.56284	107.3094
5907050000		0.57068	106.0917
6007000000		0.57686	105.1356
6106950000		0.584	104.0694
6206900000		0.59033	103.0053
6306850000		0.59728	101.9256
6406800000		0.60339	100.8517
6506750000		0.60994	99.7626
6606700000		0.61591	98.678
6706650000		0.62199	97.5722
6806600000		0.62811	96.5788
6906550000		0.63388	95.408
7006500000		0.63974	94.2676
7106450000		0.64577	93.2466
7206400000		0.65062	92.0737
7306350000		0.65641	90.8624
!
!				Infineon Technologies AG
