! Infineon Technologies  Discrete & RF Semiconductors
! BAT17-04
! VCA = 0.6 V
! One-Port S-Parameters
# Hz  S  MA  R  50
!f									S11
!Hz							Mag  Ang
309850000		1.0001	-5.1156
409800000		0.99962	-6.7532
509750000		0.99999	-8.4004
609700000		0.9996	-10.0287
709650000		0.99945	-11.7207
809600000		0.99952	-13.3834
909550000		0.99964	-15.1205
1009500000		0.99902	-16.7761
1109450000		0.99874	-18.5451
1209400000		0.99887	-20.2891
1309350000		0.99827	-22.0593
1409300000		0.99701	-23.801
1509250000		0.99676	-25.5843
1609200000		0.99597	-27.3893
1709150000		0.99468	-29.2262
1809100000		0.99315	-31.0179
1909050000		0.99249	-32.8469
2009000000		0.99158	-34.7238
2108950000		0.99013	-36.6188
2208900000		0.98909	-38.5264
2308850000		0.98846	-40.3902
2408800000		0.98834	-42.4524
2508750000		0.98788	-44.3643
2608700000		0.98753	-46.4649
2708650000		0.98734	-48.477
2808600000		0.98708	-50.6653
2908550000		0.98742	-52.8632
3008500000		0.98685	-55.112
3108450000		0.9873	-57.5201
3208400000		0.98655	-59.8864
3308350000		0.98564	-62.3546
3408300000		0.98462	-64.9057
3508250000		0.9838	-67.5301
3608200000		0.9819	-70.1016
3708150000		0.97961	-72.8466
3808100000		0.97717	-75.6141
3908050000		0.97455	-78.3769
4008000000		0.97158	-81.233
4107950000		0.9684	-84.0846
4207900000		0.96489	-87.0131
4307850000		0.96153	-89.9876
4407800000		0.95836	-93.009
4507750000		0.95549	-96.0555
4607700000		0.95288	-99.1366
4707650000		0.9503	-102.3095
4807600000		0.94841	-105.4761
4907550000		0.94706	-108.7292
5007500000		0.94611	-112.0135
5107450000		0.94573	-115.3229
5207400000		0.94505	-118.7844
5307350000		0.94503	-122.1954
5407300000		0.94448	-125.7299
5507250000		0.94458	-129.3154
5607200000		0.9443	-132.8627
5707150000		0.9437	-136.4997
5807100000		0.94311	-140.0629
5907050000		0.94196	-143.7095
6007000000		0.94097	-147.2805
6106950000		0.93964	-150.9155
6206900000		0.93864	-154.4478
6306850000		0.9371	-157.9729
6406800000		0.93544	-161.4687
6506750000		0.93425	-164.9141
6606700000		0.93268	-168.3181
6706650000		0.93173	-171.6805
6806600000		0.93054	-175.0208
6906550000		0.92978	-178.2283
7006500000		0.92869	178.5075
7106450000		0.92811	175.2714
7206400000		0.92731	172.1713
7306350000		0.92673	168.9638
!
!				Infineon Technologies AG
