! Infineon Technologies  Discrete & RF Semiconductors
! BAT17-04
! IAC = 10 mA
! One-Port S-Parameters
# Hz  S  MA  R  50
!f									S11
!Hz							Mag  Ang
309850000		0.81203	173.6347
409800000		0.81092	171.7019
509750000		0.81018	169.7631
609700000		0.80971	167.7873
709650000		0.80894	165.934
809600000		0.80896	164.0434
909550000		0.80839	162.1557
1009500000		0.80825	160.2379
1109450000		0.80849	158.4855
1209400000		0.80902	156.6108
1309350000		0.8091	154.7762
1409300000		0.80969	152.9423
1509250000		0.8107	151.191
1609200000		0.81191	149.3088
1709150000		0.81269	147.5182
1809100000		0.81339	145.7284
1909050000		0.81496	143.9929
2009000000		0.81668	142.1468
2108950000		0.81772	140.3967
2208900000		0.81848	138.6894
2308850000		0.81945	136.9608
2408800000		0.82073	135.2617
2508750000		0.82172	133.4744
2608700000		0.82228	131.8872
2708650000		0.82331	130.1466
2808600000		0.82442	128.5922
2908550000		0.82481	126.9813
3008500000		0.82617	125.405
3108450000		0.82691	123.888
3208400000		0.828	122.3955
3308350000		0.82931	120.9519
3408300000		0.83074	119.5491
3508250000		0.83196	118.1567
3608200000		0.8339	116.7173
3708150000		0.83589	115.3965
3808100000		0.838	114.049
3908050000		0.83999	112.7167
4008000000		0.84218	111.394
4107950000		0.84432	110.0854
4207900000		0.84693	108.7844
4307850000		0.84934	107.5259
4407800000		0.85203	106.281
4507750000		0.85464	105.0516
4607700000		0.85704	103.7653
4707650000		0.85972	102.5686
4807600000		0.86161	101.3188
4907550000		0.8635	100.1211
5007500000		0.86485	98.9063
5107450000		0.86612	97.6726
5207400000		0.86719	96.5318
5307350000		0.86775	95.3753
5407300000		0.86844	94.2339
5507250000		0.86877	93.1846
5607200000		0.8687	92.0785
5707150000		0.86929	91.0755
5807100000		0.86908	90.0457
5907050000		0.86959	89.0304
6007000000		0.86959	88.0613
6106950000		0.87006	87.0756
6206900000		0.87011	86.1133
6306850000		0.871	85.1355
6406800000		0.87104	84.2001
6506750000		0.87171	83.2289
6606700000		0.87207	82.2717
6706650000		0.87251	81.286
6806600000		0.8733	80.3545
6906550000		0.87382	79.3655
7006500000		0.87463	78.2981
7106450000		0.87565	77.3342
7206400000		0.87574	76.2603
7306350000		0.87643	75.2028
!
!				Infineon Technologies AG
