! Infineon Technologies  Discrete & RF Semiconductors
! BAT17-04
! VCA = 3 V
! One-Port S-Parameters
# Hz  S  MA  R  50
!f									S11
!Hz							Mag  Ang
309850000		1	-4.2721
409800000		0.99964	-5.6401
509750000		1	-7.0174
609700000		0.99974	-8.3692
709650000		0.99965	-9.7813
809600000		0.99974	-11.1631
909550000		0.99992	-12.6187
1009500000		0.99937	-13.9848
1109450000		0.99928	-15.4636
1209400000		0.99944	-16.9137
1309350000		0.99894	-18.3841
1409300000		0.99785	-19.8256
1509250000		0.99774	-21.3017
1609200000		0.99712	-22.7984
1709150000		0.99602	-24.3117
1809100000		0.99471	-25.786
1909050000		0.99416	-27.281
2009000000		0.99331	-28.8293
2108950000		0.99205	-30.3694
2208900000		0.99112	-31.9289
2308850000		0.99073	-33.4256
2408800000		0.99065	-35.1129
2508750000		0.99036	-36.6373
2608700000		0.98996	-38.3077
2708650000		0.99029	-39.9446
2808600000		0.99047	-41.7458
2908550000		0.99061	-43.4395
3008500000		0.99101	-45.3042
3108450000		0.9916	-47.2228
3208400000		0.9913	-49.1221
3308350000		0.99085	-51.1123
3408300000		0.99057	-53.164
3508250000		0.99044	-55.3013
3608200000		0.9892	-57.3648
3708150000		0.98764	-59.6014
3808100000		0.98581	-61.8554
3908050000		0.98398	-64.1103
4008000000		0.98164	-66.4308
4107950000		0.97891	-68.7605
4207900000		0.97579	-71.1427
4307850000		0.97288	-73.5792
4407800000		0.96998	-76.0552
4507750000		0.9672	-78.567
4607700000		0.96459	-81.0919
4707650000		0.96184	-83.725
4807600000		0.95984	-86.3502
4907550000		0.95816	-89.0514
5007500000		0.95702	-91.7998
5107450000		0.95628	-94.5671
5207400000		0.95541	-97.4868
5307350000		0.95513	-100.401
5407300000		0.95455	-103.4163
5507250000		0.95446	-106.5481
5607200000		0.95439	-109.6406
5707150000		0.95363	-112.873
5807100000		0.95337	-116.0851
5907050000		0.95216	-119.3755
6007000000		0.95149	-122.6724
6106950000		0.9502	-126.0347
6206900000		0.94927	-129.3744
6306850000		0.94753	-132.7253
6406800000		0.94608	-136.0956
6506750000		0.94461	-139.4459
6606700000		0.94285	-142.8016
6706650000		0.94158	-146.1318
6806600000		0.93998	-149.4965
6906550000		0.93886	-152.7482
7006500000		0.93716	-156.0477
7106450000		0.93601	-159.3924
7206400000		0.93494	-162.5966
7306350000		0.9338	-165.9278
!
!				Infineon Technologies AG
