! Infineon Technologies  Discrete & RF Semiconductors
! BAT17-04
! IAC = 0.2 mA
! One-Port S-Parameters
# Hz  S  MA  R  50
!f									S11
!Hz							Mag  Ang
309850000		0.58559	-8.0651
409800000		0.58536	-10.6343
509750000		0.58492	-13.302
609700000		0.58431	-16.0262
709650000		0.58744	-18.8874
809600000		0.57949	-21.7578
909550000		0.58096	-24.8215
1009500000		0.58174	-27.5221
1109450000		0.58556	-30.3419
1209400000		0.57759	-32.9799
1309350000		0.57438	-36.208
1409300000		0.5712	-39.1703
1509250000		0.56614	-42.4046
1609200000		0.56473	-45.4457
1709150000		0.57334	-48.0258
1809100000		0.56994	-51.453
1909050000		0.56142	-54.6178
2009000000		0.55222	-58.138
2108950000		0.55842	-61.4167
2208900000		0.55365	-64.9568
2308850000		0.54887	-68.4286
2408800000		0.54444	-71.9714
2508750000		0.54684	-75.2395
2608700000		0.54656	-79.0464
2708650000		0.54143	-82.7224
2808600000		0.54705	-86.5944
2908550000		0.54194	-90.487
3008500000		0.53723	-94.2352
3108450000		0.53586	-98.4128
3208400000		0.54087	-102.1581
3308350000		0.54071	-106.415
3408300000		0.53567	-110.751
3508250000		0.53583	-115.0809
3608200000		0.53791	-119.0758
3708150000		0.53685	-123.6027
3808100000		0.53572	-127.9828
3908050000		0.53412	-132.4187
4008000000		0.53335	-137.018
4107950000		0.53613	-141.2554
4207900000		0.54515	-145.0725
4307850000		0.55272	-148.9131
4407800000		0.55323	-153.5003
4507750000		0.55633	-157.7562
4607700000		0.56131	-161.8758
4707650000		0.57414	-165.2894
4807600000		0.57869	-169.3095
4907550000		0.58792	-173.013
5007500000		0.59392	-176.9918
5107450000		0.60064	179.165
5207400000		0.61053	175.5992
5307350000		0.62086	172.2734
5407300000		0.62938	168.7714
5507250000		0.6359	165.2004
5607200000		0.64343	161.8821
5707150000		0.65287	158.7688
5807100000		0.66111	155.8491
5907050000		0.66705	152.594
6007000000		0.67609	149.948
6106950000		0.68483	147.2057
6206900000		0.69218	144.5791
6306850000		0.69827	141.8034
6406800000		0.70389	139.1885
6506750000		0.71092	136.7043
6606700000		0.71686	134.2584
6706650000		0.72246	131.7981
6806600000		0.7294	129.5599
6906550000		0.73419	127.2267
7006500000		0.74108	125.03
7106450000		0.74762	122.8836
7206400000		0.75298	120.7707
7306350000		0.75816	118.5398
!
!				Infineon Technologies AG
