! Infineon Technologies  Discrete & RF Semiconductors
! BAT17-04
! IAC = 0.02 mA
! One-Port S-Parameters
# Hz  S  MA  R  50
!f									S11
!Hz							Mag  Ang
309850000		0.95163	-7.4154
409800000		0.95128	-9.7706
509750000		0.95113	-12.1764
609700000		0.9508	-14.5569
709650000		0.95111	-17.0084
809600000		0.94909	-19.5087
909550000		0.94898	-22.0363
1009500000		0.9489	-24.4491
1109450000		0.94911	-26.9511
1209400000		0.94727	-29.5593
1309350000		0.94551	-32.1809
1409300000		0.94309	-34.7738
1509250000		0.94182	-37.4214
1609200000		0.94026	-40.0755
1709150000		0.94059	-42.5727
1809100000		0.93815	-45.2561
1909050000		0.93564	-48.0627
2009000000		0.9327	-50.9918
2108950000		0.93227	-53.6791
2208900000		0.92976	-56.6118
2308850000		0.92786	-59.5291
2408800000		0.92541	-62.7303
2508750000		0.9252	-65.5321
2608700000		0.92434	-68.652
2708650000		0.92199	-71.8387
2808600000		0.92266	-74.8983
2908550000		0.92043	-78.3328
3008500000		0.91801	-81.7057
3108450000		0.91593	-85.257
3208400000		0.91611	-88.4752
3308350000		0.91343	-92.1293
3408300000		0.90939	-95.989
3508250000		0.90686	-99.7514
3608200000		0.90489	-103.22
3708150000		0.90094	-107.164
3808100000		0.89651	-111.1948
3908050000		0.89168	-115.2017
4008000000		0.88771	-119.2727
4107950000		0.885	-123.0978
4207900000		0.88383	-126.686
4307850000		0.88246	-130.3717
4407800000		0.87927	-134.5602
4507750000		0.87688	-138.6787
4607700000		0.87571	-142.6391
4707650000		0.8776	-146.1121
4807600000		0.87656	-150.1952
4907550000		0.87774	-154.035
5007500000		0.87796	-158.0911
5107450000		0.87961	-161.9293
5207400000		0.88083	-165.8181
5307350000		0.88301	-169.4718
5407300000		0.88392	-173.2839
5507250000		0.88502	-177.1205
5607200000		0.88582	179.2228
5707150000		0.88754	175.7453
5807100000		0.88801	172.3626
5907050000		0.88785	168.7165
6007000000		0.88865	165.5775
6106950000		0.88952	162.3904
6206900000		0.89009	159.3465
6306850000		0.89012	156.1271
6406800000		0.88968	153.0871
6506750000		0.89056	150.2075
6606700000		0.89067	147.3679
6706650000		0.89113	144.5112
6806600000		0.89208	141.8661
6906550000		0.8927	139.2031
7006500000		0.89383	136.6569
7106450000		0.89518	134.1295
7206400000		0.89584	131.7024
7306350000		0.89677	129.1465
!
!				Infineon Technologies AG
