! Infineon Technologies  Discrete & RF Semiconductors
! BAT17-04
! IAC = 6 mA
! One-Port S-Parameters
# Hz  S  MA  R  50
!f									S11
!Hz							Mag  Ang
309850000		0.75469	173.6418
409800000		0.75386	171.712
509750000		0.75321	169.7829
609700000		0.75298	167.811
709650000		0.75235	165.9627
809600000		0.75257	164.0782
909550000		0.75228	162.198
1009500000		0.75254	160.2856
1109450000		0.75301	158.5385
1209400000		0.75377	156.6692
1309350000		0.75412	154.8351
1409300000		0.75495	153.0086
1509250000		0.75627	151.2603
1609200000		0.75771	149.3836
1709150000		0.75893	147.5955
1809100000		0.75997	145.8117
1909050000		0.76187	144.0828
2009000000		0.76387	142.2501
2108950000		0.76536	140.5066
2208900000		0.76643	138.8079
2308850000		0.76815	137.0539
2408800000		0.76968	135.3709
2508750000		0.77084	133.6552
2608700000		0.77223	132.0136
2708650000		0.77347	130.3435
2808600000		0.77518	128.8001
2908550000		0.77645	127.1285
3008500000		0.77818	125.5822
3108450000		0.77951	124.0745
3208400000		0.78122	122.588
3308350000		0.78292	121.1516
3408300000		0.78493	119.7546
3508250000		0.78665	118.369
3608200000		0.78915	116.9292
3708150000		0.79159	115.6137
3808100000		0.79414	114.2754
3908050000		0.79646	112.9499
4008000000		0.79916	111.6367
4107950000		0.80178	110.3348
4207900000		0.80484	109.0401
4307850000		0.80764	107.7899
4407800000		0.81073	106.554
4507750000		0.81374	105.3347
4607700000		0.81663	104.0606
4707650000		0.8197	102.8781
4807600000		0.822	101.6361
4907550000		0.82432	100.451
5007500000		0.82616	99.2481
5107450000		0.82796	98.0254
5207400000		0.82948	96.8934
5307350000		0.83052	95.7476
5407300000		0.83175	94.6152
5507250000		0.8326	93.5746
5607200000		0.83305	92.475
5707150000		0.83419	91.4791
5807100000		0.83441	90.4587
5907050000		0.83541	89.4472
6007000000		0.83577	88.4827
6106950000		0.83673	87.5013
6206900000		0.83717	86.5443
6306850000		0.83841	85.5733
6406800000		0.83878	84.6404
6506750000		0.83984	83.6755
6606700000		0.84063	82.7209
6706650000		0.84133	81.7419
6806600000		0.84243	80.8159
6906550000		0.84326	79.8341
7006500000		0.84437	78.7688
7106450000		0.84569	77.8144
7206400000		0.84611	76.7431
7306350000		0.84714	75.6883
!
!				Infineon Technologies AG
