! Infineon Technologies  Discrete & RF Semiconductors
! BAT17-04
! VCA = 2 V
! One-Port S-Parameters
# Hz  S  MA  R  50
!f									S11
!Hz							Mag  Ang
309850000		1.0001	-4.4346
409800000		0.99968	-5.8548
509750000		1.0001	-7.2837
609700000		0.99969	-8.6907
709650000		0.99968	-10.1554
809600000		0.99956	-11.5576
909550000		0.99992	-13.1026
1009500000		0.99937	-14.5236
1109450000		0.99921	-16.0574
1209400000		0.99931	-17.5648
1309350000		0.99884	-19.0926
1409300000		0.99773	-20.5931
1509250000		0.9976	-22.1272
1609200000		0.99693	-23.6841
1709150000		0.9958	-25.2592
1809100000		0.99443	-26.7931
1909050000		0.99391	-28.3575
2009000000		0.99286	-29.9305
2108950000		0.99176	-31.5749
2208900000		0.99076	-33.2006
2308850000		0.99034	-34.7672
2408800000		0.99023	-36.5284
2508750000		0.98992	-38.1267
2608700000		0.98979	-39.9063
2708650000		0.98955	-41.5526
2808600000		0.98991	-43.4721
2908550000		0.99008	-45.2475
3008500000		0.99039	-47.2005
3108450000		0.99062	-49.1725
3208400000		0.99057	-51.1958
3308350000		0.99007	-53.2814
3408300000		0.98964	-55.4295
3508250000		0.98932	-57.6632
3608200000		0.98798	-59.8239
3708150000		0.98628	-62.1624
3808100000		0.98437	-64.5184
3908050000		0.98233	-66.8762
4008000000		0.97989	-69.3031
4107950000		0.97705	-71.7367
4207900000		0.97383	-74.2292
4307850000		0.97077	-76.777
4407800000		0.96781	-79.3658
4507750000		0.96502	-81.9855
4607700000		0.96243	-84.627
4707650000		0.95966	-87.375
4807600000		0.95769	-90.114
4907550000		0.95605	-92.936
5007500000		0.95494	-95.8007
5107450000		0.95421	-98.6843
5207400000		0.95342	-101.7275
5307350000		0.95321	-104.7562
5407300000		0.9526	-107.8915
5507250000		0.95253	-111.1346
5607200000		0.95241	-114.3371
5707150000		0.95168	-117.673
5807100000		0.95134	-120.9771
5907050000		0.95017	-124.3666
6007000000		0.9494	-127.7436
6106950000		0.94807	-131.1874
6206900000		0.94707	-134.5938
6306850000		0.94534	-138.0054
6406800000		0.94385	-141.4308
6506750000		0.94239	-144.8272
6606700000		0.94064	-148.2192
6706650000		0.9394	-151.5833
6806600000		0.93785	-154.9714
6906550000		0.9368	-158.24
7006500000		0.93527	-161.5537
7106450000		0.93418	-164.9029
7206400000		0.9331	-168.1097
7306350000		0.93213	-171.4368
!
!				Infineon Technologies AG
