! Infineon Technologies  Discrete & RF Semiconductors
! BAT17-04
! IAC = 0.09 mA
! One-Port S-Parameters
# Hz  S  MA  R  50
!f									S11
!Hz							Mag  Ang
309850000		0.79609	-7.7571
409800000		0.7964	-10.2794
509750000		0.79566	-12.7876
609700000		0.7956	-15.3295
709650000		0.79766	-17.9927
809600000		0.79138	-20.6703
909550000		0.7919	-23.4308
1009500000		0.79321	-25.9961
1109450000		0.79574	-28.6561
1209400000		0.79003	-31.3465
1309350000		0.78714	-34.2073
1409300000		0.78378	-36.9778
1509250000		0.78071	-39.8646
1609200000		0.77893	-42.6923
1709150000		0.78496	-45.2592
1809100000		0.78185	-48.2206
1909050000		0.77603	-51.2251
2009000000		0.76895	-54.3906
2108950000		0.77282	-57.3252
2208900000		0.76842	-60.4967
2308850000		0.76466	-63.6529
2408800000		0.7598	-67.0414
2508750000		0.76145	-70.0519
2608700000		0.76082	-73.4481
2708650000		0.75616	-76.8587
2808600000		0.76043	-80.2484
2908550000		0.7555	-83.8838
3008500000		0.75178	-87.3965
3108450000		0.74929	-91.2272
3208400000		0.75312	-94.644
3308350000		0.75066	-98.5465
3408300000		0.74474	-102.6149
3508250000		0.74252	-106.5613
3608200000		0.74344	-110.2924
3708150000		0.73968	-114.478
3808100000		0.73526	-118.6707
3908050000		0.73035	-122.8469
4008000000		0.72674	-127.1552
4107950000		0.72619	-131.1531
4207900000		0.73064	-134.8896
4307850000		0.73385	-138.6717
4407800000		0.73084	-143.0441
4507750000		0.72964	-147.2548
4607700000		0.73085	-151.3147
4707650000		0.73914	-154.8101
4807600000		0.73963	-158.9025
4907550000		0.74438	-162.7295
5007500000		0.74639	-166.7924
5107450000		0.75026	-170.6693
5207400000		0.75519	-174.4686
5307350000		0.76115	-178.0249
5407300000		0.76554	178.2637
5507250000		0.76864	174.5107
5607200000		0.77243	170.9704
5707150000		0.77801	167.6221
5807100000		0.78225	164.4148
5907050000		0.7844	160.9217
6007000000		0.78935	157.9766
6106950000		0.79419	154.9641
6206900000		0.79817	152.0884
6306850000		0.80067	149.0545
6406800000		0.80295	146.1951
6506750000		0.80685	143.4816
6606700000		0.8097	140.8132
6706650000		0.81242	138.1294
6806600000		0.81632	135.6607
6906550000		0.81878	133.144
7006500000		0.82287	130.7475
7106450000		0.82673	128.3891
7206400000		0.82971	126.1023
7306350000		0.83263	123.6933
!
!				Infineon Technologies AG
