! Infineon Technologies  Discrete & RF Semiconductors
! BAT17-04
! IAC = 0.04 mA
! One-Port S-Parameters
# Hz  S  MA  R  50
!f									S11
!Hz							Mag  Ang
309850000		0.90521	-7.5642
409800000		0.9051	-9.9848
509750000		0.90474	-12.4464
609700000		0.90451	-14.8902
709650000		0.90546	-17.4186
809600000		0.90185	-19.9911
909550000		0.90194	-22.6012
1009500000		0.90243	-25.0754
1109450000		0.90348	-27.6421
1209400000		0.90025	-30.3038
1309350000		0.89803	-33.0043
1409300000		0.89527	-35.6672
1509250000		0.89345	-38.3995
1609200000		0.89171	-41.12
1709150000		0.89412	-43.6543
1809100000		0.89142	-46.4267
1909050000		0.8878	-49.3196
2009000000		0.8834	-52.3418
2108950000		0.88452	-55.1047
2208900000		0.88125	-58.1254
2308850000		0.87871	-61.1358
2408800000		0.87522	-64.4186
2508750000		0.87573	-67.3017
2608700000		0.87471	-70.4805
2708650000		0.87163	-73.7937
2808600000		0.8738	-76.9791
2908550000		0.87036	-80.4741
3008500000		0.8675	-83.9121
3108450000		0.8653	-87.5875
3208400000		0.86655	-90.8224
3308350000		0.86402	-94.5985
3408300000		0.85904	-98.5427
3508250000		0.85653	-102.3828
3608200000		0.85562	-105.9368
3708150000		0.85156	-109.9707
3808100000		0.84681	-114.0671
3908050000		0.84168	-118.1441
4008000000		0.83768	-122.3016
4107950000		0.83561	-126.1921
4207900000		0.83638	-129.8336
4307850000		0.8365	-133.5543
4407800000		0.83317	-137.8128
4507750000		0.83093	-141.9729
4607700000		0.83043	-145.9733
4707650000		0.83465	-149.4552
4807600000		0.83388	-153.5507
4907550000		0.8361	-157.3902
5007500000		0.83676	-161.4548
5107450000		0.83911	-165.3146
5207400000		0.84138	-169.1764
5307350000		0.84473	-172.7995
5407300000		0.84675	-176.5791
5507250000		0.84837	179.6078
5607200000		0.85008	175.99
5707150000		0.85306	172.5553
5807100000		0.85468	169.2347
5907050000		0.85515	165.6405
6007000000		0.85727	162.5712
6106950000		0.85946	159.4433
6206900000		0.86113	156.4604
6306850000		0.86186	153.3093
6406800000		0.86224	150.3354
6506750000		0.8641	147.5146
6606700000		0.86506	144.7385
6706650000		0.86618	141.9491
6806600000		0.86808	139.3698
6906550000		0.86926	136.76
7006500000		0.8714	134.2701
7106450000		0.87349	131.8057
7206400000		0.87491	129.4316
7306350000		0.87646	126.9316
!
!				Infineon Technologies AG
