! Infineon Technologies  Discrete & RF Semiconductors
! BAT17-04
! IAC = 0.3 mA
! One-Port S-Parameters
# Hz  S  MA  R  50
!f									S11
!Hz							Mag  Ang
309850000		0.42407	-8.4085
409800000		0.42304	-11.0104
509750000		0.42284	-13.8396
609700000		0.42155	-16.7473
709650000		0.42516	-19.8843
809600000		0.4181	-22.9776
909550000		0.41993	-26.3679
1009500000		0.4193	-29.2277
1109450000		0.42305	-32.2253
1209400000		0.41499	-34.8222
1309350000		0.41238	-38.4659
1409300000		0.40998	-41.69
1509250000		0.40427	-45.3456
1609200000		0.40319	-48.6514
1709150000		0.41079	-51.2559
1809100000		0.40747	-55.1158
1909050000		0.39887	-58.666
2009000000		0.39025	-62.6078
2108950000		0.39664	-66.3178
2208900000		0.39305	-70.2643
2308850000		0.38857	-74.141
2408800000		0.38651	-78.0375
2508750000		0.38893	-81.5811
2608700000		0.38967	-85.9269
2708650000		0.38581	-89.9865
2808600000		0.39157	-94.3584
2908550000		0.38876	-98.7258
3008500000		0.38425	-102.8293
3108450000		0.38508	-107.3879
3208400000		0.39022	-111.5679
3308350000		0.39323	-116.2072
3408300000		0.3914	-121.0182
3508250000		0.39462	-125.6512
3608200000		0.39744	-129.9557
3708150000		0.40052	-134.8609
3808100000		0.40371	-139.4006
3908050000		0.40639	-143.9867
4008000000		0.40985	-148.8791
4107950000		0.41575	-153.2024
4207900000		0.42723	-156.9385
4307850000		0.4374	-160.6868
4407800000		0.44274	-165.38
4507750000		0.45006	-169.4708
4607700000		0.4584	-173.4878
4707650000		0.4728	-176.6311
4807600000		0.48108	179.5779
4907550000		0.49308	176.1678
5007500000		0.50261	172.4463
5107450000		0.51173	168.7622
5207400000		0.52454	165.5916
5307350000		0.5371	162.6299
5407300000		0.54818	159.4494
5507250000		0.55729	156.1589
5607200000		0.56705	153.1419
5707150000		0.57843	150.3403
5807100000		0.58872	147.7705
5907050000		0.59727	144.8128
6007000000		0.60802	142.5085
6106950000		0.61855	140.0696
6206900000		0.62759	137.7224
6306850000		0.63592	135.2376
6406800000		0.64352	132.8839
6506750000		0.65213	130.6463
6606700000		0.65977	128.4421
6706650000		0.66707	126.2127
6806600000		0.67554	124.2109
6906550000		0.68172	122.0667
7006500000		0.68991	120.0715
7106450000		0.69783	118.1351
7206400000		0.70427	116.1929
7306350000		0.71081	114.1392
!
!				Infineon Technologies AG
