! Infineon Technologies  Discrete & RF Semiconductors
! BAT17-04
! IAC = 7 mA
! One-Port S-Parameters
# Hz  S  MA  R  50
!f									S11
!Hz							Mag  Ang
309850000		0.775	173.6401
409800000		0.77425	171.6735
509750000		0.7734	169.7762
609700000		0.77296	167.837
709650000		0.7724	165.9497
809600000		0.77254	164.0628
909550000		0.77218	162.1807
1009500000		0.77228	160.265
1109450000		0.77264	158.5114
1209400000		0.77332	156.6432
1309350000		0.77364	154.8072
1409300000		0.77434	152.9794
1509250000		0.77557	151.2301
1609200000		0.77697	149.3488
1709150000		0.77802	147.562
1809100000		0.77891	145.7742
1909050000		0.78071	144.0458
2009000000		0.7826	142.2056
2108950000		0.78393	140.4582
2208900000		0.78491	138.7553
2308850000		0.78642	136.9993
2408800000		0.78787	135.311
2508750000		0.78903	133.5585
2608700000		0.79003	131.9452
2708650000		0.79129	130.2398
2808600000		0.79278	128.6918
2908550000		0.7937	127.0529
3008500000		0.79524	125.5097
3108450000		0.79635	123.9958
3208400000		0.79782	122.5086
3308350000		0.79943	121.0691
3408300000		0.8012	119.6693
3508250000		0.80279	118.2775
3608200000		0.80513	116.8406
3708150000		0.80731	115.5206
3808100000		0.80972	114.1799
3908050000		0.81194	112.8496
4008000000		0.81448	111.5332
4107950000		0.81687	110.2277
4207900000		0.81979	108.9316
4307850000		0.82227	107.7081
4407800000		0.82542	106.4383
4507750000		0.82832	105.2139
4607700000		0.83098	103.9354
4707650000		0.83393	102.7474
4807600000		0.83604	101.5041
4907550000		0.83824	100.3131
5007500000		0.83988	99.1054
5107450000		0.84152	97.8767
5207400000		0.84292	96.7417
5307350000		0.84377	95.5946
5407300000		0.84477	94.4576
5507250000		0.84538	93.4126
5607200000		0.84569	92.3107
5707150000		0.84664	91.3123
5807100000		0.84673	90.2874
5907050000		0.84748	89.273
6007000000		0.84777	88.3085
6106950000		0.84858	87.3255
6206900000		0.8488	86.3657
6306850000		0.84992	85.3934
6406800000		0.85016	84.4594
6506750000		0.85109	83.4926
6606700000		0.85169	82.5359
6706650000		0.85231	81.5546
6806600000		0.85334	80.6295
6906550000		0.85402	79.6405
7006500000		0.85505	78.5756
7106450000		0.85628	77.6185
7206400000		0.85652	76.5448
7306350000		0.85742	75.489
!
!				Infineon Technologies AG
