! Infineon Technologies  Discrete & RF Semiconductors
! BAT15-04R
! IAC = 0.06 mA
! One-Port S-Parameters
# Hz  S  MA  R  50
!f									S11
!Hz							Mag  Ang
309850000		0.86168	-3.2297
409800000		0.86234	-4.2834
509750000		0.86165	-5.2894
609700000		0.8626	-6.4011
709650000		0.86405	-7.4928
809600000		0.85918	-8.6123
909550000		0.85956	-9.743
1009500000		0.86018	-10.9561
1109450000		0.86324	-11.972
1209400000		0.85976	-13.098
1309350000		0.85819	-14.2644
1409300000		0.85629	-15.4233
1509250000		0.85496	-16.4533
1609200000		0.85411	-17.6387
1709150000		0.85683	-18.7172
1809100000		0.85426	-19.8543
1909050000		0.85205	-20.8943
2009000000		0.84822	-22.1377
2108950000		0.8505	-23.3158
2208900000		0.8463	-24.4532
2308850000		0.84319	-25.5659
2408800000		0.83788	-26.752
2508750000		0.84293	-27.956
2608700000		0.84233	-29.1986
2708650000		0.84119	-30.405
2808600000		0.8417	-31.5843
2908550000		0.84057	-32.8873
3008500000		0.84222	-34.0054
3108450000		0.84003	-35.3273
3208400000		0.84297	-36.7297
3308350000		0.83931	-38.265
3408300000		0.83437	-39.7136
3508250000		0.83272	-41.2057
3608200000		0.83617	-42.6942
3708150000		0.83452	-44.2729
3808100000		0.82878	-45.887
3908050000		0.82223	-47.5271
4008000000		0.82174	-49.1412
4107950000		0.82046	-50.7867
4207900000		0.82135	-52.4995
4307850000		0.81643	-54.1075
4407800000		0.81616	-55.882
4507750000		0.8115	-57.6196
4607700000		0.80763	-59.4258
4707650000		0.80217	-61.1913
4807600000		0.79351	-63.1268
4907550000		0.78872	-65.0616
5007500000		0.78576	-66.9644
5107450000		0.78838	-68.9654
5207400000		0.78606	-70.933
5307350000		0.78158	-73.0265
5407300000		0.77698	-75.2664
5507250000		0.78015	-77.3052
5607200000		0.78096	-79.4766
5707150000		0.7782	-81.7774
5807100000		0.77283	-84.126
5907050000		0.77216	-86.4541
6007000000		0.76888	-88.7827
6106950000		0.76537	-91.2289
6206900000		0.76224	-93.651
6306850000		0.76309	-96.1444
6406800000		0.75973	-98.7354
6506750000		0.75969	-101.2461
6606700000		0.75551	-103.864
6706650000		0.75241	-106.5214
6806600000		0.74748	-109.1728
6906550000		0.74904	-111.7286
7006500000		0.74889	-114.37
7106450000		0.74326	-117.0693
7206400000		0.73753	-119.9184
7306350000		0.73944	-122.4142
7406300000		0.74005	-125.0797
7506250000		0.73708	-127.82
7606200000		0.7321	-130.6286
7706150000		0.72881	-133.3712
7806100000		0.72928	-136.0481
!
!				Infineon Technologies AG
