! Infineon Technologies  Discrete & RF Semiconductors
! BAT15-04R
! VCA = 0.01 V
! One-Port S-Parameters
# Hz  S  MA  R  50
!f									S11
!Hz							Mag  Ang
309850000		0.99916	-3.1586
409800000		0.99884	-4.1836
509750000		0.99921	-5.1527
609700000		0.99952	-6.2104
709650000		0.99901	-7.199
809600000		0.99891	-8.2411
909550000		0.99941	-9.2775
1009500000		0.99847	-10.4273
1109450000		0.99852	-11.3955
1209400000		0.99898	-12.4991
1309350000		0.99857	-13.5721
1409300000		0.99707	-14.6821
1509250000		0.99672	-15.61
1609200000		0.9972	-16.7848
1709150000		0.99561	-17.8833
1809100000		0.99329	-18.9491
1909050000		0.99308	-19.9
2009000000		0.99363	-21.0502
2108950000		0.99179	-22.1988
2208900000		0.99018	-23.2371
2308850000		0.9898	-24.2303
2408800000		0.99033	-25.3552
2508750000		0.98988	-26.5195
2608700000		0.98937	-27.6635
2708650000		0.98941	-28.8043
2808600000		0.99004	-29.8884
2908550000		0.99053	-31.1076
3008500000		0.99097	-32.3462
3108450000		0.99205	-33.6037
3208400000		0.99212	-34.9207
3308350000		0.99175	-36.287
3408300000		0.99219	-37.6041
3508250000		0.99301	-39.0219
3608200000		0.99239	-40.5367
3708150000		0.99148	-41.9743
3808100000		0.99012	-43.4742
3908050000		0.9887	-44.9798
4008000000		0.98769	-46.5774
4107950000		0.98564	-48.1118
4207900000		0.98339	-49.7775
4307850000		0.9805	-51.2974
4407800000		0.97784	-52.9672
4507750000		0.97581	-54.616
4607700000		0.97353	-56.3098
4707650000		0.97078	-57.9571
4807600000		0.96853	-59.6891
4907550000		0.96632	-61.4727
5007500000		0.96532	-63.2216
5107450000		0.96393	-65.1387
5207400000		0.96283	-66.9725
5307350000		0.96124	-68.8963
5407300000		0.96037	-70.9286
5507250000		0.95991	-72.9394
5607200000		0.95952	-75.0122
5707150000		0.95871	-77.1156
5807100000		0.95782	-79.3065
5907050000		0.95731	-81.5723
6007000000		0.95685	-83.8414
6106950000		0.95614	-86.1798
6206900000		0.95499	-88.4859
6306850000		0.95324	-90.941
6406800000		0.95249	-93.3862
6506750000		0.95115	-95.8606
6606700000		0.94997	-98.3388
6706650000		0.94804	-100.8716
6806600000		0.94626	-103.3699
6906550000		0.9448	-105.946
7006500000		0.94344	-108.5245
7106450000		0.94206	-111.0266
7206400000		0.93996	-113.6762
7306350000		0.93879	-116.2474
7406300000		0.93642	-118.9536
7506250000		0.93545	-121.5898
7606200000		0.93293	-124.2318
7706150000		0.93076	-126.8986
7806100000		0.92726	-129.6765
!
!				Infineon Technologies AG
