! Infineon Technologies  Discrete & RF Semiconductors
! BAT15-04R
! VCA = 0.2 V
! One-Port S-Parameters
# Hz  S  MA  R  50
!f									S11
!Hz							Mag  Ang
309850000		0.99951	-3.0389
409800000		0.99917	-4.0268
509750000		0.99947	-4.9591
609700000		0.99983	-5.9751
709650000		0.9994	-6.9261
809600000		0.99921	-7.9318
909550000		0.99972	-8.9252
1009500000		0.99884	-10.0387
1109450000		0.99892	-10.9694
1209400000		0.99937	-12.0288
1309350000		0.99894	-13.0649
1409300000		0.99751	-14.1318
1509250000		0.99709	-15.0279
1609200000		0.99749	-16.1516
1709150000		0.99613	-17.2066
1809100000		0.99385	-18.2308
1909050000		0.99352	-19.141
2009000000		0.9938	-20.2107
2108950000		0.99236	-21.348
2208900000		0.99053	-22.3048
2308850000		0.99031	-23.2884
2408800000		0.99089	-24.3619
2508750000		0.99048	-25.4782
2608700000		0.98995	-26.5705
2708650000		0.98994	-27.6256
2808600000		0.99074	-28.6888
2908550000		0.99122	-29.8518
3008500000		0.99174	-31.0358
3108450000		0.99261	-32.1965
3208400000		0.99302	-33.4909
3308350000		0.99266	-34.7941
3408300000		0.9932	-36.0544
3508250000		0.99388	-37.3677
3608200000		0.99365	-38.8561
3708150000		0.99285	-40.2257
3808100000		0.99146	-41.6592
3908050000		0.99016	-43.096
4008000000		0.98939	-44.6229
4107950000		0.98749	-46.084
4207900000		0.98541	-47.6714
4307850000		0.98256	-49.1185
4407800000		0.98013	-50.7093
4507750000		0.97817	-52.2791
4607700000		0.97593	-53.8929
4707650000		0.97334	-55.4562
4807600000		0.97104	-57.1054
4907550000		0.96892	-58.8041
5007500000		0.96796	-60.4636
5107450000		0.96663	-62.2834
5207400000		0.96557	-64.0225
5307350000		0.96403	-65.8512
5407300000		0.96315	-67.781
5507250000		0.96283	-69.6903
5607200000		0.96254	-71.6522
5707150000		0.96184	-73.6552
5807100000		0.96096	-75.7373
5907050000		0.96064	-77.8958
6007000000		0.96032	-80.056
6106950000		0.95975	-82.2837
6206900000		0.95869	-84.4854
6306850000		0.95714	-86.822
6406800000		0.95653	-89.1666
6506750000		0.95545	-91.5272
6606700000		0.95425	-93.9029
6706650000		0.95241	-96.3305
6806600000		0.95075	-98.7363
6906550000		0.94951	-101.2018
7006500000		0.94818	-103.6767
7106450000		0.94685	-106.084
7206400000		0.94476	-108.6356
7306350000		0.94375	-111.1109
7406300000		0.94155	-113.7125
7506250000		0.94072	-116.252
7606200000		0.93818	-118.8035
7706150000		0.93611	-121.3725
7806100000		0.93291	-124.0541
!
!				Infineon Technologies AG
