! Infineon Technologies  Discrete & RF Semiconductors
! BAT15-04R
! IAC = 8 mA
! One-Port S-Parameters
# Hz  S  MA  R  50
!f									S11
!Hz							Mag  Ang
309850000		0.68966	174.0935
409800000		0.68906	172.3243
509750000		0.68862	170.5121
609700000		0.68847	168.7746
709650000		0.68796	166.9982
809600000		0.68831	165.3529
909550000		0.68839	163.5615
1009500000		0.68865	161.9258
1109450000		0.68833	160.189
1209400000		0.6899	158.5388
1309350000		0.69004	156.8003
1409300000		0.69078	155.1318
1509250000		0.69166	153.4686
1609200000		0.69406	151.801
1709150000		0.69467	150.0591
1809100000		0.69565	148.411
1909050000		0.69691	146.8595
2009000000		0.70007	145.2023
2108950000		0.70106	143.515
2208900000		0.70249	141.8874
2308850000		0.70359	140.4001
2408800000		0.70631	138.7184
2508750000		0.70782	137.1327
2608700000		0.70922	135.5489
2708650000		0.71012	134.0408
2808600000		0.71208	132.5008
2908550000		0.71406	131.0283
3008500000		0.71565	129.5247
3108450000		0.71735	128.0494
3208400000		0.71896	126.6792
3308350000		0.72081	125.2985
3408300000		0.72258	123.9731
3508250000		0.72525	122.638
3608200000		0.7274	121.3752
3708150000		0.72956	120.0353
3808100000		0.73203	118.7773
3908050000		0.73516	117.5297
4008000000		0.73781	116.3011
4107950000		0.74086	115.0122
4207900000		0.74349	113.8412
4307850000		0.74658	112.5461
4407800000		0.75007	111.4337
4507750000		0.75318	110.2218
4607700000		0.7562	109.0525
4707650000		0.75912	107.804
4807600000		0.76213	106.6747
4907550000		0.76475	105.5391
5007500000		0.76707	104.3571
5107450000		0.76924	103.2964
5207400000		0.77067	102.1143
5307350000		0.77268	101.044
5407300000		0.77403	100.0086
5507250000		0.77504	98.9451
5607200000		0.77604	97.9144
5707150000		0.77689	96.9053
5807100000		0.77842	95.904
5907050000		0.77917	94.973
6007000000		0.78011	94.0134
6106950000		0.781	93.0754
6206900000		0.78197	92.0889
6306850000		0.78358	91.1865
6406800000		0.78397	90.2775
6506750000		0.78507	89.3457
6606700000		0.78556	88.405
6706650000		0.78704	87.5072
6806600000		0.78822	86.5624
6906550000		0.78931	85.6091
7006500000		0.79024	84.6488
7106450000		0.7912	83.561
7206400000		0.79264	82.5945
7306350000		0.79278	81.5066
7406300000		0.79387	80.4636
7506250000		0.793	79.3273
7606200000		0.79318	78.174
7706150000		0.79195	76.9891
7806100000		0.78985	75.8679
!
!				Infineon Technologies AG
