! Infineon Technologies  Discrete & RF Semiconductors
! BAT15-04R
! VCA = 0.05 V
! One-Port S-Parameters
# Hz  S  MA  R  50
!f									S11
!Hz							Mag  Ang
309850000		0.99947	-3.1262
409800000		0.99915	-4.1397
509750000		0.99924	-5.0678
609700000		0.99982	-6.1431
709650000		0.99935	-7.1232
809600000		0.99919	-8.1557
909550000		0.9997	-9.1806
1009500000		0.99884	-10.3199
1109450000		0.99883	-11.2776
1209400000		0.99927	-12.3674
1309350000		0.99885	-13.431
1409300000		0.99741	-14.5293
1509250000		0.9971	-15.4494
1609200000		0.9975	-16.6089
1709150000		0.996	-17.6938
1809100000		0.99373	-18.748
1909050000		0.99347	-19.6905
2009000000		0.99398	-20.829
2108950000		0.99219	-21.9615
2208900000		0.99055	-22.9876
2308850000		0.99019	-23.9701
2408800000		0.99072	-25.0797
2508750000		0.99034	-26.2283
2608700000		0.98975	-27.3609
2708650000		0.98984	-28.4856
2808600000		0.99027	-29.5197
2908550000		0.99106	-30.7595
3008500000		0.99151	-31.9824
3108450000		0.99252	-33.224
3208400000		0.99265	-34.5241
3308350000		0.99232	-35.8699
3408300000		0.9927	-37.1741
3508250000		0.99359	-38.5731
3608200000		0.99302	-40.0693
3708150000		0.99212	-41.4875
3808100000		0.99076	-42.9692
3908050000		0.98939	-44.4585
4008000000		0.98844	-46.0374
4107950000		0.98649	-47.5486
4207900000		0.98433	-49.1927
4307850000		0.98141	-50.6909
4407800000		0.97888	-52.3414
4507750000		0.97684	-53.9678
4607700000		0.97458	-55.6392
4707650000		0.9719	-57.2618
4807600000		0.96964	-58.9725
4907550000		0.96744	-60.733
5007500000		0.96644	-62.4584
5107450000		0.9651	-64.3461
5207400000		0.96398	-66.1532
5307350000		0.96237	-68.0536
5407300000		0.96154	-70.057
5507250000		0.96116	-72.0382
5607200000		0.96085	-74.081
5707150000		0.96004	-76.1566
5807100000		0.95913	-78.3165
5907050000		0.95868	-80.5546
6007000000		0.95832	-82.7938
6106950000		0.95759	-85.1029
6206900000		0.95648	-87.3787
6306850000		0.95484	-89.8023
6406800000		0.95413	-92.2201
6506750000		0.95283	-94.6612
6606700000		0.95168	-97.1141
6706650000		0.94976	-99.6169
6806600000		0.94796	-102.0895
6906550000		0.94659	-104.6352
7006500000		0.94536	-107.1857
7106450000		0.94391	-109.663
7206400000		0.94176	-112.285
7306350000		0.94072	-114.8314
7406300000		0.93842	-117.5103
7506250000		0.93743	-120.1205
7606200000		0.93489	-122.7383
7706150000		0.93276	-125.3779
7806100000		0.92937	-128.1294
!
!				Infineon Technologies AG
