! Infineon Technologies  Discrete & RF Semiconductors
! BAT15-04R
! IAC = 6 mA
! One-Port S-Parameters
# Hz  S  MA  R  50
!f									S11
!Hz							Mag  Ang
309850000		0.66273	174.0608
409800000		0.66222	172.2882
509750000		0.66182	170.4706
609700000		0.66173	168.7292
709650000		0.66127	166.9467
809600000		0.66155	165.3275
909550000		0.66191	163.4991
1009500000		0.6623	161.8621
1109450000		0.66201	160.1175
1209400000		0.66373	158.4634
1309350000		0.66388	156.7182
1409300000		0.66461	155.075
1509250000		0.66576	153.3742
1609200000		0.66824	151.7022
1709150000		0.66894	149.9569
1809100000		0.67013	148.3068
1909050000		0.67146	146.7522
2009000000		0.67471	145.0956
2108950000		0.67584	143.4098
2208900000		0.6774	141.7768
2308850000		0.67883	140.2551
2408800000		0.68148	138.6085
2508750000		0.68318	137.0219
2608700000		0.68475	135.4383
2708650000		0.68586	133.9276
2808600000		0.68803	132.3887
2908550000		0.6902	130.9166
3008500000		0.69204	129.4071
3108450000		0.69392	127.9352
3208400000		0.69576	126.5671
3308350000		0.69781	125.1853
3408300000		0.69981	123.8607
3508250000		0.70266	122.5275
3608200000		0.70502	121.2639
3708150000		0.70737	119.9229
3808100000		0.70996	118.6671
3908050000		0.71324	117.4234
4008000000		0.71606	116.1954
4107950000		0.71926	114.9109
4207900000		0.72204	113.7413
4307850000		0.72527	112.4483
4407800000		0.72894	111.3383
4507750000		0.73223	110.1329
4607700000		0.73536	108.9679
4707650000		0.73842	107.7238
4807600000		0.74162	106.6009
4907550000		0.74435	105.4682
5007500000		0.7469	104.2928
5107450000		0.74926	103.2375
5207400000		0.75085	102.0627
5307350000		0.75304	100.9977
5407300000		0.75455	99.9677
5507250000		0.7558	98.9119
5607200000		0.7571	97.8847
5707150000		0.75812	96.882
5807100000		0.75979	95.883
5907050000		0.76077	94.9572
6007000000		0.76183	94.0004
6106950000		0.76287	93.0675
6206900000		0.76404	92.083
6306850000		0.76579	91.1828
6406800000		0.76637	90.2761
6506750000		0.7676	89.3477
6606700000		0.76824	88.4123
6706650000		0.76987	87.5164
6806600000		0.77109	86.5738
6906550000		0.77242	85.624
7006500000		0.77342	84.6692
7106450000		0.77445	83.5828
7206400000		0.77601	82.6194
7306350000		0.77628	81.5331
7406300000		0.77751	80.4926
7506250000		0.77674	79.3601
7606200000		0.77704	78.2067
7706150000		0.77598	77.0229
7806100000		0.77408	75.9031
!
!				Infineon Technologies AG
