! Infineon Technologies  Discrete & RF Semiconductors
! BAT15-04R
! VCA = 0.09 V
! One-Port S-Parameters
# Hz  S  MA  R  50
!f									S11
!Hz							Mag  Ang
309850000		0.99976	-3.1303
409800000		0.99918	-4.1013
509750000		0.99943	-5.0535
609700000		0.99981	-6.088
709650000		0.99936	-7.0594
809600000		0.99919	-8.082
909550000		0.99969	-9.0958
1009500000		0.99882	-10.2265
1109450000		0.99885	-11.1785
1209400000		0.99928	-12.257
1309350000		0.99886	-13.312
1409300000		0.99743	-14.399
1509250000		0.99704	-15.3133
1609200000		0.99743	-16.4593
1709150000		0.99601	-17.536
1809100000		0.99377	-18.5798
1909050000		0.99343	-19.5128
2009000000		0.99393	-20.6377
2108950000		0.99222	-21.7601
2208900000		0.99038	-22.7429
2308850000		0.99031	-23.7816
2408800000		0.99071	-24.8436
2508750000		0.99032	-25.9854
2608700000		0.98976	-27.1034
2708650000		0.98967	-28.1825
2808600000		0.99057	-29.2743
2908550000		0.99104	-30.4643
3008500000		0.99153	-31.6755
3108450000		0.9926	-32.9
3208400000		0.99275	-34.1891
3308350000		0.99217	-35.4863
3408300000		0.99284	-36.8098
3508250000		0.99374	-38.1915
3608200000		0.99321	-39.6729
3708150000		0.99231	-41.0758
3808100000		0.99103	-42.5448
3908050000		0.98963	-44.0166
4008000000		0.98875	-45.5786
4107950000		0.98682	-47.0725
4207900000		0.98465	-48.7001
4307850000		0.98183	-50.1806
4407800000		0.9793	-51.8107
4507750000		0.97731	-53.4211
4607700000		0.97504	-55.0727
4707650000		0.97241	-56.6763
4807600000		0.97006	-58.367
4907550000		0.96791	-60.1085
5007500000		0.967	-61.8125
5107450000		0.96562	-63.6797
5207400000		0.96455	-65.4642
5307350000		0.96297	-67.3403
5407300000		0.96212	-69.3188
5507250000		0.96172	-71.2799
5607200000		0.96148	-73.296
5707150000		0.96072	-75.3484
5807100000		0.95978	-77.4818
5907050000		0.95938	-79.6945
6007000000		0.95904	-81.9077
6106950000		0.95839	-84.1909
6206900000		0.95725	-86.4443
6306850000		0.95566	-88.838
6406800000		0.95499	-91.2322
6506750000		0.95382	-93.6476
6606700000		0.95259	-96.0761
6706650000		0.95072	-98.5558
6806600000		0.94901	-101.0095
6906550000		0.94769	-103.5277
7006500000		0.94635	-106.0538
7106450000		0.94495	-108.5098
7206400000		0.94287	-111.1097
7306350000		0.94183	-113.6324
7406300000		0.93951	-116.2881
7506250000		0.9386	-118.8736
7606200000		0.93607	-121.474
7706150000		0.93393	-124.0891
7806100000		0.93065	-126.8193
!
!				Infineon Technologies AG
