! Infineon Technologies  Discrete & RF Semiconductors
! BAT15-04R
! IAC = 1 mA
! One-Port S-Parameters
# Hz  S  MA  R  50
!f									S11
!Hz							Mag  Ang
309850000		0.15922	170.6523
409800000		0.16121	168.0295
509750000		0.16213	165.4464
609700000		0.16384	163.094
709650000		0.16245	160.797
809600000		0.16341	158.7521
909550000		0.16461	156.6864
1009500000		0.16819	154.7945
1109450000		0.16872	152.3561
1209400000		0.17306	150.0663
1309350000		0.17328	148.0318
1409300000		0.17555	145.9191
1509250000		0.1788	144.136
1609200000		0.18258	142.1334
1709150000		0.1858	139.7662
1809100000		0.18927	138.172
1909050000		0.19335	136.5714
2009000000		0.19756	135.0619
2108950000		0.19945	133.2701
2208900000		0.20248	131.6757
2308850000		0.20625	130.3478
2408800000		0.20998	128.5022
2508750000		0.21196	126.9207
2608700000		0.21545	125.606
2708650000		0.21917	124.0694
2808600000		0.224	122.8951
2908550000		0.22799	121.4983
3008500000		0.23452	119.7197
3108450000		0.2391	118.4284
3208400000		0.24462	117.5801
3308350000		0.24787	116.5683
3408300000		0.25311	115.6185
3508250000		0.25794	114.5663
3608200000		0.26512	113.6737
3708150000		0.26877	112.6312
3808100000		0.27299	111.6644
3908050000		0.27764	110.7633
4008000000		0.2834	109.8396
4107950000		0.28923	109.0757
4207900000		0.29355	108.2493
4307850000		0.29915	107.246
4407800000		0.30473	106.6604
4507750000		0.30976	105.7988
4607700000		0.31618	105.0769
4707650000		0.32176	104.1889
4807600000		0.3276	103.549
4907550000		0.33151	102.8281
5007500000		0.33675	102.0471
5107450000		0.34454	101.5266
5207400000		0.34639	100.7081
5307350000		0.35035	100.0071
5407300000		0.35459	99.4249
5507250000		0.36119	98.6954
5607200000		0.36655	98.0413
5707150000		0.3715	97.436
5807100000		0.37538	96.7386
5907050000		0.38098	96.109
6007000000		0.38398	95.3787
6106950000		0.38794	94.7422
6206900000		0.39245	94.0229
6306850000		0.39614	93.5187
6406800000		0.40017	92.8698
6506750000		0.40459	92.1671
6606700000		0.40846	91.4121
6706650000		0.41271	90.812
6806600000		0.41536	90.1168
6906550000		0.42122	89.3202
7006500000		0.42352	88.6936
7106450000		0.426	87.8748
7206400000		0.43066	87.087
7306350000		0.43355	86.1392
7406300000		0.43972	85.1437
7506250000		0.44002	84.2847
7606200000		0.44293	83.2926
7706150000		0.44562	82.1716
7806100000		0.44689	81.1985
!
!				Infineon Technologies AG
