! Infineon Technologies  Discrete & RF Semiconductors
! BAT15-04R
! VCA = 4 V
! One-Port S-Parameters
# Hz  S  MA  R  50
!f									S11
!Hz							Mag  Ang
309850000		0.99942	-2.7269
409800000		0.99887	-3.5749
509750000		0.99893	-4.3627
609700000		0.99958	-5.3006
709650000		0.99916	-6.1394
809600000		0.99895	-7.0312
909550000		0.99952	-7.912
1009500000		0.99876	-8.9081
1109450000		0.99883	-9.7282
1209400000		0.99917	-10.6661
1309350000		0.99882	-11.5866
1409300000		0.99751	-12.538
1509250000		0.99707	-13.3174
1609200000		0.99755	-14.3143
1709150000		0.9962	-15.2463
1809100000		0.99398	-16.1482
1909050000		0.99365	-16.9365
2009000000		0.99423	-17.9054
2108950000		0.99257	-18.8772
2208900000		0.99098	-19.7361
2308850000		0.99077	-20.5869
2408800000		0.99115	-21.4819
2508750000		0.99058	-22.4234
2608700000		0.99033	-23.4018
2708650000		0.99059	-24.3489
2808600000		0.99124	-25.2228
2908550000		0.99156	-26.1911
3008500000		0.99228	-27.2548
3108450000		0.99321	-28.2427
3208400000		0.99379	-29.3659
3308350000		0.99362	-30.4907
3408300000		0.99429	-31.5752
3508250000		0.99539	-32.7371
3608200000		0.99517	-34.0029
3708150000		0.99455	-35.1805
3808100000		0.99353	-36.4223
3908050000		0.99243	-37.6607
4008000000		0.99186	-38.9922
4107950000		0.99035	-40.2439
4207900000		0.98854	-41.6182
4307850000		0.986	-42.8516
4407800000		0.98373	-44.2197
4507750000		0.9821	-45.5668
4607700000		0.98005	-46.9463
4707650000		0.97762	-48.2735
4807600000		0.97537	-49.6717
4907550000		0.97339	-51.1289
5007500000		0.97257	-52.5252
5107450000		0.97125	-54.0704
5207400000		0.97017	-55.5425
5307350000		0.96879	-57.086
5407300000		0.96798	-58.7291
5507250000		0.96766	-60.3396
5607200000		0.96745	-61.9924
5707150000		0.96686	-63.6915
5807100000		0.96612	-65.4567
5907050000		0.96605	-67.2896
6007000000		0.96603	-69.1265
6106950000		0.96558	-71.0215
6206900000		0.96481	-72.9087
6306850000		0.96367	-74.9017
6406800000		0.96349	-76.9289
6506750000		0.96268	-78.9446
6606700000		0.96191	-81.0009
6706650000		0.96035	-83.1032
6806600000		0.95894	-85.2028
6906550000		0.95805	-87.3319
7006500000		0.95703	-89.4855
7106450000		0.95588	-91.5735
7206400000		0.95393	-93.7952
7306350000		0.95333	-95.9687
7406300000		0.95156	-98.2232
7506250000		0.95095	-100.4525
7606200000		0.94864	-102.6763
7706150000		0.94711	-104.9263
7806100000		0.94462	-107.2643
!
!				Infineon Technologies AG
