! Infineon Technologies  Discrete & RF Semiconductors
! BAT15-04R
! IAC = 10 mA
! One-Port S-Parameters
# Hz  S  MA  R  50
!f									S11
!Hz							Mag  Ang
309850000		0.70366	174.106
409800000		0.70309	172.3422
509750000		0.70248	170.5653
609700000		0.70235	168.7981
709650000		0.70182	167.0244
809600000		0.702	165.4109
909550000		0.70221	163.5886
1009500000		0.7024	161.9575
1109450000		0.70198	160.2248
1209400000		0.70356	158.5764
1309350000		0.70363	156.8387
1409300000		0.7043	155.1746
1509250000		0.7052	153.512
1609200000		0.70751	151.8462
1709150000		0.70803	150.1091
1809100000		0.70898	148.4616
1909050000		0.71017	146.912
2009000000		0.71332	145.2583
2108950000		0.71422	143.5716
2208900000		0.71558	141.9402
2308850000		0.71675	140.4195
2408800000		0.71908	138.8061
2508750000		0.72067	137.191
2608700000		0.72197	135.604
2708650000		0.7226	134.1282
2808600000		0.72459	132.554
2908550000		0.72649	131.0824
3008500000		0.72798	129.5801
3108450000		0.72939	128.1381
3208400000		0.73101	126.7363
3308350000		0.73279	125.3543
3408300000		0.73445	124.027
3508250000		0.73687	122.7279
3608200000		0.73902	121.4303
3708150000		0.74114	120.0909
3808100000		0.74352	118.8333
3908050000		0.74656	117.5851
4008000000		0.74918	116.3548
4107950000		0.75213	115.068
4207900000		0.75465	113.8923
4307850000		0.75762	112.5953
4407800000		0.76105	111.4795
4507750000		0.76415	110.2675
4607700000		0.76703	109.0959
4707650000		0.76985	107.8452
4807600000		0.77278	106.7101
4907550000		0.77534	105.5727
5007500000		0.77757	104.3919
5107450000		0.77961	103.3268
5207400000		0.78093	102.143
5307350000		0.78286	101.0672
5407300000		0.78412	100.0319
5507250000		0.785	98.9673
5607200000		0.78596	97.9317
5707150000		0.78666	96.9233
5807100000		0.78814	95.9218
5907050000		0.78878	94.9861
6007000000		0.7896	94.0245
6106950000		0.79038	93.0854
6206900000		0.79127	92.0977
6306850000		0.79282	91.1926
6406800000		0.79314	90.2812
6506750000		0.79414	89.349
6606700000		0.79461	88.4073
6706650000		0.79599	87.5074
6806600000		0.79708	86.5614
6906550000		0.79818	85.6067
7006500000		0.79903	84.6448
7106450000		0.7999	83.5541
7206400000		0.80132	82.5886
7306350000		0.8014	81.5005
7406300000		0.8024	80.4546
7506250000		0.80141	79.3164
7606200000		0.80155	78.161
7706150000		0.8003	76.9767
7806100000		0.79811	75.8538
!
!				Infineon Technologies AG
