! Infineon Technologies  Discrete & RF Semiconductors
! BAT15-04R
! VCA = 0.3 V
! One-Port S-Parameters
# Hz  S  MA  R  50
!f									S11
!Hz							Mag  Ang
309850000		0.99949	-3.0046
409800000		0.9991	-3.976
509750000		0.99946	-4.8936
609700000		0.9998	-5.9004
709650000		0.99939	-6.8376
809600000		0.99922	-7.8306
909550000		0.9997	-8.8137
1009500000		0.99888	-9.9109
1109450000		0.99894	-10.8319
1209400000		0.99932	-11.8753
1309350000		0.99891	-12.8986
1409300000		0.99752	-13.9539
1509250000		0.99716	-14.8347
1609200000		0.99757	-15.9451
1709150000		0.99616	-16.9862
1809100000		0.99385	-17.9934
1909050000		0.99357	-18.8939
2009000000		0.99408	-19.9828
2108950000		0.99237	-21.0685
2208900000		0.99073	-22.0445
2308850000		0.99035	-22.9805
2408800000		0.99091	-24.0368
2508750000		0.99031	-25.103
2608700000		0.98999	-26.2135
2708650000		0.99017	-27.2871
2808600000		0.99078	-28.2974
2908550000		0.99135	-29.4415
3008500000		0.99181	-30.6085
3108450000		0.99293	-31.7867
3208400000		0.99313	-33.0241
3308350000		0.99278	-34.306
3408300000		0.99332	-35.5463
3508250000		0.99432	-36.8765
3608200000		0.99366	-38.2737
3708150000		0.99305	-39.6512
3808100000		0.99182	-41.0651
3908050000		0.9905	-42.4803
4008000000		0.98966	-43.9867
4107950000		0.98785	-45.4212
4207900000		0.98584	-46.9865
4307850000		0.98304	-48.4053
4407800000		0.98057	-49.9724
4507750000		0.97871	-51.5184
4607700000		0.97652	-53.1048
4707650000		0.97393	-54.6409
4807600000		0.97163	-56.2626
4907550000		0.96956	-57.9348
5007500000		0.96861	-59.5636
5107450000		0.96728	-61.3479
5207400000		0.96621	-63.059
5307350000		0.96464	-64.8561
5407300000		0.96386	-66.7555
5507250000		0.96351	-68.6284
5607200000		0.96324	-70.5558
5707150000		0.96252	-72.525
5807100000		0.96164	-74.5713
5907050000		0.96139	-76.6919
6007000000		0.96106	-78.8152
6106950000		0.96051	-81.0078
6206900000		0.95946	-83.1742
6306850000		0.95804	-85.4721
6406800000		0.95748	-87.783
6506750000		0.95636	-90.1026
6606700000		0.95528	-92.4466
6706650000		0.95345	-94.8409
6806600000		0.95184	-97.2122
6906550000		0.95058	-99.6427
7006500000		0.94939	-102.0833
7106450000		0.94808	-104.4574
7206400000		0.94591	-106.9754
7306350000		0.945	-109.4165
7406300000		0.94285	-111.9828
7506250000		0.94202	-114.4918
7606200000		0.93949	-117.0089
7706150000		0.93752	-119.5456
7806100000		0.93439	-122.1906
!
!				Infineon Technologies AG
