! Infineon Technologies  Discrete & RF Semiconductors
! BAT15-04R
! IAC = 0.05 mA
! One-Port S-Parameters
# Hz  S  MA  R  50
!f									S11
!Hz							Mag  Ang
309850000		0.88356	-3.2437
409800000		0.88411	-4.299
509750000		0.88351	-5.3072
609700000		0.88441	-6.4172
709650000		0.88559	-7.4949
809600000		0.88129	-8.6152
909550000		0.88165	-9.737
1009500000		0.88218	-10.9464
1109450000		0.88482	-11.9641
1209400000		0.88185	-13.0987
1309350000		0.88037	-14.2532
1409300000		0.87854	-15.4145
1509250000		0.87736	-16.4371
1609200000		0.87659	-17.6267
1709150000		0.87883	-18.7121
1809100000		0.87632	-19.8451
1909050000		0.87435	-20.8812
2009000000		0.87109	-22.1145
2108950000		0.87287	-23.2919
2208900000		0.86896	-24.4197
2308850000		0.86638	-25.5593
2408800000		0.86146	-26.6797
2508750000		0.866	-27.9147
2608700000		0.86545	-29.1461
2708650000		0.86452	-30.3527
2808600000		0.86523	-31.5476
2908550000		0.86413	-32.8201
3008500000		0.86565	-33.9589
3108450000		0.86386	-35.2876
3208400000		0.86663	-36.6934
3308350000		0.86328	-38.1878
3408300000		0.85902	-39.6318
3508250000		0.85771	-41.1202
3608200000		0.86084	-42.6349
3708150000		0.85915	-44.1639
3808100000		0.854	-45.7811
3908050000		0.84813	-47.4117
4008000000		0.84761	-49.0299
4107950000		0.8465	-50.6781
4207900000		0.84675	-52.3516
4307850000		0.84197	-53.9259
4407800000		0.84161	-55.7015
4507750000		0.83727	-57.4385
4607700000		0.8337	-59.2321
4707650000		0.82861	-60.9907
4807600000		0.82084	-62.9137
4907550000		0.81644	-64.8345
5007500000		0.81374	-66.7193
5107450000		0.81606	-68.6832
5207400000		0.81382	-70.6362
5307350000		0.80966	-72.7167
5407300000		0.80553	-74.9289
5507250000		0.80842	-76.9424
5607200000		0.80921	-79.0833
5707150000		0.80678	-81.3544
5807100000		0.80198	-83.6892
5907050000		0.80149	-86.0017
6007000000		0.79851	-88.3338
6106950000		0.79534	-90.7741
6206900000		0.79249	-93.1842
6306850000		0.7931	-95.6509
6406800000		0.79007	-98.2234
6506750000		0.78995	-100.7146
6606700000		0.78612	-103.3216
6706650000		0.78325	-105.9543
6806600000		0.77861	-108.5946
6906550000		0.78001	-111.1284
7006500000		0.77967	-113.7446
7106450000		0.77448	-116.4356
7206400000		0.76918	-119.2665
7306350000		0.77077	-121.7524
7406300000		0.77116	-124.3989
7506250000		0.76829	-127.1338
7606200000		0.7635	-129.9275
7706150000		0.76044	-132.6549
7806100000		0.76035	-135.3262
!
!				Infineon Technologies AG
