! Infineon Technologies  Discrete & RF Semiconductors
! BAT15-04R
! IAC = 4 mA
! One-Port S-Parameters
# Hz  S  MA  R  50
!f									S11
!Hz							Mag  Ang
309850000		0.60409	173.983
409800000		0.6038	172.1923
509750000		0.60357	170.359
609700000		0.60351	168.6357
709650000		0.60322	166.8112
809600000		0.60381	165.1171
909550000		0.60414	163.3439
1009500000		0.60481	161.6948
1109450000		0.60478	159.9342
1209400000		0.60664	158.2661
1309350000		0.60697	156.5081
1409300000		0.60805	154.8219
1509250000		0.60928	153.1387
1609200000		0.61191	151.4565
1709150000		0.61289	149.6932
1809100000		0.61447	148.039
1909050000		0.61603	146.4768
2009000000		0.61933	144.8148
2108950000		0.62075	143.1234
2208900000		0.62284	141.4594
2308850000		0.62426	140.0014
2408800000		0.62706	138.3495
2508750000		0.62925	136.7326
2608700000		0.63113	135.181
2708650000		0.63274	133.6393
2808600000		0.63537	132.1028
2908550000		0.63792	130.6287
3008500000		0.64018	129.1434
3108450000		0.64262	127.635
3208400000		0.64501	126.2674
3308350000		0.64729	124.9264
3408300000		0.64984	123.5709
3508250000		0.65307	122.2394
3608200000		0.65579	121.0134
3708150000		0.6587	119.6409
3808100000		0.66152	118.3897
3908050000		0.66508	117.1476
4008000000		0.66827	115.9262
4107950000		0.67189	114.65
4207900000		0.67501	113.4906
4307850000		0.67858	112.2039
4407800000		0.68257	111.1069
4507750000		0.68613	109.9083
4607700000		0.68962	108.7589
4707650000		0.69296	107.5262
4807600000		0.69649	106.4169
4907550000		0.69948	105.2986
5007500000		0.7024	104.1395
5107450000		0.70528	103.1011
5207400000		0.70719	101.9385
5307350000		0.70975	100.8877
5407300000		0.7116	99.8723
5507250000		0.71339	98.8273
5607200000		0.71515	97.8162
5707150000		0.71657	96.8253
5807100000		0.7186	95.8393
5907050000		0.72	94.9219
6007000000		0.72144	93.9706
6106950000		0.72285	93.0512
6206900000		0.72436	92.0805
6306850000		0.72645	91.1875
6406800000		0.72731	90.2881
6506750000		0.72895	89.3677
6606700000		0.72988	88.441
6706650000		0.73174	87.5545
6806600000		0.73315	86.6202
6906550000		0.7348	85.6792
7006500000		0.73604	84.7316
7106450000		0.73725	83.6537
7206400000		0.73908	82.7006
7306350000		0.73955	81.6232
7406300000		0.74123	80.5857
7506250000		0.74063	79.4589
7606200000		0.74123	78.3156
7706150000		0.74049	77.1363
7806100000		0.73897	76.0184
!
!				Infineon Technologies AG
