! Infineon Technologies  Discrete & RF Semiconductors
! BAT15-04R
! IAC = 0.01 mA
! One-Port S-Parameters
# Hz  S  MA  R  50
!f									S11
!Hz							Mag  Ang
309850000		0.97502	-3.2335
409800000		0.97501	-4.2998
509750000		0.9748	-5.2695
609700000		0.97552	-6.3872
709650000		0.97554	-7.4153
809600000		0.97432	-8.5067
909550000		0.97479	-9.5803
1009500000		0.97431	-10.7636
1109450000		0.97494	-11.7612
1209400000		0.97454	-12.8979
1309350000		0.97382	-14.0147
1409300000		0.97228	-15.1601
1509250000		0.97163	-16.1361
1609200000		0.97169	-17.3309
1709150000		0.97118	-18.4285
1809100000		0.96884	-19.5305
1909050000		0.96807	-20.5287
2009000000		0.96765	-21.7252
2108950000		0.96672	-22.882
2208900000		0.96428	-23.9354
2308850000		0.96368	-25.0554
2408800000		0.96276	-26.2095
2508750000		0.96363	-27.368
2608700000		0.96305	-28.5436
2708650000		0.96302	-29.729
2808600000		0.96367	-30.8422
2908550000		0.96352	-32.0697
3008500000		0.96436	-33.3181
3108450000		0.96451	-34.5936
3208400000		0.96557	-35.948
3308350000		0.96447	-37.3774
3408300000		0.96375	-38.7728
3508250000		0.96399	-40.2301
3608200000		0.9645	-41.7159
3708150000		0.96334	-43.1802
3808100000		0.96105	-44.7575
3908050000		0.95845	-46.3436
4008000000		0.95763	-47.9469
4107950000		0.95597	-49.495
4207900000		0.95436	-51.1325
4307850000		0.95101	-52.6948
4407800000		0.94899	-54.3402
4507750000		0.94652	-56.0395
4607700000		0.94394	-57.7634
4707650000		0.94075	-59.4669
4807600000		0.93717	-61.3098
4907550000		0.93448	-63.155
5007500000		0.93307	-64.9465
5107450000		0.93287	-66.789
5207400000		0.93149	-68.6608
5307350000		0.92919	-70.6557
5407300000		0.92756	-72.7571
5507250000		0.9282	-74.6792
5607200000		0.92834	-76.7056
5707150000		0.92725	-78.8492
5807100000		0.92528	-81.1118
5907050000		0.92506	-83.3517
6007000000		0.92384	-85.6583
6106950000		0.92254	-88.0393
6206900000		0.92096	-90.3779
6306850000		0.92009	-92.7431
6406800000		0.91886	-95.2225
6506750000		0.91795	-97.637
6606700000		0.916	-100.1709
6706650000		0.91393	-102.7021
6806600000		0.9114	-105.2769
6906550000		0.91095	-107.7264
7006500000		0.90991	-110.2591
7106450000		0.9075	-112.869
7206400000		0.90445	-115.6081
7306350000		0.90413	-118.0589
7406300000		0.90269	-120.6332
7506250000		0.90115	-123.3152
7606200000		0.8979	-126.0284
7706150000		0.89553	-128.6804
7806100000		0.89303	-131.3254
!
!				Infineon Technologies AG
