! Infineon Technologies  Discrete & RF Semiconductors
! BAT15-04R
! VCA = 0.02 V
! One-Port S-Parameters
# Hz  S  MA  R  50
!f									S11
!Hz							Mag  Ang
309850000		0.99931	-3.1514
409800000		0.99896	-4.1719
509750000		0.99933	-5.138
609700000		0.99967	-6.1932
709650000		0.99916	-7.1804
809600000		0.99907	-8.2167
909550000		0.99959	-9.2519
1009500000		0.99861	-10.3992
1109450000		0.99865	-11.363
1209400000		0.99912	-12.4654
1309350000		0.99866	-13.5348
1409300000		0.99724	-14.641
1509250000		0.99686	-15.5679
1609200000		0.99731	-16.7367
1709150000		0.9958	-17.8341
1809100000		0.99346	-18.8948
1909050000		0.99321	-19.8455
2009000000		0.99379	-20.9928
2108950000		0.99197	-22.1359
2208900000		0.99027	-23.172
2308850000		0.99016	-24.1973
2408800000		0.99038	-25.2437
2508750000		0.99	-26.443
2608700000		0.98951	-27.585
2708650000		0.98966	-28.7214
2808600000		0.99024	-29.802
2908550000		0.99077	-31.0141
3008500000		0.99122	-32.2512
3108450000		0.99205	-33.4688
3208400000		0.99233	-34.8174
3308350000		0.99166	-36.1426
3408300000		0.99242	-37.491
3508250000		0.9933	-38.9023
3608200000		0.9926	-40.413
3708150000		0.99153	-41.8126
3808100000		0.99018	-43.3097
3908050000		0.98894	-44.8434
4008000000		0.98797	-46.4372
4107950000		0.98594	-47.9633
4207900000		0.98373	-49.6223
4307850000		0.98076	-51.1367
4407800000		0.97823	-52.8039
4507750000		0.97619	-54.4455
4607700000		0.97394	-56.1327
4707650000		0.9712	-57.7739
4807600000		0.96889	-59.4979
4907550000		0.96674	-61.276
5007500000		0.96575	-63.0215
5107450000		0.96434	-64.9301
5207400000		0.96324	-66.7555
5307350000		0.96166	-68.6728
5407300000		0.96081	-70.6962
5507250000		0.96031	-72.6996
5607200000		0.96004	-74.7635
5707150000		0.95924	-76.8606
5807100000		0.95829	-79.0432
5907050000		0.95776	-81.3015
6007000000		0.95735	-83.5632
6106950000		0.95666	-85.8944
6206900000		0.95549	-88.1923
6306850000		0.95375	-90.6357
6406800000		0.95305	-93.0764
6506750000		0.95171	-95.5402
6606700000		0.95052	-98.0139
6706650000		0.94864	-100.5371
6806600000		0.94687	-103.0305
6906550000		0.94544	-105.5983
7006500000		0.94408	-108.1693
7106450000		0.9427	-110.6652
7206400000		0.94057	-113.3096
7306350000		0.9394	-115.8707
7406300000		0.93705	-118.5707
7506250000		0.93603	-121.1987
7606200000		0.93354	-123.8358
7706150000		0.93135	-126.4944
7806100000		0.92786	-129.265
!
!				Infineon Technologies AG
