! Infineon Technologies  Discrete & RF Semiconductors
! BAT15-04R
! VCA = 0.07 V
! One-Port S-Parameters
# Hz  S  MA  R  50
!f									S11
!Hz							Mag  Ang
309850000		0.99983	-3.1413
409800000		0.99918	-4.1181
509750000		0.99944	-5.0756
609700000		0.99981	-6.1148
709650000		0.9994	-7.0906
809600000		0.9992	-8.1169
909550000		0.99973	-9.1371
1009500000		0.99877	-10.2705
1109450000		0.99891	-11.2247
1209400000		0.9993	-12.3108
1309350000		0.99887	-13.3683
1409300000		0.99748	-14.4598
1509250000		0.99704	-15.3797
1609200000		0.99725	-16.4988
1709150000		0.99607	-17.6117
1809100000		0.99377	-18.6615
1909050000		0.99348	-19.5972
2009000000		0.99403	-20.7294
2108950000		0.99222	-21.8585
2208900000		0.99056	-22.8802
2308850000		0.99041	-23.8888
2408800000		0.99076	-24.9568
2508750000		0.99033	-26.103
2608700000		0.98983	-27.2284
2708650000		0.98999	-28.3472
2808600000		0.99037	-29.3735
2908550000		0.99104	-30.6055
3008500000		0.99153	-31.8228
3108450000		0.99264	-33.0547
3208400000		0.99273	-34.3491
3308350000		0.99233	-35.6872
3408300000		0.99261	-36.9509
3508250000		0.99372	-38.3754
3608200000		0.99319	-39.8652
3708150000		0.99231	-41.275
3808100000		0.99095	-42.7476
3908050000		0.98955	-44.2254
4008000000		0.98867	-45.7989
4107950000		0.98671	-47.3013
4207900000		0.98449	-48.9363
4307850000		0.98166	-50.4263
4407800000		0.97916	-52.0641
4507750000		0.97716	-53.6822
4607700000		0.97486	-55.3427
4707650000		0.97213	-56.9548
4807600000		0.96983	-58.6551
4907550000		0.96773	-60.4034
5007500000		0.96674	-62.1194
5107450000		0.96538	-63.9995
5207400000		0.96425	-65.7934
5307350000		0.96275	-67.6802
5407300000		0.96183	-69.6701
5507250000		0.96149	-71.6431
5607200000		0.96118	-73.6714
5707150000		0.96045	-75.734
5807100000		0.95949	-77.8806
5907050000		0.95905	-80.1061
6007000000		0.95868	-82.3291
6106950000		0.958	-84.6252
6206900000		0.95689	-86.8907
6306850000		0.95528	-89.2986
6406800000		0.95462	-91.7049
6506750000		0.95339	-94.1332
6606700000		0.95218	-96.5722
6706650000		0.95027	-99.0639
6806600000		0.94853	-101.5242
6906550000		0.9472	-104.0592
7006500000		0.94584	-106.595
7106450000		0.94449	-109.0622
7206400000		0.94235	-111.6729
7306350000		0.94129	-114.2067
7406300000		0.93897	-116.8735
7506250000		0.93809	-119.4694
7606200000		0.93554	-122.0784
7706150000		0.93336	-124.7057
7806100000		0.93001	-127.4465
!
!				Infineon Technologies AG
