! Infineon Technologies  Discrete & RF Semiconductors
! BAT15-04R
! IAC = 0.04 mA
! One-Port S-Parameters
# Hz  S  MA  R  50
!f									S11
!Hz							Mag  Ang
309850000		0.90579	-3.2552
409800000		0.90619	-4.3114
509750000		0.9057	-5.3186
609700000		0.90661	-6.4245
709650000		0.90749	-7.4954
809600000		0.9038	-8.6118
909550000		0.90419	-9.7213
1009500000		0.90459	-10.9301
1109450000		0.90678	-11.9443
1209400000		0.90441	-13.086
1309350000		0.90308	-14.2326
1409300000		0.9013	-15.393
1509250000		0.90025	-16.4047
1609200000		0.89966	-17.5993
1709150000		0.90133	-18.6926
1809100000		0.89883	-19.8197
1909050000		0.89711	-20.8477
2009000000		0.89451	-22.0745
2108950000		0.89565	-23.2465
2208900000		0.8921	-24.3677
2308850000		0.8899	-25.4952
2408800000		0.88599	-26.6609
2508750000		0.88961	-27.8507
2608700000		0.88902	-29.0718
2708650000		0.88808	-30.2411
2808600000		0.88901	-31.4535
2908550000		0.88815	-32.7286
3008500000		0.8895	-33.8861
3108450000		0.88815	-35.2149
3208400000		0.89062	-36.5999
3308350000		0.88768	-38.085
3408300000		0.8842	-39.517
3508250000		0.88303	-40.9669
3608200000		0.88592	-42.5123
3708150000		0.8843	-44.0262
3808100000		0.87977	-45.638
3908050000		0.87458	-47.2623
4008000000		0.87382	-48.851
4107950000		0.87284	-50.5037
4207900000		0.87273	-52.175
4307850000		0.8684	-53.7695
4407800000		0.86753	-55.4876
4507750000		0.86365	-57.2217
4607700000		0.8603	-59.0023
4707650000		0.85567	-60.7505
4807600000		0.84882	-62.662
4907550000		0.84474	-64.5669
5007500000		0.84241	-66.4317
5107450000		0.84432	-68.3635
5207400000		0.84221	-70.3
5307350000		0.83833	-72.3622
5407300000		0.83483	-74.5513
5507250000		0.83734	-76.5432
5607200000		0.83808	-78.6532
5707150000		0.83595	-80.8919
5807100000		0.83176	-83.2152
5907050000		0.83139	-85.5155
6007000000		0.82878	-87.8454
6106950000		0.82594	-90.2785
6206900000		0.82339	-92.6768
6306850000		0.82376	-95.1203
6406800000		0.82115	-97.6731
6506750000		0.82086	-100.1452
6606700000		0.81742	-102.7375
6706650000		0.81473	-105.3477
6806600000		0.81052	-107.978
6906550000		0.81162	-110.4916
7006500000		0.81109	-113.0872
7106450000		0.80649	-115.764
7206400000		0.8016	-118.5742
7306350000		0.80281	-121.0559
7406300000		0.80291	-123.6875
7506250000		0.80024	-126.4115
7606200000		0.79573	-129.1905
7706150000		0.79277	-131.9036
7806100000		0.79221	-134.568
!
!				Infineon Technologies AG
