! Infineon Technologies  Discrete & RF Semiconductors
! BAT15-04R
! IAC = 0.7 mA
! One-Port S-Parameters
# Hz  S  MA  R  50
!f									S11
!Hz							Mag  Ang
309850000		0.02334	30.421
409800000		0.02436	39.1523
509750000		0.02652	44.2245
609700000		0.02773	48.3796
709650000		0.03065	44.8627
809600000		0.03119	48.4588
909550000		0.03243	49.0316
1009500000		0.03254	54.7036
1109450000		0.03606	53.1889
1209400000		0.03876	61.7015
1309350000		0.0397	60.2178
1409300000		0.04217	61.7653
1509250000		0.04301	65.2483
1609200000		0.04585	67.7716
1709150000		0.05023	67.882
1809100000		0.05141	69.9671
1909050000		0.05398	73.833
2009000000		0.05589	77.4887
2108950000		0.05716	75.2328
2208900000		0.05906	76.704
2308850000		0.06115	79.4092
2408800000		0.06585	80.5838
2508750000		0.06643	78.4906
2608700000		0.06788	79.4219
2708650000		0.07128	80.1947
2808600000		0.07305	81.8462
2908550000		0.07647	82.401
3008500000		0.08312	82.7216
3108450000		0.08704	83.673
3208400000		0.08931	85.7333
3308350000		0.09102	86.7171
3408300000		0.09589	88.8835
3508250000		0.09927	89.7084
3608200000		0.10523	91.0108
3708150000		0.10693	91.5288
3808100000		0.11129	92.2718
3908050000		0.11574	93.2579
4008000000		0.12068	93.672
4107950000		0.12526	94.9145
4207900000		0.12765	95.2137
4307850000		0.13329	95.4464
4407800000		0.13716	96.5665
4507750000		0.14243	96.8314
4607700000		0.14929	97.5277
4707650000		0.15539	97.6616
4807600000		0.1628	98.3459
4907550000		0.16668	98.6188
5007500000		0.17212	98.7749
5107450000		0.18066	99.4465
5207400000		0.18143	99.3295
5307350000		0.18534	99.3696
5407300000		0.19063	99.7358
5507250000		0.1984	99.666
5607200000		0.20463	99.88
5707150000		0.21121	99.9384
5807100000		0.21606	99.8663
5907050000		0.22367	99.5748
6007000000		0.22711	99.3079
6106950000		0.23236	99.0982
6206900000		0.23876	98.7445
6306850000		0.24336	98.888
6406800000		0.24966	98.5714
6506750000		0.25522	98.1837
6606700000		0.26086	97.5704
6706650000		0.2671	97.3577
6806600000		0.27101	96.9532
6906550000		0.27903	96.2781
7006500000		0.28227	96.1304
7106450000		0.28631	95.5687
7206400000		0.29307	94.8328
7306350000		0.29711	93.9945
7406300000		0.30561	92.8742
7506250000		0.30694	92.3692
7606200000		0.31137	91.4746
7706150000		0.31606	90.3203
7806100000		0.31856	89.5309
!
!				Infineon Technologies AG
