! Infineon Technologies  Discrete & RF Semiconductors
! BAT15-04R
! VCA = 0.6 V
! One-Port S-Parameters
# Hz  S  MA  R  50
!f									S11
!Hz							Mag  Ang
309850000		0.99942	-2.9232
409800000		0.99907	-3.8758
509750000		0.99935	-4.7696
609700000		0.99979	-5.748
709650000		0.99933	-6.6629
809600000		0.99918	-7.6282
909550000		0.99974	-8.5847
1009500000		0.99888	-9.6563
1109450000		0.99893	-10.5516
1209400000		0.99933	-11.5694
1309350000		0.99889	-12.5656
1409300000		0.99761	-13.5917
1509250000		0.99715	-14.4509
1609200000		0.99757	-15.5303
1709150000		0.99618	-16.5438
1809100000		0.99394	-17.5266
1909050000		0.99366	-18.3938
2009000000		0.99413	-19.4531
2108950000		0.99229	-20.4812
2208900000		0.99082	-21.4591
2308850000		0.99065	-22.3991
2408800000		0.99105	-23.3864
2508750000		0.99062	-24.4557
2608700000		0.99016	-25.4977
2708650000		0.99033	-26.5368
2808600000		0.99103	-27.5122
2908550000		0.99153	-28.6212
3008500000		0.99202	-29.7525
3108450000		0.99313	-30.8895
3208400000		0.9934	-32.089
3308350000		0.99312	-33.3319
3408300000		0.99345	-34.4979
3508250000		0.99468	-35.8186
3608200000		0.99426	-37.2063
3708150000		0.99353	-38.5103
3808100000		0.99231	-39.8781
3908050000		0.99106	-41.2476
4008000000		0.99039	-42.7076
4107950000		0.98867	-44.0978
4207900000		0.98664	-45.6126
4307850000		0.98391	-46.9834
4407800000		0.98159	-48.4979
4507750000		0.97971	-49.9941
4607700000		0.97751	-51.5251
4707650000		0.97498	-53.0085
4807600000		0.97271	-54.572
4907550000		0.97065	-56.188
5007500000		0.96979	-57.7591
5107450000		0.96845	-59.4837
5207400000		0.96742	-61.1336
5307350000		0.96592	-62.863
5407300000		0.96505	-64.6969
5507250000		0.96471	-66.5025
5607200000		0.96449	-68.3599
5707150000		0.96385	-70.2592
5807100000		0.96302	-72.2349
5907050000		0.96278	-74.2841
6007000000		0.96257	-76.3321
6106950000		0.96202	-78.4514
6206900000		0.96106	-80.5481
6306850000		0.95969	-82.7697
6406800000		0.95923	-85.0095
6506750000		0.95825	-87.2548
6606700000		0.9572	-89.5235
6706650000		0.95546	-91.8471
6806600000		0.95393	-94.153
6906550000		0.95279	-96.5072
7006500000		0.95154	-98.8769
7106450000		0.95029	-101.1804
7206400000		0.94824	-103.6283
7306350000		0.94738	-106.0046
7406300000		0.94528	-108.4943
7506250000		0.94459	-110.9371
7606200000		0.94209	-113.3847
7706150000		0.94024	-115.8517
7806100000		0.93726	-118.4238
!
!				Infineon Technologies AG
