! Infineon Technologies  Discrete & RF Semiconductors
! BAT15-04R
! IAC = 0.02 mA
! One-Port S-Parameters
# Hz  S  MA  R  50
!f									S11
!Hz							Mag  Ang
309850000		0.9516	-3.2727
409800000		0.95163	-4.316
509750000		0.95141	-5.3247
609700000		0.95204	-6.4165
709650000		0.9524	-7.4646
809600000		0.95027	-8.5676
909550000		0.95067	-9.6591
1009500000		0.95055	-10.8477
1109450000		0.9518	-11.8584
1209400000		0.95065	-13.0029
1309350000		0.94968	-14.1318
1409300000		0.9481	-15.283
1509250000		0.94732	-16.2727
1609200000		0.94713	-17.4728
1709150000		0.94734	-18.5736
1809100000		0.94493	-19.6873
1909050000		0.94393	-20.6967
2009000000		0.94272	-21.9078
2108950000		0.94247	-23.0714
2208900000		0.93976	-24.172
2308850000		0.9385	-25.2793
2408800000		0.93629	-26.4065
2508750000		0.93835	-27.613
2608700000		0.93778	-28.8089
2708650000		0.93745	-30.0075
2808600000		0.93812	-31.1443
2908550000		0.93792	-32.4123
3008500000		0.93882	-33.6108
3108450000		0.93836	-34.899
3208400000		0.93978	-36.2436
3308350000		0.93817	-37.7281
3408300000		0.93651	-39.1435
3508250000		0.93631	-40.6132
3608200000		0.93758	-42.1101
3708150000		0.93627	-43.5932
3808100000		0.93303	-45.1554
3908050000		0.92967	-46.7955
4008000000		0.92889	-48.4092
4107950000		0.92747	-49.9818
4207900000		0.92624	-51.5996
4307850000		0.92275	-53.2111
4407800000		0.92114	-54.8824
4507750000		0.91811	-56.5998
4607700000		0.91535	-58.3459
4707650000		0.91157	-60.0715
4807600000		0.9068	-61.9464
4907550000		0.90362	-63.8181
5007500000		0.90193	-65.6398
5107450000		0.90257	-67.5091
5207400000		0.90085	-69.4066
5307350000		0.898	-71.4329
5407300000		0.89566	-73.571
5507250000		0.89705	-75.5155
5607200000		0.89747	-77.572
5707150000		0.8961	-79.7525
5807100000		0.89329	-82.043
5907050000		0.89298	-84.3072
6007000000		0.89126	-86.6304
6106950000		0.88936	-89.0401
6206900000		0.88743	-91.4018
6306850000		0.88704	-93.7958
6406800000		0.88535	-96.3089
6506750000		0.88465	-98.7439
6606700000		0.88216	-101.3055
6706650000		0.87992	-103.8673
6806600000		0.87671	-106.4701
6906550000		0.8769	-108.9425
7006500000		0.87598	-111.4963
7106450000		0.87277	-114.1397
7206400000		0.86903	-116.9118
7306350000		0.86927	-119.3735
7406300000		0.86849	-121.9668
7506250000		0.86647	-124.6736
7606200000		0.86268	-127.4163
7706150000		0.86008	-130.0958
7806100000		0.8583	-132.7484
!
!				Infineon Technologies AG
