! Infineon Technologies  Discrete & RF Semiconductors
! BAT15-04R
! VCA = 0.06 V
! One-Port S-Parameters
# Hz  S  MA  R  50
!f									S11
!Hz							Mag  Ang
309850000		0.99954	-3.12
409800000		0.99917	-4.1299
509750000		0.99932	-5.0564
609700000		0.99985	-6.1295
709650000		0.99941	-7.106
809600000		0.99925	-8.1346
909550000		0.99976	-9.1576
1009500000		0.99889	-10.2957
1109450000		0.9989	-11.2525
1209400000		0.99931	-12.3395
1309350000		0.99888	-13.4
1409300000		0.99748	-14.4941
1509250000		0.99708	-15.4124
1609200000		0.9975	-16.5686
1709150000		0.99604	-17.6531
1809100000		0.99374	-18.703
1909050000		0.99347	-19.6416
2009000000		0.9938	-20.7447
2108950000		0.99222	-21.9088
2208900000		0.99036	-22.8973
2308850000		0.99039	-23.9489
2408800000		0.9908	-25.0186
2508750000		0.99034	-26.1643
2608700000		0.9898	-27.2929
2708650000		0.98975	-28.3822
2808600000		0.99055	-29.4835
2908550000		0.99101	-30.6813
3008500000		0.99148	-31.9026
3108450000		0.99261	-33.1369
3208400000		0.99272	-34.4344
3308350000		0.99229	-35.7786
3408300000		0.99277	-37.0777
3508250000		0.99372	-38.4732
3608200000		0.99308	-39.9648
3708150000		0.99221	-41.3783
3808100000		0.99084	-42.8576
3908050000		0.98946	-44.3397
4008000000		0.98858	-45.917
4107950000		0.98661	-47.4225
4207900000		0.98445	-49.0615
4307850000		0.98157	-50.5571
4407800000		0.97902	-52.1999
4507750000		0.977	-53.8229
4607700000		0.97476	-55.4873
4707650000		0.97203	-57.1063
4807600000		0.96968	-58.8099
4907550000		0.96761	-60.5673
5007500000		0.96662	-62.286
5107450000		0.96527	-64.1678
5207400000		0.96415	-65.9713
5307350000		0.96263	-67.8641
5407300000		0.9617	-69.8609
5507250000		0.96134	-71.8369
5607200000		0.96101	-73.8731
5707150000		0.96032	-75.9405
5807100000		0.95933	-78.0956
5907050000		0.95888	-80.3263
6007000000		0.95852	-82.5574
6106950000		0.95785	-84.8608
6206900000		0.95671	-87.1287
6306850000		0.9551	-89.543
6406800000		0.95439	-91.9567
6506750000		0.95314	-94.3924
6606700000		0.95195	-96.8357
6706650000		0.95005	-99.334
6806600000		0.94829	-101.8019
6906550000		0.9469	-104.3419
7006500000		0.94561	-106.8837
7106450000		0.94418	-109.3573
7206400000		0.94206	-111.9742
7306350000		0.94104	-114.5127
7406300000		0.93874	-117.1841
7506250000		0.93779	-119.7882
7606200000		0.93522	-122.4031
7706150000		0.93304	-125.0353
7806100000		0.92968	-127.7803
!
!				Infineon Technologies AG
