! Infineon Technologies  Discrete & RF Semiconductors
! BAT15-04R
! IAC = 0.08 mA
! One-Port S-Parameters
# Hz  S  MA  R  50
!f									S11
!Hz							Mag  Ang
309850000		0.81896	-3.1578
409800000		0.81996	-4.2481
509750000		0.81891	-5.2102
609700000		0.82016	-6.3624
709650000		0.82195	-7.4697
809600000		0.81621	-8.5945
909550000		0.81662	-9.7384
1009500000		0.81745	-10.9557
1109450000		0.82113	-11.969
1209400000		0.81668	-13.0709
1309350000		0.8149	-14.256
1409300000		0.81294	-15.4094
1509250000		0.8114	-16.463
1609200000		0.81028	-17.6319
1709150000		0.81384	-18.696
1809100000		0.81129	-19.8421
1909050000		0.80852	-20.8914
2009000000		0.80371	-22.1451
2108950000		0.80697	-23.3316
2208900000		0.80216	-24.48
2308850000		0.7986	-25.6461
2408800000		0.79187	-26.771
2508750000		0.79796	-27.9895
2608700000		0.79743	-29.2574
2708650000		0.79594	-30.4558
2808600000		0.79678	-31.7086
2908550000		0.795	-32.9619
3008500000		0.79683	-34.0429
3108450000		0.79393	-35.3576
3208400000		0.79746	-36.8351
3308350000		0.79287	-38.3574
3408300000		0.78659	-39.8149
3508250000		0.78452	-41.3205
3608200000		0.78865	-42.8404
3708150000		0.78676	-44.4225
3808100000		0.77994	-46.0315
3908050000		0.7723	-47.6775
4008000000		0.77187	-49.2873
4107950000		0.77079	-51.0245
4207900000		0.77204	-52.7191
4307850000		0.76665	-54.3338
4407800000		0.76679	-56.1691
4507750000		0.76135	-57.9081
4607700000		0.75697	-59.7435
4707650000		0.75087	-61.5184
4807600000		0.74062	-63.4741
4907550000		0.7353	-65.4353
5007500000		0.73182	-67.3759
5107450000		0.73472	-69.4556
5207400000		0.73234	-71.4529
5307350000		0.72741	-73.5768
5407300000		0.72191	-75.8698
5507250000		0.72535	-77.96
5607200000		0.72605	-80.199
5707150000		0.72268	-82.571
5807100000		0.71638	-84.9431
5907050000		0.71529	-87.3007
6007000000		0.71157	-89.6241
6106950000		0.7075	-92.0843
6206900000		0.7038	-94.531
6306850000		0.70498	-97.0808
6406800000		0.70091	-99.7088
6506750000		0.7011	-102.267
6606700000		0.69634	-104.9071
6706650000		0.69281	-107.6193
6806600000		0.68744	-110.2932
6906550000		0.68916	-112.8983
7006500000		0.68937	-115.5899
7106450000		0.6831	-118.3145
7206400000		0.67677	-121.2041
7306350000		0.67918	-123.712
7406300000		0.67994	-126.4219
7506250000		0.67697	-129.1755
7606200000		0.67177	-132.02
7706150000		0.66822	-134.7894
7806100000		0.66957	-137.481
!
!				Infineon Technologies AG
