! Infineon Technologies  Discrete & RF Semiconductors
! BAT15-04R
! IAC = 0.6 mA
! One-Port S-Parameters
# Hz  S  MA  R  50
!f									S11
!Hz							Mag  Ang
309850000		0.1001	3.251
409800000		0.09892	4.3179
509750000		0.0989	5.0591
609700000		0.09813	5.1894
709650000		0.10126	4.3183
809600000		0.09899	4.414
909550000		0.09936	3.8281
1009500000		0.09656	3.9772
1109450000		0.09962	4.081
1209400000		0.09549	6.6706
1309350000		0.09579	5.5149
1409300000		0.09554	6.0967
1509250000		0.09264	6.2137
1609200000		0.09162	7.3054
1709150000		0.09352	8.5281
1809100000		0.09141	8.558
1909050000		0.08782	10.325
2009000000		0.08348	11.5465
2108950000		0.08564	10.1314
2208900000		0.0833	10.8338
2308850000		0.07981	12.1242
2408800000		0.07856	15.3577
2508750000		0.08034	13.3084
2608700000		0.07841	13.3762
2708650000		0.07752	15.222
2808600000		0.07468	15.613
2908550000		0.0739	17.6008
3008500000		0.07522	21.3985
3108450000		0.07413	24.0798
3208400000		0.07043	25.61
3308350000		0.06767	27.1463
3408300000		0.06491	32.809
3508250000		0.06354	35.6832
3608200000		0.06337	40.5653
3708150000		0.06119	42.2049
3808100000		0.06127	47.1561
3908050000		0.06127	52.5709
4008000000		0.06264	56.4041
4107950000		0.06239	61.8202
4207900000		0.06185	63.9256
4307850000		0.06502	68.2661
4407800000		0.06508	73.0284
4507750000		0.06878	76.807
4607700000		0.0738	81.5517
4707650000		0.07899	84.5518
4807600000		0.08619	88.6122
4907550000		0.08942	90.9493
5007500000		0.09433	93.0314
5107450000		0.10203	96.091
5207400000		0.10217	97.1217
5307350000		0.10593	98.4403
5407300000		0.11175	100.358
5507250000		0.1195	101.3126
5607200000		0.12608	102.7398
5707150000		0.13351	103.711
5807100000		0.13929	104.3163
5907050000		0.14773	104.3624
6007000000		0.15174	104.5495
6106950000		0.1579	104.715
6206900000		0.16546	104.6197
6306850000		0.17093	105.4558
6406800000		0.17867	105.2913
6506750000		0.1849	105.1485
6606700000		0.1915	104.521
6706650000		0.19913	104.5202
6806600000		0.20406	104.267
6906550000		0.21317	103.478
7006500000		0.21741	103.7894
7106450000		0.22263	103.2959
7206400000		0.23057	102.4203
7306350000		0.23516	101.6228
7406300000		0.24458	100.247
7506250000		0.24687	99.9712
7606200000		0.25233	99.0411
7706150000		0.25798	97.7493
7806100000		0.26128	97.0729
!
!				Infineon Technologies AG
