! Infineon Technologies  Discrete & RF Semiconductors
! BAT15-04R
! IAC = 2 mA
! One-Port S-Parameters
# Hz  S  MA  R  50
!f									S11
!Hz							Mag  Ang
309850000		0.4344	173.576
409800000		0.43492	171.6944
509750000		0.43504	169.7786
609700000		0.43583	167.9104
709650000		0.43527	166.058
809600000		0.43571	164.3523
909550000		0.4367	162.5093
1009500000		0.43835	160.85
1109450000		0.43887	159.0144
1209400000		0.44124	157.2645
1309350000		0.44164	155.451
1409300000		0.4433	153.7031
1509250000		0.4452	151.9701
1609200000		0.44848	150.2051
1709150000		0.45053	148.3608
1809100000		0.45299	146.6877
1909050000		0.45527	145.0962
2009000000		0.45881	143.4238
2108950000		0.46097	141.7194
2208900000		0.46334	140.1059
2308850000		0.46598	138.5576
2408800000		0.46892	136.888
2508750000		0.47167	135.3062
2608700000		0.47459	133.738
2708650000		0.47699	132.258
2808600000		0.48091	130.7372
2908550000		0.48437	129.2441
3008500000		0.48841	127.6561
3108450000		0.49183	126.2016
3208400000		0.49582	124.8709
3308350000		0.49878	123.5709
3408300000		0.50239	122.2453
3508250000		0.50651	120.9644
3608200000		0.51109	119.7312
3708150000		0.51472	118.3899
3808100000		0.51806	117.201
3908050000		0.52213	115.9947
4008000000		0.52647	114.8104
4107950000		0.5312	113.585
4207900000		0.53515	112.4823
4307850000		0.53958	111.2286
4407800000		0.54451	110.2034
4507750000		0.54869	109.056
4607700000		0.55329	107.9696
4707650000		0.55755	106.7942
4807600000		0.5618	105.7607
4907550000		0.56536	104.706
5007500000		0.56935	103.6091
5107450000		0.57403	102.6486
5207400000		0.57642	101.5547
5307350000		0.57981	100.5678
5407300000		0.58266	99.6215
5507250000		0.58618	98.6361
5607200000		0.58935	97.6926
5707150000		0.59207	96.7616
5807100000		0.59487	95.8287
5907050000		0.59774	94.9641
6007000000		0.59998	94.0625
6106950000		0.60236	93.1931
6206900000		0.60483	92.2645
6306850000		0.60772	91.4284
6406800000		0.6096	90.5727
6506750000		0.61225	89.6914
6606700000		0.61409	88.8063
6706650000		0.61676	87.9679
6806600000		0.61863	87.0784
6906550000		0.62156	86.173
7006500000		0.62326	85.2757
7106450000		0.62499	84.2496
7206400000		0.62759	83.3328
7306350000		0.62887	82.2854
7406300000		0.63183	81.2695
7506250000		0.63173	80.1891
7606200000		0.6331	79.0764
7706150000		0.63343	77.9164
7806100000		0.63304	76.8194
!
!				Infineon Technologies AG
