! Infineon Technologies  Discrete & RF Semiconductors
! BAT15-04R
! VCA = 0.03 V
! One-Port S-Parameters
# Hz  S  MA  R  50
!f									S11
!Hz							Mag  Ang
309850000		0.99944	-3.1423
409800000		0.99909	-4.1607
509750000		0.99916	-5.094
609700000		0.9997	-6.1765
709650000		0.99931	-7.1605
809600000		0.99913	-8.1953
909550000		0.99964	-9.2278
1009500000		0.99869	-10.3713
1109450000		0.99872	-11.3337
1209400000		0.99921	-12.4311
1309350000		0.99877	-13.4993
1409300000		0.9973	-14.6013
1509250000		0.99695	-15.5257
1609200000		0.9974	-16.6922
1709150000		0.99591	-17.7851
1809100000		0.99361	-18.8441
1909050000		0.99333	-19.7914
2009000000		0.99388	-20.9343
2108950000		0.99206	-22.0767
2208900000		0.99039	-23.1071
2308850000		0.99004	-24.0935
2408800000		0.99064	-25.2083
2508750000		0.98996	-26.3361
2608700000		0.98963	-27.5095
2708650000		0.98974	-28.638
2808600000		0.99014	-29.6805
2908550000		0.99083	-30.9264
3008500000		0.99128	-32.1569
3108450000		0.99216	-33.3703
3208400000		0.9925	-34.7155
3308350000		0.9921	-36.0725
3408300000		0.99252	-37.3794
3508250000		0.9934	-38.7868
3608200000		0.99264	-40.2618
3708150000		0.9919	-41.7206
3808100000		0.99053	-43.2118
3908050000		0.9891	-44.7085
4008000000		0.98824	-46.2969
4107950000		0.98619	-47.8172
4207900000		0.98398	-49.4732
4307850000		0.98108	-50.9807
4407800000		0.97851	-52.6404
4507750000		0.97644	-54.2777
4607700000		0.97416	-55.9608
4707650000		0.97145	-57.5943
4807600000		0.96913	-59.3139
4907550000		0.96706	-61.0858
5007500000		0.96606	-62.824
5107450000		0.96465	-64.7264
5207400000		0.9635	-66.5444
5307350000		0.96194	-68.4552
5407300000		0.96104	-70.4718
5507250000		0.96064	-72.4693
5607200000		0.96038	-74.5253
5707150000		0.95953	-76.6131
5807100000		0.95861	-78.7887
5907050000		0.95814	-81.0415
6007000000		0.95773	-83.2924
6106950000		0.95704	-85.6172
6206900000		0.95585	-87.9087
6306850000		0.95415	-90.3443
6406800000		0.95347	-92.7756
6506750000		0.95218	-95.2335
6606700000		0.95095	-97.6984
6706650000		0.94904	-100.2155
6806600000		0.94732	-102.7004
6906550000		0.94589	-105.2626
7006500000		0.94449	-107.8251
7106450000		0.94316	-110.3146
7206400000		0.94106	-112.9503
7306350000		0.93996	-115.5086
7406300000		0.9376	-118.2017
7506250000		0.93663	-120.8217
7606200000		0.93413	-123.4546
7706150000		0.93192	-126.107
7806100000		0.92849	-128.8721
!
!				Infineon Technologies AG
