! Infineon Technologies  Discrete & RF Semiconductors
! BAT15-04R
! VCA = 0.5 V
! One-Port S-Parameters
# Hz  S  MA  R  50
!f									S11
!Hz							Mag  Ang
309850000		0.99946	-2.9453
409800000		0.99913	-3.9025
509750000		0.99936	-4.804
609700000		0.9998	-5.7899
709650000		0.99935	-6.7109
809600000		0.99917	-7.6822
909550000		0.99969	-8.6474
1009500000		0.99886	-9.7256
1109450000		0.99889	-10.628
1209400000		0.9993	-11.655
1309350000		0.99891	-12.6597
1409300000		0.99758	-13.6933
1509250000		0.99713	-14.5562
1609200000		0.99758	-15.6448
1709150000		0.9962	-16.6663
1809100000		0.99389	-17.6564
1909050000		0.99358	-18.534
2009000000		0.99413	-19.597
2108950000		0.99244	-20.6647
2208900000		0.99078	-21.6212
2308850000		0.99058	-22.5672
2408800000		0.991	-23.5656
2508750000		0.99058	-24.6433
2608700000		0.98986	-25.6591
2708650000		0.99031	-26.744
2808600000		0.99092	-27.7289
2908550000		0.99144	-28.8509
3008500000		0.99194	-29.9895
3108450000		0.99309	-31.137
3208400000		0.99332	-32.3487
3308350000		0.993	-33.6034
3408300000		0.99356	-34.8126
3508250000		0.99456	-36.1105
3608200000		0.99394	-37.4789
3708150000		0.99337	-38.8262
3808100000		0.99219	-40.2053
3908050000		0.99087	-41.5894
4008000000		0.99015	-43.0626
4107950000		0.9884	-44.4635
4207900000		0.98638	-45.9905
4307850000		0.98362	-47.3764
4407800000		0.98125	-48.9052
4507750000		0.97942	-50.4148
4607700000		0.97721	-51.9628
4707650000		0.97468	-53.4609
4807600000		0.97233	-55.0397
4907550000		0.97032	-56.6719
5007500000		0.96939	-58.2573
5107450000		0.96805	-59.9999
5207400000		0.967	-61.6656
5307350000		0.96553	-63.4156
5407300000		0.96471	-65.2672
5507250000		0.96437	-67.0918
5607200000		0.9641	-68.9688
5707150000		0.96349	-70.8848
5807100000		0.96258	-72.8828
5907050000		0.96237	-74.9499
6007000000		0.96213	-77.0217
6106950000		0.9616	-79.1577
6206900000		0.96061	-81.2757
6306850000		0.95919	-83.5179
6406800000		0.95871	-85.7774
6506750000		0.95769	-88.0432
6606700000		0.95667	-90.3329
6706650000		0.95483	-92.6749
6806600000		0.95328	-95.0001
6906550000		0.95216	-97.3766
7006500000		0.9509	-99.7648
7106450000		0.9496	-102.0896
7206400000		0.94759	-104.5584
7306350000		0.94671	-106.9507
7406300000		0.94457	-109.464
7506250000		0.94385	-111.9246
7606200000		0.94138	-114.3919
7706150000		0.93943	-116.8781
7806100000		0.9364	-119.4706
!
!				Infineon Technologies AG
