! Infineon Technologies  Discrete & RF Semiconductors
! BAT15-04R
! VCA = 0.9 V
! One-Port S-Parameters
# Hz  S  MA  R  50
!f									S11
!Hz							Mag  Ang
309850000		0.99945	-2.8741
409800000		0.99908	-3.8096
509750000		0.99935	-4.6882
609700000		0.99976	-5.648
709650000		0.99943	-6.5475
809600000		0.99922	-7.4976
909550000		0.99971	-8.4382
1009500000		0.99881	-9.4927
1109450000		0.99891	-10.3726
1209400000		0.99929	-11.3741
1309350000		0.9989	-12.3536
1409300000		0.99759	-13.3626
1509250000		0.99714	-14.2035
1609200000		0.99758	-15.2646
1709150000		0.99619	-16.2616
1809100000		0.99396	-17.2262
1909050000		0.99366	-18.0794
2009000000		0.99426	-19.1144
2108950000		0.99255	-20.1557
2208900000		0.99089	-21.0813
2308850000		0.9905	-21.9678
2408800000		0.99106	-22.9701
2508750000		0.99048	-23.9857
2608700000		0.99023	-25.042
2708650000		0.99042	-26.0616
2808600000		0.9911	-27.0131
2908550000		0.99162	-28.1014
3008500000		0.9921	-29.2075
3108450000		0.99323	-30.3182
3208400000		0.99347	-31.4952
3308350000		0.99321	-32.7114
3408300000		0.9938	-33.886
3508250000		0.9949	-35.1459
3608200000		0.99451	-36.5069
3708150000		0.99381	-37.7824
3808100000		0.9926	-39.1231
3908050000		0.99141	-40.4653
4008000000		0.99073	-41.8956
4107950000		0.98904	-43.2539
4207900000		0.98707	-44.7396
4307850000		0.98439	-46.0815
4407800000		0.98208	-47.5637
4507750000		0.98028	-49.0248
4607700000		0.97815	-50.5253
4707650000		0.97565	-51.975
4807600000		0.97338	-53.5006
4907550000		0.97136	-55.0824
5007500000		0.97051	-56.6125
5107450000		0.96914	-58.3002
5207400000		0.96806	-59.9105
5307350000		0.96663	-61.6004
5407300000		0.96577	-63.3904
5507250000		0.96542	-65.1558
5607200000		0.96518	-66.9672
5707150000		0.96458	-68.8233
5807100000		0.96372	-70.752
5907050000		0.96359	-72.7548
6007000000		0.9634	-74.7596
6106950000		0.96295	-76.8265
6206900000		0.96201	-78.8794
6306850000		0.96066	-81.0499
6406800000		0.96028	-83.2453
6506750000		0.95935	-85.4412
6606700000		0.95836	-87.6666
6706650000		0.95662	-89.9406
6806600000		0.95515	-92.204
6906550000		0.95405	-94.5115
7006500000		0.95285	-96.8333
7106450000		0.95165	-99.0932
7206400000		0.94965	-101.4921
7306350000		0.94883	-103.8261
7406300000		0.94681	-106.2681
7506250000		0.9461	-108.6659
7606200000		0.94369	-111.0665
7706150000		0.9418	-113.4883
7806100000		0.93896	-116.0119
!
!				Infineon Technologies AG
