! Infineon Technologies  Discrete & RF Semiconductors
! BAT15-04R
! IAC = 3 mA
! One-Port S-Parameters
# Hz  S  MA  R  50
!f									S11
!Hz							Mag  Ang
309850000		0.54541	173.8769
409800000		0.54533	172.0665
509750000		0.54521	170.2124
609700000		0.54563	168.3983
709650000		0.54511	166.6263
809600000		0.54557	164.9524
909550000		0.54623	163.1377
1009500000		0.54727	161.4735
1109450000		0.54744	159.6954
1209400000		0.54943	158.0074
1309350000		0.54991	156.232
1409300000		0.55116	154.5308
1509250000		0.55263	152.8316
1609200000		0.55543	151.1383
1709150000		0.55681	149.3522
1809100000		0.55868	147.6901
1909050000		0.56047	146.1204
2009000000		0.56385	144.4539
2108950000		0.56573	142.7293
2208900000		0.56787	141.0916
2308850000		0.5696	139.6369
2408800000		0.57273	137.9204
2508750000		0.57497	136.3618
2608700000		0.57735	134.7806
2708650000		0.57919	133.2703
2808600000		0.58222	131.7693
2908550000		0.58517	130.2654
3008500000		0.58811	128.7262
3108450000		0.59086	127.2582
3208400000		0.59366	125.9357
3308350000		0.5965	124.5304
3408300000		0.59932	123.215
3508250000		0.60291	121.8859
3608200000		0.60621	120.6656
3708150000		0.60939	119.2972
3808100000		0.61249	118.054
3908050000		0.61623	116.8171
4008000000		0.6198	115.6062
4107950000		0.6237	114.3741
4207900000		0.62726	113.1962
4307850000		0.63109	111.9165
4407800000		0.63546	110.8372
4507750000		0.63923	109.655
4607700000		0.6431	108.5188
4707650000		0.64675	107.3037
4807600000		0.65056	106.2142
4907550000		0.65379	105.1132
5007500000		0.6571	103.9689
5107450000		0.66055	102.9523
5207400000		0.66269	101.8097
5307350000		0.6656	100.7765
5407300000		0.66784	99.7801
5507250000		0.67016	98.751
5607200000		0.67242	97.7562
5707150000		0.67428	96.7822
5807100000		0.6766	95.8102
5907050000		0.6785	94.907
6007000000		0.68019	93.9682
6106950000		0.682	93.0637
6206900000		0.68379	92.1013
6306850000		0.6862	91.2254
6406800000		0.68738	90.3365
6506750000		0.68942	89.4269
6606700000		0.69065	88.5124
6706650000		0.69274	87.6366
6806600000		0.69434	86.7145
6906550000		0.69642	85.7826
7006500000		0.69784	84.8478
7106450000		0.69924	83.7825
7206400000		0.70132	82.8393
7306350000		0.7021	81.7715
7406300000		0.70413	80.7407
7506250000		0.70373	79.6268
7606200000		0.70462	78.4913
7706150000		0.70422	77.3171
7806100000		0.70309	76.2038
!
!				Infineon Technologies AG
