! Infineon Technologies  Discrete & RF Semiconductors
! BAT15-04R
! IAC = 0.8 mA
! One-Port S-Parameters
# Hz  S  MA  R  50
!f									S11
!Hz							Mag  Ang
309850000		0.05101	160.3439
409800000		0.05393	155.6243
509750000		0.05574	151.0786
609700000		0.05807	147.7819
709650000		0.0569	143.6344
809600000		0.05894	141.1817
909550000		0.06034	138.4833
1009500000		0.06432	137.1675
1109450000		0.06524	133.0009
1209400000		0.07137	130.8
1309350000		0.07184	128.3972
1409300000		0.07474	125.9651
1509250000		0.0783	125.0054
1609200000		0.08245	123.144
1709150000		0.08632	120.1607
1809100000		0.08964	119.3439
1909050000		0.09446	118.6387
2009000000		0.09889	118.2487
2108950000		0.10008	116.212
2208900000		0.10328	115.2164
2308850000		0.10724	114.7936
2408800000		0.11207	113.1856
2508750000		0.113	111.5089
2608700000		0.11598	110.8152
2708650000		0.12002	109.6779
2808600000		0.12398	109.4176
2908550000		0.12805	108.3927
3008500000		0.1351	106.8471
3108450000		0.13986	106.1111
3208400000		0.14445	106.2884
3308350000		0.14731	105.9278
3408300000		0.15308	105.8765
3508250000		0.1575	105.4138
3608200000		0.1647	105.1776
3708150000		0.16754	104.7503
3808100000		0.17213	104.2698
3908050000		0.17699	103.9803
4008000000		0.18257	103.5342
4107950000		0.18822	103.4493
4207900000		0.19167	103.0846
4307850000		0.19751	102.5062
4407800000		0.20247	102.5742
4507750000		0.20775	102.1214
4607700000		0.21467	101.9307
4707650000		0.22069	101.4395
4807600000		0.22751	101.3146
4907550000		0.23146	101.0062
5007500000		0.23691	100.6144
5107450000		0.24547	100.5679
5207400000		0.24668	100.0631
5307350000		0.25063	99.6823
5407300000		0.2555	99.5183
5507250000		0.26301	99.0778
5607200000		0.26894	98.8308
5707150000		0.2749	98.5038
5807100000		0.27925	98.1233
5907050000		0.28612	97.6413
6007000000		0.2893	97.1548
6106950000		0.29399	96.7301
6206900000		0.29958	96.1993
6306850000		0.30377	95.9901
6406800000		0.30909	95.5218
6506750000		0.31418	94.9803
6606700000		0.31909	94.3134
6706650000		0.32433	93.9548
6806600000		0.32772	93.3837
6906550000		0.33487	92.6807
7006500000		0.33761	92.2814
7106450000		0.34083	91.6492
7206400000		0.34676	90.8815
7306350000		0.35026	90.028
7406300000		0.35798	88.9582
7506250000		0.35878	88.2926
7606200000		0.36251	87.3661
7706150000		0.36642	86.2448
7806100000		0.36831	85.4003
!
!				Infineon Technologies AG
