! Infineon Technologies  Discrete & RF Semiconductors
! BAT15-04R
! VCA = 0.04 V
! One-Port S-Parameters
# Hz  S  MA  R  50
!f									S11
!Hz							Mag  Ang
309850000		0.99948	-3.1365
409800000		0.9991	-4.1492
509750000		0.9994	-5.1122
609700000		0.99976	-6.1597
709650000		0.99931	-7.1419
809600000		0.9992	-8.1746
909550000		0.9997	-9.2042
1009500000		0.9988	-10.3444
1109450000		0.99884	-11.304
1209400000		0.99926	-12.3991
1309350000		0.99882	-13.4642
1409300000		0.99742	-14.5633
1509250000		0.99703	-15.4883
1609200000		0.99747	-16.6488
1709150000		0.996	-17.7395
1809100000		0.99367	-18.7948
1909050000		0.9934	-19.7399
2009000000		0.994	-20.8802
2108950000		0.99216	-22.0166
2208900000		0.99044	-23.0436
2308850000		0.99032	-24.0657
2408800000		0.99071	-25.144
2508750000		0.99023	-26.2973
2608700000		0.98975	-27.4309
2708650000		0.98986	-28.5614
2808600000		0.99042	-29.6351
2908550000		0.991	-30.8374
3008500000		0.99143	-32.0677
3108450000		0.99253	-33.3124
3208400000		0.99262	-34.615
3308350000		0.99216	-35.9663
3408300000		0.9927	-37.274
3508250000		0.99361	-38.6761
3608200000		0.99295	-40.1781
3708150000		0.99185	-41.5682
3808100000		0.9907	-43.0876
3908050000		0.98928	-44.5784
4008000000		0.98833	-46.1637
4107950000		0.98638	-47.679
4207900000		0.98421	-49.326
4307850000		0.98127	-50.8324
4407800000		0.97872	-52.4874
4507750000		0.97667	-54.1184
4607700000		0.97439	-55.7941
4707650000		0.97172	-57.4239
4807600000		0.96939	-59.1378
4907550000		0.96725	-60.9043
5007500000		0.9663	-62.6371
5107450000		0.9649	-64.531
5207400000		0.96375	-66.3435
5307350000		0.96228	-68.2489
5407300000		0.96133	-70.2593
5507250000		0.96089	-72.248
5607200000		0.9606	-74.2972
5707150000		0.95987	-76.3789
5807100000		0.95888	-78.5472
5907050000		0.95839	-80.7907
6007000000		0.95802	-83.0382
6106950000		0.95731	-85.352
6206900000		0.95618	-87.6357
6306850000		0.95456	-90.0646
6406800000		0.95382	-92.4909
6506750000		0.95255	-94.9406
6606700000		0.95138	-97.3964
6706650000		0.94945	-99.906
6806600000		0.94767	-102.3878
6906550000		0.9463	-104.9416
7006500000		0.94501	-107.497
7106450000		0.9436	-109.9794
7206400000		0.94143	-112.6086
7306350000		0.94036	-115.1612
7406300000		0.93805	-117.8463
7506250000		0.93708	-120.4598
7606200000		0.93455	-123.0876
7706150000		0.93237	-125.7335
7806100000		0.92895	-128.4898
!
!				Infineon Technologies AG
