! Infineon Technologies  Discrete & RF Semiconductors
! BAT15-04R
! IAC = 0.09 mA
! One-Port S-Parameters
# Hz  S  MA  R  50
!f									S11
!Hz							Mag  Ang
309850000		0.79853	-3.1773
409800000		0.79938	-4.2242
509750000		0.79843	-5.214
609700000		0.79956	-6.3364
709650000		0.80152	-7.4523
809600000		0.79541	-8.5788
909550000		0.79581	-9.7272
1009500000		0.79664	-10.9448
1109450000		0.80066	-11.9597
1209400000		0.79575	-13.0457
1309350000		0.79391	-14.242
1409300000		0.79196	-15.3893
1509250000		0.79024	-16.455
1609200000		0.78905	-17.6176
1709150000		0.79293	-18.6676
1809100000		0.79039	-19.8223
1909050000		0.78737	-20.8722
2009000000		0.78212	-22.1327
2108950000		0.78582	-23.3231
2208900000		0.7808	-24.48
2308850000		0.7768	-25.6152
2408800000		0.76972	-26.7631
2508750000		0.77623	-27.9901
2608700000		0.77565	-29.2698
2708650000		0.77401	-30.4615
2808600000		0.77486	-31.7345
2908550000		0.7729	-32.9784
3008500000		0.77481	-34.0402
3108450000		0.77158	-35.3468
3208400000		0.77522	-36.8489
3308350000		0.77035	-38.3796
3408300000		0.76351	-39.8445
3508250000		0.76126	-41.3496
3608200000		0.76551	-42.8712
3708150000		0.7636	-44.4735
3808100000		0.75631	-46.0767
3908050000		0.74815	-47.7291
4008000000		0.7478	-49.3323
4107950000		0.74648	-51.1011
4207900000		0.74808	-52.8013
4307850000		0.74251	-54.4197
4407800000		0.74277	-56.2871
4507750000		0.73703	-58.0244
4607700000		0.73238	-59.8722
4707650000		0.72601	-61.6503
4807600000		0.71506	-63.6172
4907550000		0.70952	-65.5941
5007500000		0.70578	-67.5558
5107450000		0.70875	-69.6749
5207400000		0.70635	-71.6892
5307350000		0.70121	-73.8242
5407300000		0.69533	-76.1452
5507250000		0.69879	-78.2641
5607200000		0.69942	-80.5421
5707150000		0.69575	-82.9507
5807100000		0.68909	-85.336
5907050000		0.68782	-87.7095
6007000000		0.68388	-90.0309
6106950000		0.67958	-92.4964
6206900000		0.67566	-94.9585
6306850000		0.67684	-97.5413
6406800000		0.67247	-100.1866
6506750000		0.67268	-102.7679
6606700000		0.66771	-105.4218
6706650000		0.66402	-108.1682
6806600000		0.65852	-110.8502
6906550000		0.66023	-113.4846
7006500000		0.6606	-116.2081
7106450000		0.65413	-118.9472
7206400000		0.64757	-121.8573
7306350000		0.6502	-124.3763
7406300000		0.65091	-127.1081
7506250000		0.64806	-129.8723
7606200000		0.64279	-132.7357
7706150000		0.63914	-135.5266
7806100000		0.64088	-138.223
!
!				Infineon Technologies AG
