! Infineon Technologies  Discrete & RF Semiconductors
! BAT15-04R
! IAC = 0.2 mA
! One-Port S-Parameters
# Hz  S  MA  R  50
!f									S11
!Hz							Mag  Ang
309850000		0.593	-2.924
409800000		0.59373	-3.89
509750000		0.59278	-4.7951
609700000		0.59344	-5.9216
709650000		0.59647	-7.0673
809600000		0.58872	-8.1716
909550000		0.58953	-9.3622
1009500000		0.58966	-10.5766
1109450000		0.59517	-11.5356
1209400000		0.5874	-12.3918
1309350000		0.58567	-13.7065
1409300000		0.58384	-14.7621
1509250000		0.58105	-15.9402
1609200000		0.57936	-16.9914
1709150000		0.5845	-17.8959
1809100000		0.58227	-19.1088
1909050000		0.57685	-20.1392
2009000000		0.56876	-21.4151
2108950000		0.57526	-22.7131
2208900000		0.56914	-23.8855
2308850000		0.56345	-25.128
2408800000		0.55384	-26.0226
2508750000		0.56212	-27.3315
2608700000		0.56114	-28.6853
2708650000		0.55818	-29.768
2808600000		0.55869	-31.2478
2908550000		0.55543	-32.375
3008500000		0.5566	-33.219
3108450000		0.55136	-34.3661
3208400000		0.55445	-36.176
3308350000		0.54808	-37.7591
3408300000		0.53743	-39.2559
3508250000		0.53345	-40.7303
3608200000		0.53678	-42.2677
3708150000		0.53459	-44.0884
3808100000		0.5245	-45.5802
3908050000		0.51391	-47.2862
4008000000		0.51273	-48.8078
4107950000		0.50968	-50.9128
4207900000		0.51221	-52.7126
4307850000		0.50514	-54.3381
4407800000		0.50523	-56.5945
4507750000		0.49732	-58.296
4607700000		0.4902	-60.2988
4707650000		0.48205	-62.1285
4807600000		0.46669	-64.1988
4907550000		0.45982	-66.3718
5007500000		0.4543	-68.5703
5107450000		0.45457	-71.2289
5207400000		0.45308	-73.4519
5307350000		0.44752	-75.7912
5407300000		0.43949	-78.4971
5507250000		0.44073	-81.0449
5607200000		0.43917	-83.8451
5707150000		0.43341	-86.8182
5807100000		0.42515	-89.4563
5907050000		0.42114	-92.1727
6007000000		0.41665	-94.5677
6106950000		0.41111	-97.2542
6206900000		0.40517	-100.0444
6306850000		0.40613	-103.2126
6406800000		0.39998	-106.2269
6506750000		0.40017	-109.1804
6606700000		0.39464	-112.1282
6706650000		0.39033	-115.5374
6806600000		0.38566	-118.4985
6906550000		0.38543	-121.6641
7006500000		0.38798	-124.9222
7106450000		0.38243	-128.0305
7206400000		0.37615	-131.461
7306350000		0.3792	-134.1635
7406300000		0.37826	-137.4123
7506250000		0.37841	-140.3829
7606200000		0.3748	-143.6684
7706150000		0.37169	-146.864
7806100000		0.37584	-149.6827
!
!				Infineon Technologies AG
