! Infineon Technologies  Discrete & RF Semiconductors
! BAT15-04R
! VCA = 0.1 V
! One-Port S-Parameters
# Hz  S  MA  R  50
!f									S11
!Hz							Mag  Ang
309850000		0.99945	-3.0915
409800000		0.99913	-4.0944
509750000		0.99947	-5.0422
609700000		0.99988	-6.0753
709650000		0.99943	-7.0447
809600000		0.9992	-8.0651
909550000		0.99973	-9.0776
1009500000		0.99885	-10.2069
1109450000		0.9989	-11.1564
1209400000		0.99929	-12.2329
1309350000		0.99888	-13.2858
1409300000		0.99748	-14.3708
1509250000		0.99705	-15.2819
1609200000		0.99744	-16.4265
1709150000		0.99604	-17.4995
1809100000		0.99381	-18.5423
1909050000		0.99349	-19.4714
2009000000		0.99395	-20.5954
2108950000		0.99224	-21.715
2208900000		0.99062	-22.7283
2308850000		0.99032	-23.7337
2408800000		0.99051	-24.7529
2508750000		0.99036	-25.9289
2608700000		0.98982	-27.046
2708650000		0.98993	-28.1563
2808600000		0.99063	-29.2075
2908550000		0.99114	-30.3982
3008500000		0.99159	-31.6052
3108450000		0.99267	-32.8269
3208400000		0.99259	-34.0798
3308350000		0.99248	-35.441
3408300000		0.99289	-36.7261
3508250000		0.99379	-38.1063
3608200000		0.99313	-39.554
3708150000		0.99245	-40.9846
3808100000		0.99107	-42.4488
3908050000		0.98968	-43.9146
4008000000		0.98881	-45.4737
4107950000		0.98694	-46.9653
4207900000		0.9848	-48.587
4307850000		0.98187	-50.0639
4407800000		0.97937	-51.6905
4507750000		0.97742	-53.2959
4607700000		0.97514	-54.9444
4707650000		0.97253	-56.543
4807600000		0.97023	-58.2276
4907550000		0.96805	-59.9652
5007500000		0.96708	-61.6651
5107450000		0.96578	-63.5269
5207400000		0.96469	-65.3072
5307350000		0.96311	-67.1789
5407300000		0.96223	-69.1549
5507250000		0.96186	-71.1068
5607200000		0.96159	-73.1168
5707150000		0.96082	-75.1636
5807100000		0.95989	-77.2925
5907050000		0.95952	-79.499
6007000000		0.95918	-81.7071
6106950000		0.95851	-83.9832
6206900000		0.95744	-86.2319
6306850000		0.95586	-88.6173
6406800000		0.95515	-91.0087
6506750000		0.95398	-93.4174
6606700000		0.95282	-95.8401
6706650000		0.95093	-98.3155
6806600000		0.94919	-100.7622
6906550000		0.94788	-103.2771
7006500000		0.94657	-105.7975
7106450000		0.94523	-108.2477
7206400000		0.94308	-110.8429
7306350000		0.94205	-113.3619
7406300000		0.93983	-116.0097
7506250000		0.93889	-118.5921
7606200000		0.93633	-121.1867
7706150000		0.93422	-123.7966
7806100000		0.93094	-126.5228
!
!				Infineon Technologies AG
