! Infineon Technologies  Discrete & RF Semiconductors
! BAT15-04R
! IAC = 9 mA
! One-Port S-Parameters
# Hz  S  MA  R  50
!f									S11
!Hz							Mag  Ang
309850000		0.69773	174.1043
409800000		0.69716	172.3364
509750000		0.69648	170.5595
609700000		0.69644	168.787
709650000		0.69589	167.0132
809600000		0.6963	165.3682
909550000		0.69633	163.5774
1009500000		0.69658	161.9451
1109450000		0.69618	160.2105
1209400000		0.69777	158.5609
1309350000		0.69783	156.8229
1409300000		0.69856	155.1555
1509250000		0.69943	153.4948
1609200000		0.70179	151.8274
1709150000		0.70235	150.0854
1809100000		0.70329	148.4389
1909050000		0.70438	146.9249
2009000000		0.70768	145.2344
2108950000		0.70863	143.5451
2208900000		0.70999	141.9175
2308850000		0.71122	140.399
2408800000		0.71374	138.75
2508750000		0.71517	137.165
2608700000		0.71652	135.5807
2708650000		0.71737	134.0736
2808600000		0.71926	132.5282
2908550000		0.7212	131.0583
3008500000		0.72257	129.5914
3108450000		0.72432	128.0829
3208400000		0.72589	126.7122
3308350000		0.72767	125.3292
3408300000		0.72939	124.0075
3508250000		0.73199	122.6719
3608200000		0.73405	121.4078
3708150000		0.73618	120.0675
3808100000		0.73864	118.8106
3908050000		0.74171	117.5631
4008000000		0.74436	116.3307
4107950000		0.74733	115.0427
4207900000		0.7499	113.871
4307850000		0.75292	112.5751
4407800000		0.75637	111.4599
4507750000		0.75946	110.2486
4607700000		0.76241	109.078
4707650000		0.76527	107.828
4807600000		0.76824	106.6961
4907550000		0.77084	105.5578
5007500000		0.7731	104.3745
5107450000		0.7752	103.3116
5207400000		0.77659	102.1305
5307350000		0.77856	101.0577
5407300000		0.77984	100.0211
5507250000		0.78077	98.9558
5607200000		0.78175	97.9267
5707150000		0.78251	96.9136
5807100000		0.784	95.9124
5907050000		0.78467	94.9786
6007000000		0.78555	94.0192
6106950000		0.78637	93.0785
6206900000		0.7873	92.0924
6306850000		0.7889	91.1891
6406800000		0.78925	90.2806
6506750000		0.79027	89.3464
6606700000		0.79073	88.406
6706650000		0.79221	87.5079
6806600000		0.79333	86.5593
6906550000		0.7944	85.6071
7006500000		0.7953	84.6475
7106450000		0.7962	83.5556
7206400000		0.79763	82.5896
7306350000		0.7977	81.5017
7406300000		0.79876	80.457
7506250000		0.79784	79.3204
7606200000		0.798	78.1665
7706150000		0.79676	76.9819
7806100000		0.79455	75.8567
!
!				Infineon Technologies AG
