! Infineon Technologies  Discrete & RF Semiconductors
! BAT15-04R
! IAC = 0.07 mA
! One-Port S-Parameters
# Hz  S  MA  R  50
!f									S11
!Hz							Mag  Ang
309850000		0.84032	-3.2112
409800000		0.84117	-4.2954
509750000		0.84019	-5.2656
609700000		0.84128	-6.3825
709650000		0.84286	-7.4811
809600000		0.83756	-8.6043
909550000		0.83795	-9.7427
1009500000		0.83871	-10.9579
1109450000		0.84208	-11.9722
1209400000		0.8381	-13.0891
1309350000		0.83644	-14.2613
1409300000		0.83448	-15.4183
1509250000		0.83298	-16.4625
1609200000		0.83198	-17.6383
1709150000		0.83519	-18.7111
1809100000		0.83261	-19.8536
1909050000		0.83012	-20.8986
2009000000		0.82575	-22.1437
2108950000		0.82857	-23.3276
2208900000		0.824	-24.4725
2308850000		0.82077	-25.627
2408800000		0.81465	-26.767
2508750000		0.82022	-27.9789
2608700000		0.81965	-29.2357
2708650000		0.81835	-30.4379
2808600000		0.81918	-31.6719
2908550000		0.81759	-32.9304
3008500000		0.81938	-34.0325
3108450000		0.81659	-35.3156
3208400000		0.82012	-36.8061
3308350000		0.8157	-38.2842
3408300000		0.81027	-39.7747
3508250000		0.8084	-41.272
3608200000		0.81228	-42.7915
3708150000		0.81043	-44.3571
3808100000		0.80411	-45.9678
3908050000		0.797	-47.6138
4008000000		0.79655	-49.2247
4107950000		0.79545	-50.9299
4207900000		0.79628	-52.5872
4307850000		0.79129	-54.2318
4407800000		0.79126	-56.0357
4507750000		0.78619	-57.7736
4607700000		0.78207	-59.5944
4707650000		0.77629	-61.3649
4807600000		0.76681	-63.3099
4907550000		0.76177	-65.2591
5007500000		0.75854	-67.1805
5107450000		0.76131	-69.2188
5207400000		0.75893	-71.2016
5307350000		0.75421	-73.3105
5407300000		0.74915	-75.5762
5507250000		0.75248	-77.6399
5607200000		0.75326	-79.8451
5707150000		0.75021	-82.1801
5807100000		0.74436	-84.5406
5907050000		0.74348	-86.8838
6007000000		0.73995	-89.2082
6106950000		0.73616	-91.6646
6206900000		0.73275	-94.0961
6306850000		0.73373	-96.6176
6406800000		0.73004	-99.2276
6506750000		0.73011	-101.7609
6606700000		0.72562	-104.3897
6706650000		0.72232	-107.0713
6806600000		0.71715	-109.7336
6906550000		0.71879	-112.3147
7006500000		0.71882	-114.9785
7106450000		0.71283	-117.6924
7206400000		0.70682	-120.5609
7306350000		0.70897	-123.062
7406300000		0.70964	-125.7465
7506250000		0.7067	-128.4954
7606200000		0.70159	-131.3217
7706150000		0.69816	-134.0766
7806100000		0.6991	-136.7596
!
!				Infineon Technologies AG
