! Infineon Technologies  Discrete & RF Semiconductors
! BAT15-04R
! VCA = 0.4 V
! One-Port S-Parameters
# Hz  S  MA  R  50
!f									S11
!Hz							Mag  Ang
309850000		0.99946	-2.9719
409800000		0.99915	-3.9347
509750000		0.99946	-4.8467
609700000		0.99982	-5.8393
709650000		0.99945	-6.7692
809600000		0.99922	-7.7505
909550000		0.99981	-8.7233
1009500000		0.9989	-9.8113
1109450000		0.99892	-10.7198
1209400000		0.99938	-11.7562
1309350000		0.99893	-12.7668
1409300000		0.99759	-13.8104
1509250000		0.99713	-14.6829
1609200000		0.99758	-15.7814
1709150000		0.99618	-16.8118
1809100000		0.99389	-17.8103
1909050000		0.99361	-18.6962
2009000000		0.99413	-19.7726
2108950000		0.99242	-20.8485
2208900000		0.99077	-21.8128
2308850000		0.99039	-22.737
2408800000		0.99096	-23.7789
2508750000		0.99036	-24.835
2608700000		0.99009	-25.9307
2708650000		0.99029	-26.9891
2808600000		0.99066	-27.9516
2908550000		0.9914	-29.1211
3008500000		0.99191	-30.2707
3108450000		0.99307	-31.4298
3208400000		0.99325	-32.6565
3308350000		0.99296	-33.9201
3408300000		0.99352	-35.1455
3508250000		0.99451	-36.4572
3608200000		0.99402	-37.8695
3708150000		0.99328	-39.1989
3808100000		0.99203	-40.5937
3908050000		0.99048	-41.9607
4008000000		0.98998	-43.481
4107950000		0.9882	-44.8972
4207900000		0.98616	-46.4414
4307850000		0.98342	-47.8437
4407800000		0.98106	-49.3876
4507750000		0.97913	-50.9123
4607700000		0.9769	-52.4781
4707650000		0.97438	-53.9926
4807600000		0.97201	-55.5917
4907550000		0.97001	-57.2422
5007500000		0.96906	-58.8468
5107450000		0.96775	-60.6093
5207400000		0.96672	-62.2949
5307350000		0.96518	-64.0651
5407300000		0.96434	-65.9368
5507250000		0.964	-67.7861
5607200000		0.96376	-69.6841
5707150000		0.96312	-71.6234
5807100000		0.9622	-73.6438
5907050000		0.96196	-75.7369
6007000000		0.96168	-77.8323
6106950000		0.96116	-79.9935
6206900000		0.96008	-82.1324
6306850000		0.9587	-84.4008
6406800000		0.95821	-86.6836
6506750000		0.95715	-88.9737
6606700000		0.95605	-91.2875
6706650000		0.95427	-93.6529
6806600000		0.95269	-96.0006
6906550000		0.9515	-98.4012
7006500000		0.9503	-100.8135
7106450000		0.94894	-103.1595
7206400000		0.94687	-105.6511
7306350000		0.94599	-108.067
7406300000		0.94381	-110.6018
7506250000		0.94306	-113.0841
7606200000		0.94056	-115.5755
7706150000		0.93862	-118.0847
7806100000		0.93554	-120.7009
!
!				Infineon Technologies AG
