! Infineon Technologies  Discrete & RF Semiconductors
! BAT15-04R
! VCA = 2 V
! One-Port S-Parameters
# Hz  S  MA  R  50
!f									S11
!Hz							Mag  Ang
309850000		0.99931	-2.7775
409800000		0.99903	-3.6789
509750000		0.99937	-4.527
609700000		0.99973	-5.4581
709650000		0.99932	-6.3226
809600000		0.99915	-7.2424
909550000		0.99967	-8.1482
1009500000		0.99886	-9.1725
1109450000		0.99892	-10.0195
1209400000		0.99936	-10.9856
1309350000		0.99896	-11.9338
1409300000		0.99762	-12.9107
1509250000		0.99718	-13.716
1609200000		0.99763	-14.7426
1709150000		0.99626	-15.7041
1809100000		0.99407	-16.6337
1909050000		0.99375	-17.4479
2009000000		0.9943	-18.4489
2108950000		0.99261	-19.4503
2208900000		0.99104	-20.3429
2308850000		0.99078	-21.2225
2408800000		0.99119	-22.1522
2508750000		0.99082	-23.1616
2608700000		0.99038	-24.1397
2708650000		0.99059	-25.1176
2808600000		0.99129	-26.0265
2908550000		0.99184	-27.0702
3008500000		0.99229	-28.131
3108450000		0.99317	-29.1581
3208400000		0.99375	-30.3214
3308350000		0.99337	-31.4543
3408300000		0.99416	-32.6127
3508250000		0.99498	-33.7831
3608200000		0.995	-35.1296
3708150000		0.99431	-36.3499
3808100000		0.99322	-37.6344
3908050000		0.9921	-38.9224
4008000000		0.9915	-40.2948
4107950000		0.98991	-41.5956
4207900000		0.98798	-43.0204
4307850000		0.98539	-44.3023
4407800000		0.98314	-45.7185
4507750000		0.98141	-47.12
4607700000		0.97928	-48.5525
4707650000		0.97687	-49.9332
4807600000		0.97467	-51.3918
4907550000		0.97266	-52.9057
5007500000		0.97168	-54.359
5107450000		0.97043	-55.9665
5207400000		0.96935	-57.5024
5307350000		0.96794	-59.111
5407300000		0.96706	-60.8205
5507250000		0.9668	-62.4996
5607200000		0.9666	-64.2249
5707150000		0.96596	-65.9927
5807100000		0.96521	-67.8318
5907050000		0.96511	-69.7411
6007000000		0.965	-71.6528
6106950000		0.96463	-73.6258
6206900000		0.96376	-75.5881
6306850000		0.96252	-77.663
6406800000		0.96222	-79.7662
6506750000		0.96138	-81.8615
6606700000		0.96051	-83.9959
6706650000		0.95889	-86.1768
6806600000		0.95745	-88.3484
6906550000		0.95647	-90.5595
7006500000		0.95536	-92.7901
7106450000		0.95416	-94.9583
7206400000		0.95219	-97.2607
7306350000		0.95149	-99.5064
7406300000		0.94962	-101.8479
7506250000		0.94899	-104.1531
7606200000		0.94666	-106.458
7706150000		0.94498	-108.7877
7806100000		0.94228	-111.2132
!
!				Infineon Technologies AG
