! Infineon Technologies  Discrete & RF Semiconductors
! BAT15-04R
! IAC = 5 mA
! One-Port S-Parameters
# Hz  S  MA  R  50
!f									S11
!Hz							Mag  Ang
309850000		0.63961	174.0367
409800000		0.63921	172.2557
509750000		0.63884	170.4284
609700000		0.63881	168.6816
709650000		0.63839	166.8961
809600000		0.63885	165.2427
909550000		0.63912	163.4448
1009500000		0.63962	161.8037
1109450000		0.63946	160.0528
1209400000		0.64119	158.3909
1309350000		0.64146	156.6421
1409300000		0.64239	154.9648
1509250000		0.64351	153.291
1609200000		0.64602	151.6149
1709150000		0.64684	149.8611
1809100000		0.64806	148.2405
1909050000		0.64967	146.6519
2009000000		0.6529	144.9918
2108950000		0.65398	143.3397
2208900000		0.65586	141.6699
2308850000		0.65741	140.1477
2408800000		0.66009	138.503
2508750000		0.66192	136.9183
2608700000		0.66369	135.3329
2708650000		0.66497	133.8248
2808600000		0.66714	132.319
2908550000		0.66961	130.8111
3008500000		0.6717	129.2978
3108450000		0.67377	127.8247
3208400000		0.67582	126.4599
3308350000		0.67801	125.0784
3408300000		0.68016	123.7548
3508250000		0.68314	122.4206
3608200000		0.6857	121.1611
3708150000		0.68824	119.8216
3808100000		0.69093	118.5651
3908050000		0.69432	117.3206
4008000000		0.69726	116.0961
4107950000		0.7007	114.8135
4207900000		0.7036	113.6484
4307850000		0.70695	112.3569
4407800000		0.71073	111.2513
4507750000		0.71413	110.0478
4607700000		0.71742	108.8908
4707650000		0.72054	107.6507
4807600000		0.72391	106.5297
4907550000		0.72676	105.4041
5007500000		0.72942	104.2347
5107450000		0.73198	103.1857
5207400000		0.73373	102.0177
5307350000		0.73611	100.9551
5407300000		0.73771	99.9313
5507250000		0.73919	98.8807
5607200000		0.74066	97.8588
5707150000		0.74187	96.86
5807100000		0.74364	95.8661
5907050000		0.74475	94.9435
6007000000		0.746	93.9876
6106950000		0.74719	93.0603
6206900000		0.74847	92.0816
6306850000		0.75034	91.1838
6406800000		0.75106	90.2796
6506750000		0.75246	89.3552
6606700000		0.75321	88.4223
6706650000		0.75491	87.5291
6806600000		0.75623	86.5891
6906550000		0.75769	85.6453
7006500000		0.75876	84.6921
7106450000		0.75992	83.6067
7206400000		0.76155	82.6468
7306350000		0.76191	81.5658
7406300000		0.76327	80.5256
7506250000		0.76257	79.3933
7606200000		0.76298	78.2462
7706150000		0.76206	77.066
7806100000		0.76031	75.9447
!
!				Infineon Technologies AG
