! Infineon Technologies  Discrete & RF Semiconductors
! BAT15-04R
! IAC = 0.4 mA
! One-Port S-Parameters
# Hz  S  MA  R  50
!f									S11
!Hz							Mag  Ang
309850000		0.3051	-1.8387
409800000		0.30438	-2.3863
509750000		0.30371	-2.9588
609700000		0.3032	-3.9577
709650000		0.30664	-5.1157
809600000		0.30125	-6.0329
909550000		0.30204	-7.1777
1009500000		0.29987	-8.2256
1109450000		0.30431	-8.9521
1209400000		0.2968	-9.1151
1309350000		0.29624	-10.5337
1409300000		0.29503	-11.2757
1509250000		0.29137	-12.4461
1609200000		0.28952	-13.1324
1709150000		0.29236	-13.5752
1809100000		0.28999	-14.7707
1909050000		0.28376	-15.4825
2009000000		0.27625	-16.6372
2108950000		0.28111	-17.9364
2208900000		0.27629	-19.0198
2308850000		0.27034	-20.0742
2408800000		0.26309	-20.2021
2508750000		0.26853	-21.7193
2608700000		0.26664	-23.1503
2708650000		0.26323	-23.8242
2808600000		0.26134	-25.4947
2908550000		0.25783	-26.1751
3008500000		0.25623	-26.3223
3108450000		0.25101	-27.0219
3208400000		0.24877	-29.1213
3308350000		0.24312	-30.6811
3408300000		0.23238	-31.7248
3508250000		0.22771	-33.1452
3608200000		0.22464	-34.3465
3708150000		0.22141	-36.4975
3808100000		0.21246	-37.498
3908050000		0.20283	-38.8797
4008000000		0.19893	-40.1944
4107950000		0.19234	-42.7347
4207900000		0.19162	-44.9497
4307850000		0.18395	-46.2991
4407800000		0.17984	-49.4966
4507750000		0.17169	-51.0255
4607700000		0.16227	-53.1963
4707650000		0.15363	-55.027
4807600000		0.13948	-57.1987
4907550000		0.13271	-60.2819
5007500000		0.12567	-63.4635
5107450000		0.11829	-68.2283
5207400000		0.11769	-72.0953
5307350000		0.11292	-76.0957
5407300000		0.1055	-81.553
5507250000		0.10065	-86.7674
5607200000		0.09671	-93.5631
5707150000		0.09146	-100.9715
5807100000		0.08715	-107.8113
5907050000		0.08263	-115.199
6007000000		0.08191	-121.0689
6106950000		0.08041	-128.5787
6206900000		0.07895	-137.1883
6306850000		0.08429	-144.716
6406800000		0.08527	-153.2794
6506750000		0.08975	-159.2811
6606700000		0.09187	-165.8949
6706650000		0.09792	-173.0016
6806600000		0.10282	-177.8188
6906550000		0.10864	175.9972
7006500000		0.11802	173.3989
7106450000		0.1235	169.1703
7206400000		0.12948	163.8507
7306350000		0.13498	161.3652
7406300000		0.14139	156.3044
7506250000		0.14789	154.7816
7606200000		0.15405	151.3959
7706150000		0.15933	147.7676
7806100000		0.16555	146.2391
!
!				Infineon Technologies AG
