! Infineon Technologies  Discrete & RF Semiconductors
! BAT15-04R
! VCA = 3 V
! One-Port S-Parameters
# Hz  S  MA  R  50
!f									S11
!Hz							Mag  Ang
309850000		0.9993	-2.7302
409800000		0.99898	-3.6164
509750000		0.99929	-4.4476
609700000		0.99968	-5.362
709650000		0.99925	-6.2137
809600000		0.99907	-7.1163
909550000		0.99961	-8.0078
1009500000		0.99885	-9.0156
1109450000		0.99892	-9.8462
1209400000		0.99923	-10.7977
1309350000		0.99894	-11.7281
1409300000		0.9976	-12.6887
1509250000		0.99716	-13.4797
1609200000		0.99767	-14.4881
1709150000		0.99627	-15.4322
1809100000		0.99404	-16.3438
1909050000		0.99374	-17.1443
2009000000		0.9943	-18.1251
2108950000		0.99268	-19.112
2208900000		0.99104	-19.98
2308850000		0.99081	-20.8439
2408800000		0.99124	-21.755
2508750000		0.99064	-22.7092
2608700000		0.99041	-23.7028
2708650000		0.99063	-24.6614
2808600000		0.99136	-25.5487
2908550000		0.9919	-26.5674
3008500000		0.99242	-27.6093
3108450000		0.99354	-28.6492
3208400000		0.99384	-29.7525
3308350000		0.9934	-30.8592
3408300000		0.9943	-31.9951
3508250000		0.9954	-33.1743
3608200000		0.99515	-34.4573
3708150000		0.99429	-35.6203
3808100000		0.99349	-36.915
3908050000		0.99237	-38.1725
4008000000		0.99181	-39.52
4107950000		0.99023	-40.7909
4207900000		0.98841	-42.1876
4307850000		0.98584	-43.4384
4407800000		0.98354	-44.8261
4507750000		0.98188	-46.1937
4607700000		0.97984	-47.5958
4707650000		0.97741	-48.9452
4807600000		0.97518	-50.3663
4907550000		0.97315	-51.8458
5007500000		0.97227	-53.2651
5107450000		0.97095	-54.8342
5207400000		0.96987	-56.3339
5307350000		0.96844	-57.9031
5407300000		0.96763	-59.5741
5507250000		0.96738	-61.2114
5607200000		0.96713	-62.8942
5707150000		0.96657	-64.6195
5807100000		0.96579	-66.4167
5907050000		0.96576	-68.2793
6007000000		0.96567	-70.1454
6106950000		0.96526	-72.0733
6206900000		0.96442	-73.9904
6306850000		0.96329	-76.0182
6406800000		0.96303	-78.0753
6506750000		0.96223	-80.1242
6606700000		0.96144	-82.2108
6706650000		0.95981	-84.3454
6806600000		0.95841	-86.4749
6906550000		0.95746	-88.6368
7006500000		0.95644	-90.8212
7106450000		0.95524	-92.9421
7206400000		0.95334	-95.198
7306350000		0.95273	-97.3993
7406300000		0.95086	-99.6903
7506250000		0.95023	-101.9504
7606200000		0.94792	-104.2042
7706150000		0.94636	-106.4897
7806100000		0.94378	-108.8622
!
!				Infineon Technologies AG
