! Infineon Technologies  Discrete & RF Semiconductors
! BAT15-02EL
! VCA = 1 V
! One-Port S-Parameters
# Hz  S  MA  R  50
!f									S11
!Hz							Mag  Ang
309850000		0.99926	-2.2388
409800000		0.99921	-2.9265
509750000		0.99925	-3.6594
609700000		0.9988	-4.3526
709650000		0.99849	-5.0788
809600000		0.99791	-5.8122
909550000		0.9987	-6.5235
1009500000		0.99825	-7.2543
1109450000		0.99787	-7.9777
1209400000		0.99778	-8.775
1309350000		0.99691	-9.483
1409300000		0.99567	-10.2564
1509250000		0.99368	-10.8822
1609200000		0.99315	-11.6732
1709150000		0.98953	-12.4314
1809100000		0.98643	-12.8568
1909050000		0.98795	-13.4318
2009000000		0.98818	-14.1041
2108950000		0.99015	-14.7464
2208900000		0.99033	-15.5599
2308850000		0.98942	-16.2856
2408800000		0.98951	-17.0216
2508750000		0.98768	-17.8308
2608700000		0.98351	-18.5689
2708650000		0.98071	-19.0994
2808600000		0.97904	-19.5834
2908550000		0.97975	-20.1245
3008500000		0.98126	-20.7447
3108450000		0.98249	-21.3587
3208400000		0.98369	-22.0699
3308350000		0.98409	-22.8865
3408300000		0.98323	-23.6127
3508250000		0.98126	-24.2325
3608200000		0.98148	-24.8129
3708150000		0.98239	-25.4981
3808100000		0.98222	-26.2151
3908050000		0.98166	-26.8887
4008000000		0.98192	-27.563
4107950000		0.98197	-28.2506
4207900000		0.98172	-28.9386
4307850000		0.9812	-29.6216
4407800000		0.981	-30.2862
4507750000		0.98146	-30.9582
4607700000		0.98174	-31.6627
4707650000		0.98171	-32.3736
4807600000		0.98178	-33.0661
4907550000		0.98153	-33.761
5007500000		0.98131	-34.489
5107450000		0.98109	-35.1718
5207400000		0.98105	-35.8684
5307350000		0.98107	-36.5745
5407300000		0.98089	-37.2905
5507250000		0.98045	-38.0136
5607200000		0.98008	-38.7334
5707150000		0.97985	-39.4346
5807100000		0.97944	-40.1415
5907050000		0.97892	-40.8632
6007000000		0.97855	-41.5697
6106950000		0.97793	-42.2874
6206900000		0.97739	-42.9909
6306850000		0.97667	-43.7182
6406800000		0.97604	-44.4328
6506750000		0.97529	-45.1174
6606700000		0.97428	-45.8163
6706650000		0.97374	-46.5262
6806600000		0.97338	-47.2189
6906550000		0.97241	-47.9056
7006500000		0.97181	-48.6311
7106450000		0.97105	-49.3467
7206400000		0.97029	-50.0211
7306350000		0.96946	-50.7006
7406300000		0.96901	-51.4059
7506250000		0.96814	-52.0968
7606200000		0.96713	-52.7717
7706150000		0.96647	-53.4538
7806100000		0.96591	-54.1317
7906050000		0.96532	-54.8006
8006000000		0.96465	-55.4749
8105950000		0.96396	-56.1587
8205900000		0.96342	-56.8215
8305850000		0.96327	-57.4657
8405800000		0.96324	-58.1261
8505750000		0.96301	-58.8007
8605700000		0.9629	-59.4858
8705650000		0.96269	-60.1582
8805600000		0.96264	-60.83
8905550000		0.96296	-61.5137
9005500000		0.96319	-62.1855
9105450000		0.96342	-62.861
9205400000		0.96338	-63.5781
9305350000		0.96325	-64.2544
9405300000		0.96372	-64.9341
9505250000		0.96402	-65.6556
9605200000		0.96431	-66.3553
9705150000		0.96467	-67.0424
9805100000		0.96468	-67.7431
9905050000		0.96506	-68.4513
10005000000		0.96554	-69.1448
10104950000		0.96615	-69.8393
10204900000		0.96646	-70.5967
10304850000		0.96652	-71.3124
10404800000		0.96727	-72.0027
10504750000		0.96786	-72.7076
10604700000		0.9686	-73.4488
10704650000		0.96877	-74.1828
10804600000		0.96915	-74.9024
10904550000		0.96966	-75.6558
11004500000		0.97008	-76.3743
11104450000		0.97058	-77.0956
11204400000		0.97162	-77.8445
11304350000		0.97136	-78.5618
11404300000		0.97186	-79.2996
11504250000		0.97234	-80.019
11604200000		0.97333	-80.751
11704150000		0.97315	-81.4763
11804100000		0.97385	-82.2045
11904050000		0.97462	-82.9433
12004000000		0.97506	-83.6636
12103950000		0.97569	-84.362
12203900000		0.97649	-85.0965
12303850000		0.97744	-85.8349
12403800000		0.97817	-86.5834
12503750000		0.97854	-87.3184
12603700000		0.98035	-88.0577
12703650000		0.9823	-88.7734
12803600000		0.98374	-89.5305
12903550000		0.98382	-90.2914
!
!				Infineon Technologies AG
