! Infineon Technologies  Discrete & RF Semiconductors
! BAT15-02EL
! IAC = 0.2 mA
! One-Port S-Parameters
# Hz  S  MA  R  50
!f									S11
!Hz							Mag  Ang
309850000		0.58914	-2.4038
409800000		0.59067	-3.4362
509750000		0.585	-4.4875
609700000		0.58414	-5.2987
709650000		0.59226	-6.2794
809600000		0.58698	-7.331
909550000		0.59045	-8.3296
1009500000		0.58548	-9.3336
1109450000		0.58681	-10.3141
1209400000		0.58781	-11.0066
1309350000		0.58935	-12.2813
1409300000		0.58761	-13.0886
1509250000		0.58871	-13.9329
1609200000		0.58291	-14.9869
1709150000		0.58971	-16.0116
1809100000		0.57606	-16.5737
1909050000		0.57847	-17.4207
2009000000		0.57657	-18.3834
2108950000		0.5829	-19.05
2208900000		0.58275	-20.2693
2308850000		0.57722	-20.9591
2408800000		0.57317	-22.1651
2508750000		0.58728	-23.0317
2608700000		0.58733	-24.1927
2708650000		0.58694	-24.9114
2808600000		0.58039	-25.9216
2908550000		0.58107	-26.5903
3008500000		0.5797	-26.9921
3108450000		0.58213	-28.0497
3208400000		0.58588	-28.786
3308350000		0.58561	-29.9409
3408300000		0.58447	-30.9369
3508250000		0.57756	-31.7719
3608200000		0.58182	-32.5574
3708150000		0.58103	-33.441
3808100000		0.58181	-34.4589
3908050000		0.58327	-35.223
4008000000		0.57753	-36.2232
4107950000		0.57423	-37.2426
4207900000		0.5802	-38.1291
4307850000		0.58072	-39.0515
4407800000		0.58936	-39.8672
4507750000		0.57824	-40.9766
4607700000		0.57832	-41.8558
4707650000		0.58166	-42.7117
4807600000		0.57925	-43.8888
4907550000		0.58466	-44.3144
5007500000		0.58445	-45.7531
5107450000		0.58166	-46.1966
5207400000		0.58518	-47.5552
5307350000		0.58517	-48.4958
5407300000		0.58858	-49.3227
5507250000		0.58696	-50.4581
5607200000		0.59034	-51.3524
5707150000		0.58512	-52.401
5807100000		0.58348	-53.3254
5907050000		0.57995	-54.5486
6007000000		0.58447	-55.025
6106950000		0.58652	-56.2568
6206900000		0.5806	-57.1336
6306850000		0.58322	-57.9769
6406800000		0.58278	-59.1276
6506750000		0.58536	-59.7825
6606700000		0.57727	-60.7628
6706650000		0.58343	-61.7163
6806600000		0.57977	-62.6423
6906550000		0.57968	-63.5889
7006500000		0.58119	-64.4655
7106450000		0.58723	-65.3894
7206400000		0.57984	-66.4305
7306350000		0.58064	-67.4575
7406300000		0.57791	-68.4542
7506250000		0.58472	-69.1911
7606200000		0.58153	-70.2299
7706150000		0.57859	-71.292
7806100000		0.5854	-71.9328
7906050000		0.58841	-73.1283
8006000000		0.5805	-73.909
8105950000		0.58603	-74.9551
8205900000		0.58174	-75.8624
8305850000		0.58206	-76.8722
8405800000		0.58152	-77.6036
8505750000		0.58169	-78.7291
8605700000		0.58198	-79.5188
8705650000		0.58036	-80.5064
8805600000		0.58596	-81.3375
8905550000		0.58482	-82.1576
9005500000		0.58155	-83.1482
9105450000		0.57743	-84.2125
9205400000		0.57798	-84.9785
9305350000		0.58291	-85.9046
9405300000		0.58371	-86.6749
9505250000		0.57871	-87.9452
9605200000		0.57716	-88.9006
9705150000		0.57596	-89.832
9805100000		0.58625	-90.5216
9905050000		0.58733	-91.4983
10005000000		0.58156	-92.6235
10104950000		0.57741	-93.5559
10204900000		0.58386	-94.4437
10304850000		0.58761	-95.2441
10404800000		0.58462	-96.2907
10504750000		0.58299	-97.1815
10604700000		0.58913	-97.9644
10704650000		0.58468	-99.0887
10804600000		0.58765	-99.8295
10904550000		0.58738	-100.8534
11004500000		0.59088	-101.5949
11104450000		0.58901	-102.6263
11204400000		0.58843	-103.62
11304350000		0.58728	-104.5838
11404300000		0.58527	-105.5512
11504250000		0.59074	-106.3141
11604200000		0.59049	-107.3414
11704150000		0.59373	-108.0991
11804100000		0.58912	-109.2278
11904050000		0.58636	-110.2251
12004000000		0.59151	-110.9929
12103950000		0.59628	-111.6827
12203900000		0.59322	-112.8077
12303850000		0.59075	-113.7903
12403800000		0.58983	-114.889
12503750000		0.59602	-115.5792
12603700000		0.6025	-116.3588
12703650000		0.59452	-117.6775
12803600000		0.59999	-118.4213
12903550000		0.60706	-119.1891
!
!				Infineon Technologies AG
