! Infineon Technologies  Discrete & RF Semiconductors
! BAT15-04W-E6327
! IAC = 0.3 mA
! One-Port S-Parameters
# Hz  S  MA  R  50
!f									S11
!Hz							Mag  Ang
309850000		0.43554	-2.5388
409800000		0.43531	-3.2975
509750000		0.43486	-4.1849
609700000		0.4343	-5.1932
709650000		0.4376	-6.4761
809600000		0.43063	-7.5385
909550000		0.43151	-8.8983
1009500000		0.43026	-9.8761
1109450000		0.43466	-10.9733
1209400000		0.42686	-11.5336
1309350000		0.42449	-13.048
1409300000		0.42282	-14.0607
1509250000		0.41823	-15.5382
1609200000		0.4167	-16.5686
1709150000		0.42138	-17.3616
1809100000		0.41937	-18.839
1909050000		0.41177	-19.9113
2009000000		0.40288	-21.3372
2108950000		0.40877	-22.797
2208900000		0.40362	-24.2664
2308850000		0.39708	-25.5796
2408800000		0.38937	-26.608
2508750000		0.39558	-27.8622
2608700000		0.39466	-29.6688
2708650000		0.3907	-30.6021
2808600000		0.39124	-32.7994
2908550000		0.38797	-33.9184
3008500000		0.38655	-34.6812
3108450000		0.38261	-36.1214
3208400000		0.3842	-38.1302
3308350000		0.37913	-40.0241
3408300000		0.36772	-41.6277
3508250000		0.36442	-43.5734
3608200000		0.36571	-44.925
3708150000		0.36202	-47.3461
3808100000		0.35313	-48.8475
3908050000		0.34273	-50.6362
4008000000		0.33758	-52.3107
4107950000		0.33559	-54.578
4207900000		0.33957	-56.6834
4307850000		0.33493	-58.6015
4407800000		0.33091	-61.3986
4507750000		0.32294	-63.2224
4607700000		0.31552	-65.3671
4707650000		0.31151	-67.566
4807600000		0.29722	-69.5483
4907550000		0.29121	-72.0724
5007500000		0.28442	-74.8655
5107450000		0.2809	-77.7819
5207400000		0.27915	-80.77
5307350000		0.2763	-83.8696
5407300000		0.26768	-87.0891
5507250000		0.26541	-90.3551
5607200000		0.26149	-93.7
5707150000		0.25586	-97.7308
5807100000		0.25082	-101.0417
5907050000		0.24473	-104.9307
6007000000		0.24354	-108.2913
6106950000		0.23945	-111.8986
6206900000		0.23582	-115.4816
6306850000		0.23456	-119.6063
6406800000		0.22914	-123.7992
6506750000		0.2303	-127.9414
6606700000		0.22773	-132.5067
6706650000		0.2242	-137.1443
6806600000		0.2242	-141.5701
6906550000		0.2229	-145.8559
7006500000		0.22821	-149.8853
7106450000		0.2292	-154.3921
7206400000		0.22974	-159.1287
7306350000		0.23353	-163.1823
7406300000		0.23338	-167.9406
!
!				Infineon Technologies AG
