! Infineon Technologies  Discrete & RF Semiconductors
! BAT15-04W-E6327
! IAC = 8 mA
! One-Port S-Parameters
# Hz  S  MA  R  50
!f									S11
!Hz							Mag  Ang
309850000		0.73345	174.3231
409800000		0.73265	172.6109
509750000		0.73178	170.9572
609700000		0.73169	169.247
709650000		0.73116	167.6484
809600000		0.73162	166.0379
909550000		0.73148	164.4126
1009500000		0.73191	162.7734
1109450000		0.73234	161.299
1209400000		0.73339	159.7064
1309350000		0.73386	158.1483
1409300000		0.73474	156.5963
1509250000		0.73596	155.1481
1609200000		0.73764	153.5577
1709150000		0.73868	152.0473
1809100000		0.73958	150.5511
1909050000		0.74121	149.1293
2009000000		0.74332	147.5795
2108950000		0.74465	146.1119
2208900000		0.74541	144.6907
2308850000		0.74671	143.2258
2408800000		0.74804	141.8042
2508750000		0.74899	140.3242
2608700000		0.74975	138.9671
2708650000		0.75055	137.5266
2808600000		0.7517	136.2148
2908550000		0.75242	134.8464
3008500000		0.75365	133.4906
3108450000		0.75462	132.1776
3208400000		0.75543	130.9297
3308350000		0.75706	129.6225
3408300000		0.75821	128.4277
3508250000		0.75976	127.127
3608200000		0.7615	125.865
3708150000		0.76348	124.6284
3808100000		0.7656	123.386
3908050000		0.76764	122.1453
4008000000		0.77004	120.8971
4107950000		0.77244	119.6313
4207900000		0.77489	118.3616
4307850000		0.77747	117.1203
4407800000		0.78004	115.8962
4507750000		0.7828	114.6685
4607700000		0.78518	113.3853
4707650000		0.78767	112.1433
4807600000		0.78948	110.9095
4907550000		0.79149	109.7175
5007500000		0.79316	108.4956
5107450000		0.79471	107.2606
5207400000		0.79636	106.1
5307350000		0.7973	104.9437
5407300000		0.79868	103.7843
5507250000		0.79928	102.7528
5607200000		0.79998	101.6499
5707150000		0.80149	100.6945
5807100000		0.80249	99.6153
5907050000		0.80416	98.6321
6007000000		0.80499	97.6221
6106950000		0.80666	96.6619
6206900000		0.80737	95.6873
6306850000		0.80898	94.7103
6406800000		0.8096	93.8183
6506750000		0.81098	92.8853
6606700000		0.81242	91.9811
6706650000		0.81386	91.0362
6806600000		0.81584	90.1582
6906550000		0.81714	89.1901
7006500000		0.81904	88.1902
7106450000		0.82073	87.2613
7206400000		0.82204	86.2628
7306350000		0.8233	85.2545
7406300000		0.82394	84.1536
!
!				Infineon Technologies AG
