! Infineon Technologies  Discrete & RF Semiconductors
! BAT15-04W-E6327
! IAC = 0.01 mA
! One-Port S-Parameters
# Hz  S  MA  R  50
!f									S11
!Hz							Mag  Ang
309850000		0.97602	-3.1828
409800000		0.97603	-4.2212
509750000		0.97632	-5.26
609700000		0.97627	-6.2884
709650000		0.97648	-7.3788
809600000		0.97556	-8.4544
909550000		0.97593	-9.5974
1009500000		0.97538	-10.6628
1109450000		0.97577	-11.7884
1209400000		0.97544	-12.951
1309350000		0.97467	-14.1195
1409300000		0.97305	-15.2617
1509250000		0.97279	-16.3969
1609200000		0.9723	-17.5997
1709150000		0.97217	-18.782
1809100000		0.97034	-19.9492
1909050000		0.96961	-21.112
2009000000		0.96836	-22.3777
2108950000		0.96801	-23.5909
2208900000		0.96628	-24.8498
2308850000		0.96569	-26.0194
2408800000		0.96456	-27.4307
2508750000		0.96517	-28.5586
2608700000		0.96485	-29.8634
2708650000		0.96473	-31.1155
2808600000		0.96563	-32.4911
2908550000		0.96569	-33.7914
3008500000		0.96651	-35.1684
3108450000		0.96673	-36.6646
3208400000		0.96786	-38.0407
3308350000		0.96693	-39.5651
3408300000		0.96586	-41.0979
3508250000		0.96602	-42.733
3608200000		0.9662	-44.1488
3708150000		0.96483	-45.7786
3808100000		0.96239	-47.4375
3908050000		0.95991	-49.0866
4008000000		0.95836	-50.7008
4107950000		0.95641	-52.2849
4207900000		0.95479	-53.8469
4307850000		0.95205	-55.4958
4407800000		0.95003	-57.1371
4507750000		0.94689	-58.8459
4607700000		0.94489	-60.5315
4707650000		0.94211	-62.2612
4807600000		0.93888	-64.0812
4907550000		0.93664	-65.8765
5007500000		0.93517	-67.7074
5107450000		0.93534	-69.4053
5207400000		0.93385	-71.3391
5307350000		0.93259	-73.3021
5407300000		0.93102	-75.3374
5507250000		0.93128	-77.3594
5607200000		0.93158	-79.3202
5707150000		0.93073	-81.5116
5807100000		0.92987	-83.7828
5907050000		0.92827	-86.1092
6007000000		0.92726	-88.4523
6106950000		0.92528	-90.9013
6206900000		0.92406	-93.3404
6306850000		0.92173	-95.8101
6406800000		0.91946	-98.4279
6506750000		0.91786	-100.9228
6606700000		0.91489	-103.6301
6706650000		0.91229	-106.3311
6806600000		0.90872	-109.1638
6906550000		0.90683	-111.7875
7006500000		0.9043	-114.5033
7106450000		0.89963	-117.5365
7206400000		0.89577	-120.4415
7306350000		0.8917	-123.4025
7406300000		0.88637	-126.2414
!
!				Infineon Technologies AG
