! Infineon Technologies  Discrete & RF Semiconductors
! BAT15-04W-E6327
! IAC = 0.5 mA
! One-Port S-Parameters
# Hz  S  MA  R  50
!f									S11
!Hz							Mag  Ang
309850000		0.18934	-0.49274
409800000		0.18796	-0.49875
509750000		0.18769	-0.93146
609700000		0.18639	-1.4843
709650000		0.18928	-2.7643
809600000		0.18539	-3.4645
909550000		0.18569	-4.8327
1009500000		0.18263	-5.3319
1109450000		0.18496	-6.1644
1209400000		0.17929	-5.6386
1309350000		0.17771	-7.2404
1409300000		0.17665	-7.8289
1509250000		0.1714	-9.1595
1609200000		0.16988	-9.6655
1709150000		0.17115	-9.7255
1809100000		0.16863	-11.2361
1909050000		0.1617	-11.603
2009000000		0.15488	-12.6503
2108950000		0.1573	-14.3554
2208900000		0.15369	-15.8687
2308850000		0.14766	-16.6719
2408800000		0.14325	-16.901
2508750000		0.14628	-18.3308
2608700000		0.14386	-20.4674
2708650000		0.14059	-20.6093
2808600000		0.1374	-23.5271
2908550000		0.13492	-24.0468
3008500000		0.13167	-23.3882
3108450000		0.12794	-24.528
3208400000		0.12441	-26.8532
3308350000		0.12006	-29.1379
3408300000		0.11063	-29.945
3508250000		0.10675	-32.2775
3608200000		0.10268	-32.7107
3708150000		0.09817	-36.3339
3808100000		0.09175	-37.2547
3908050000		0.08399	-38.6241
4008000000		0.07727	-39.6771
4107950000		0.07298	-43.2154
4207900000		0.07244	-47.015
4307850000		0.06663	-49.4426
4407800000		0.06066	-55.5466
4507750000		0.05407	-58.4044
4607700000		0.04587	-62.4466
4707650000		0.04001	-68.1933
4807600000		0.0295	-74.6899
4907550000		0.02507	-87.8081
5007500000		0.02144	-107.6212
5107450000		0.01968	-136.9301
5207400000		0.02465	-148.1399
5307350000		0.02963	-158.6452
5407300000		0.03514	-175.4216
5507250000		0.04244	174.6446
5607200000		0.05041	167.0654
5707150000		0.06103	160.3922
5807100000		0.06807	156.9756
5907050000		0.0778	151.8193
6007000000		0.08447	150.7637
6106950000		0.09313	147.3244
6206900000		0.10136	144.1545
6306850000		0.11039	143.0248
6406800000		0.11985	140.0946
6506750000		0.12894	138.7109
6606700000		0.13857	136.5832
6706650000		0.14901	134.3974
6806600000		0.15841	133.0853
6906550000		0.16824	130.2659
7006500000		0.17706	129.4596
7106450000		0.18574	128.3332
7206400000		0.19555	126.2469
7306350000		0.20429	124.7486
7406300000		0.2144	121.8321
!
!				Infineon Technologies AG
