! Infineon Technologies  Discrete & RF Semiconductors
! BAT15-04W-E6327
! IAC = 9 mA
! One-Port S-Parameters
# Hz  S  MA  R  50
!f									S11
!Hz							Mag  Ang
309850000		0.74433	174.331
409800000		0.74355	172.6196
509750000		0.74262	170.972
609700000		0.74249	169.2628
709650000		0.74194	167.6656
809600000		0.74233	166.0533
909550000		0.74215	164.4315
1009500000		0.7425	162.7936
1109450000		0.7429	161.3187
1209400000		0.74391	159.7293
1309350000		0.74436	158.1761
1409300000		0.7452	156.6214
1509250000		0.74638	155.1738
1609200000		0.74799	153.5825
1709150000		0.74895	152.0761
1809100000		0.74979	150.5783
1909050000		0.75145	149.1572
2009000000		0.75354	147.6081
2108950000		0.75473	146.1426
2208900000		0.75552	144.72
2308850000		0.75674	143.2545
2408800000		0.75806	141.8343
2508750000		0.75891	140.3525
2608700000		0.75963	138.9926
2708650000		0.76019	137.5848
2808600000		0.76143	136.2416
2908550000		0.76206	134.8742
3008500000		0.76324	133.5215
3108450000		0.76404	132.204
3208400000		0.76498	130.9231
3308350000		0.76637	129.6534
3408300000		0.76767	128.4232
3508250000		0.76893	127.1572
3608200000		0.77078	125.8621
3708150000		0.7726	124.6601
3808100000		0.77457	123.4186
3908050000		0.77663	122.1754
4008000000		0.77896	120.9289
4107950000		0.78128	119.664
4207900000		0.78366	118.3936
4307850000		0.78621	117.1497
4407800000		0.78871	115.9248
4507750000		0.79143	114.6971
4607700000		0.79372	113.4127
4707650000		0.79616	112.1667
4807600000		0.79792	110.933
4907550000		0.79989	109.7379
5007500000		0.80143	108.5154
5107450000		0.8029	107.2788
5207400000		0.80448	106.1156
5307350000		0.80532	104.9575
5407300000		0.80663	103.7972
5507250000		0.80712	102.7621
5607200000		0.80771	101.6598
5707150000		0.80914	100.7043
5807100000		0.81002	99.6235
5907050000		0.81169	98.6395
6007000000		0.81239	97.6288
6106950000		0.81402	96.6692
6206900000		0.81462	95.6927
6306850000		0.81619	94.7132
6406800000		0.81666	93.8208
6506750000		0.81802	92.8884
6606700000		0.81941	91.9832
6706650000		0.82075	91.0359
6806600000		0.82269	90.1566
6906550000		0.82398	89.1903
7006500000		0.82577	88.189
7106450000		0.82741	87.2582
7206400000		0.82862	86.2588
7306350000		0.8298	85.2498
7406300000		0.8304	84.1511
!
!				Infineon Technologies AG
