! Infineon Technologies  Discrete & RF Semiconductors
! BAT15-04W-E6327
! IAC = 1 mA
! One-Port S-Parameters
# Hz  S  MA  R  50
!f									S11
!Hz							Mag  Ang
309850000		0.17152	171.3369
409800000		0.17369	168.8235
509750000		0.17446	166.5983
609700000		0.17641	164.3129
709650000		0.17519	162.4639
809600000		0.17609	160.5438
909550000		0.17729	158.8823
1009500000		0.18136	156.92
1109450000		0.18268	155.1538
1209400000		0.18623	152.9808
1309350000		0.18722	151.3915
1409300000		0.18914	149.557
1509250000		0.1931	148.2979
1609200000		0.19602	146.4348
1709150000		0.19997	144.5388
1809100000		0.20266	143.2271
1909050000		0.20735	141.8792
2009000000		0.21063	140.5334
2108950000		0.21312	139.1773
2208900000		0.21471	137.9735
2308850000		0.21893	136.6956
2408800000		0.22094	135.264
2508750000		0.22255	133.7833
2608700000		0.22514	132.8283
2708650000		0.22851	131.33
2808600000		0.23271	130.6023
2908550000		0.23531	129.1764
3008500000		0.24102	127.591
3108450000		0.2442	126.449
3208400000		0.24927	125.5612
3308350000		0.25175	124.6698
3408300000		0.25656	123.7377
3508250000		0.25952	122.7475
3608200000		0.26662	121.5504
3708150000		0.26956	120.7503
3808100000		0.27281	119.7281
3908050000		0.27633	118.7029
4008000000		0.28235	117.696
4107950000		0.28664	116.761
4207900000		0.29062	115.7739
4307850000		0.29564	114.7903
4407800000		0.30054	114.0245
4507750000		0.30484	113.093
4607700000		0.31099	112.0837
4707650000		0.31659	111.1719
4807600000		0.32174	110.2471
4907550000		0.32594	109.4389
5007500000		0.33082	108.5945
5107450000		0.33892	107.6714
5207400000		0.34184	106.8994
5307350000		0.34487	106.157
5407300000		0.35085	105.283
5507250000		0.35746	104.5993
5607200000		0.36365	103.7301
5707150000		0.37049	103.1376
5807100000		0.37435	102.2558
5907050000		0.38123	101.5196
6007000000		0.3845	100.733
6106950000		0.39056	100.0246
6206900000		0.39582	99.2197
6306850000		0.40016	98.5556
6406800000		0.40535	97.8238
6506750000		0.41061	97.1248
6606700000		0.41607	96.3565
6706650000		0.42108	95.6977
6806600000		0.42578	95.0799
6906550000		0.4325	94.1906
7006500000		0.43744	93.4086
7106450000		0.44137	92.7499
7206400000		0.44703	91.855
7306350000		0.45228	90.9595
7406300000		0.45915	89.8059
!
!				Infineon Technologies AG
