! Infineon Technologies  Discrete & RF Semiconductors
! BAT15-04W-E6327
! VCA = 0.4 V
! One-Port S-Parameters
# Hz  S  MA  R  50
!f									S11
!Hz							Mag  Ang
309850000		1.0004	-2.8466
409800000		1.0001	-3.7652
509750000		1.0005	-4.6542
609700000		1.0004	-5.5989
709650000		1.0004	-6.5639
809600000		1.0005	-7.4993
909550000		1.0009	-8.5196
1009500000		0.99995	-9.4654
1109450000		0.99986	-10.4746
1209400000		1.0004	-11.5057
1309350000		0.99993	-12.5465
1409300000		0.99844	-13.5558
1509250000		0.99855	-14.5511
1609200000		0.99834	-15.6349
1709150000		0.99724	-16.7203
1809100000		0.99557	-17.755
1909050000		0.99534	-18.7629
2009000000		0.99502	-19.8752
2108950000		0.99399	-20.9749
2208900000		0.99276	-22.0812
2308850000		0.99271	-23.0765
2408800000		0.99287	-24.3032
2508750000		0.99251	-25.3252
2608700000		0.99249	-26.5138
2708650000		0.99251	-27.5608
2808600000		0.99322	-28.7887
2908550000		0.99415	-29.953
3008500000		0.99474	-31.1833
3108450000		0.99568	-32.4903
3208400000		0.99611	-33.7468
3308350000		0.99601	-35.0648
3408300000		0.99636	-36.4079
3508250000		0.99693	-37.8255
3608200000		0.9963	-39.1353
3708150000		0.99547	-40.5766
3808100000		0.99412	-42.0013
3908050000		0.99308	-43.4079
4008000000		0.9919	-44.8395
4107950000		0.98984	-46.2548
4207900000		0.98757	-47.694
4307850000		0.98509	-49.1438
4407800000		0.983	-50.5999
4507750000		0.98074	-52.0581
4607700000		0.97911	-53.5236
4707650000		0.97626	-55.0511
4807600000		0.97445	-56.5455
4907550000		0.97274	-58.0745
5007500000		0.97187	-59.623
5107450000		0.97102	-61.1828
5207400000		0.9702	-62.8175
5307350000		0.96939	-64.4906
5407300000		0.96872	-66.194
5507250000		0.96835	-68.0377
5607200000		0.96851	-69.773
5707150000		0.96779	-71.6949
5807100000		0.96824	-73.6288
5907050000		0.9672	-75.6574
6007000000		0.967	-77.7091
6106950000		0.96569	-79.8417
6206900000		0.96491	-82.0125
6306850000		0.96285	-84.2071
6406800000		0.96173	-86.4786
6506750000		0.96002	-88.7516
6606700000		0.95792	-91.1141
6706650000		0.95624	-93.4613
6806600000		0.95364	-95.9219
6906550000		0.95156	-98.3415
7006500000		0.94865	-100.85
7106450000		0.94533	-103.4539
7206400000		0.94188	-106.0475
7306350000		0.93762	-108.7776
7406300000		0.93157	-111.4554
!
!				Infineon Technologies AG
