! Infineon Technologies  Discrete & RF Semiconductors
! BAT15-04W-E6327
! IAC = 0.7 mA
! One-Port S-Parameters
# Hz  S  MA  R  50
!f									S11
!Hz							Mag  Ang
309850000		0.01688	44.0441
409800000		0.01891	55.5575
509750000		0.02108	59.1834
609700000		0.02297	64.6713
709650000		0.02451	58.9887
809600000		0.02547	63.1567
909550000		0.02574	63.0533
1009500000		0.02735	71.217
1109450000		0.02908	69.6431
1209400000		0.03313	77.1692
1309350000		0.03309	77.4906
1409300000		0.0352	78.2906
1509250000		0.03583	84.574
1609200000		0.03857	85.7128
1709150000		0.04243	85.78
1809100000		0.04299	87.9514
1909050000		0.04659	93.0951
2009000000		0.04898	96.7315
2108950000		0.0492	95.7305
2208900000		0.04989	97.0764
2308850000		0.05339	100.1249
2408800000		0.05628	100.2879
2508750000		0.05644	98.2056
2608700000		0.05691	99.9786
2708650000		0.06063	99.8916
2808600000		0.06156	103.0957
2908550000		0.06427	102.5124
3008500000		0.07045	101.9599
3108450000		0.07301	102.629
3208400000		0.07611	104.5989
3308350000		0.07754	105.866
3408300000		0.0833	107.6025
3508250000		0.08544	108.3236
3608200000		0.092	108.3753
3708150000		0.09387	109.7029
3808100000		0.09786	109.7964
3908050000		0.10245	110.1312
4008000000		0.10876	110.2867
4107950000		0.11231	110.7405
4207900000		0.11446	110.7152
4307850000		0.11961	110.6986
4407800000		0.12438	111.6198
4507750000		0.12937	111.4358
4607700000		0.13665	111.2177
4707650000		0.1427	111.0746
4807600000		0.15018	110.7257
4907550000		0.155	110.7722
5007500000		0.16089	110.7497
5107450000		0.17046	110.4587
5207400000		0.17295	110.5844
5307350000		0.17644	110.5868
5407300000		0.18417	110.2772
5507250000		0.1924	110.0222
5607200000		0.20014	109.6226
5707150000		0.20931	109.471
5807100000		0.21432	108.995
5907050000		0.22332	108.4124
6007000000		0.22732	108.099
6106950000		0.2351	107.5094
6206900000		0.24233	106.7834
6306850000		0.24809	106.5657
6406800000		0.25558	105.9506
6506750000		0.26247	105.4593
6606700000		0.2698	104.8394
6706650000		0.27743	104.3137
6806600000		0.28402	103.9258
6906550000		0.29325	102.8459
7006500000		0.29959	102.31
7106450000		0.30523	101.8766
7206400000		0.31319	100.8929
7306350000		0.32002	100.055
7406300000		0.32952	98.5511
!
!				Infineon Technologies AG
