! Infineon Technologies  Discrete & RF Semiconductors
! BAT15-04W-E6327
! VCA = 0.5 V
! One-Port S-Parameters
# Hz  S  MA  R  50
!f									S11
!Hz							Mag  Ang
309850000		1.0006	-2.8521
409800000		1.0001	-3.7234
509750000		1.0007	-4.6362
609700000		1.0005	-5.5372
709650000		1.0003	-6.4938
809600000		1.0004	-7.4212
909550000		1.0008	-8.4302
1009500000		0.99996	-9.3655
1109450000		0.99985	-10.365
1209400000		1.0003	-11.3836
1309350000		0.99984	-12.4129
1409300000		0.99841	-13.4146
1509250000		0.99859	-14.3985
1609200000		0.99839	-15.4703
1709150000		0.99725	-16.5455
1809100000		0.99557	-17.5649
1909050000		0.99537	-18.5663
2009000000		0.99507	-19.6649
2108950000		0.99396	-20.7515
2208900000		0.99276	-21.8436
2308850000		0.99277	-22.8315
2408800000		0.99269	-24.008
2508750000		0.99234	-25.0209
2608700000		0.99256	-26.2307
2708650000		0.99252	-27.2641
2808600000		0.99309	-28.4449
2908550000		0.99427	-29.6291
3008500000		0.99488	-30.8462
3108450000		0.9958	-32.1361
3208400000		0.996	-33.3498
3308350000		0.99608	-34.6828
3408300000		0.99647	-36.0122
3508250000		0.99713	-37.4128
3608200000		0.99653	-38.7058
3708150000		0.99573	-40.131
3808100000		0.9944	-41.5399
3908050000		0.99338	-42.9324
4008000000		0.99214	-44.345
4107950000		0.99012	-45.7442
4207900000		0.98787	-47.165
4307850000		0.98542	-48.5997
4407800000		0.98333	-50.0404
4507750000		0.98107	-51.4791
4607700000		0.97948	-52.9249
4707650000		0.97662	-54.4335
4807600000		0.97485	-55.9088
4907550000		0.97307	-57.4171
5007500000		0.97223	-58.9436
5107450000		0.97147	-60.4802
5207400000		0.97062	-62.091
5307350000		0.96981	-63.7428
5407300000		0.9692	-65.4228
5507250000		0.96876	-67.2395
5607200000		0.96896	-68.9482
5707150000		0.96825	-70.8434
5807100000		0.96874	-72.7507
5907050000		0.9677	-74.7511
6007000000		0.96755	-76.7785
6106950000		0.96622	-78.8827
6206900000		0.96557	-81.0278
6306850000		0.96355	-83.1907
6406800000		0.96244	-85.4366
6506750000		0.9607	-87.6811
6606700000		0.95875	-90.0156
6706650000		0.95706	-92.3354
6806600000		0.95443	-94.7686
6906550000		0.95244	-97.1589
7006500000		0.94962	-99.6385
7106450000		0.94628	-102.2159
7206400000		0.94287	-104.784
7306350000		0.93864	-107.4832
7406300000		0.93258	-110.1335
!
!				Infineon Technologies AG
