! Infineon Technologies  Discrete & RF Semiconductors
! BAT15-04W-E6327
! IAC = 0.4 mA
! One-Port S-Parameters
# Hz  S  MA  R  50
!f									S11
!Hz							Mag  Ang
309850000		0.30221	-1.8699
409800000		0.30126	-2.3609
509750000		0.30084	-3.0683
609700000		0.29984	-3.977
709650000		0.30299	-5.2686
809600000		0.29754	-6.2201
909550000		0.2982	-7.6003
1009500000		0.29586	-8.4614
1109450000		0.29921	-9.447
1209400000		0.29225	-9.6387
1309350000		0.29031	-11.2281
1409300000		0.28896	-12.0994
1509250000		0.2838	-13.5675
1609200000		0.28225	-14.4348
1709150000		0.28508	-14.9735
1809100000		0.28283	-16.5153
1909050000		0.27523	-17.3956
2009000000		0.26718	-18.7588
2108950000		0.27146	-20.3212
2208900000		0.26712	-21.8674
2308850000		0.26056	-23.0234
2408800000		0.25448	-23.8326
2508750000		0.25917	-25.1737
2608700000		0.25749	-27.1076
2708650000		0.25371	-27.8051
2808600000		0.25239	-30.3335
2908550000		0.24945	-31.2817
3008500000		0.24675	-31.6587
3108450000		0.24288	-33.0495
3208400000		0.24168	-35.2573
3308350000		0.23707	-37.326
3408300000		0.22635	-38.8202
3508250000		0.22275	-40.9079
3608200000		0.22101	-42.1539
3708150000		0.21705	-44.9919
3808100000		0.20933	-46.408
3908050000		0.20017	-48.2255
4008000000		0.19402	-49.8919
4107950000		0.19096	-52.5792
4207900000		0.19285	-55.09
4307850000		0.18758	-57.2178
4407800000		0.18266	-60.7948
4507750000		0.17545	-62.8438
4607700000		0.16744	-65.3907
4707650000		0.16239	-68.1179
4807600000		0.1498	-70.5589
4907550000		0.14421	-74.0261
5007500000		0.13783	-78.0194
5107450000		0.13173	-82.4135
5207400000		0.13118	-86.8899
5307350000		0.12941	-91.4717
5407300000		0.12227	-96.8502
5507250000		0.1192	-102.3248
5607200000		0.11585	-108.1786
5707150000		0.11236	-115.6463
5807100000		0.1106	-121.3048
5907050000		0.10784	-128.6146
6007000000		0.10994	-133.7487
6106950000		0.10957	-140.1785
6206900000		0.10974	-146.4081
6306850000		0.11404	-152.4604
6406800000		0.11548	-159.3921
6506750000		0.1213	-164.6881
6606700000		0.12595	-170.7642
6706650000		0.13095	-176.992
6806600000		0.13781	178.2994
6906550000		0.14261	172.8465
7006500000		0.15162	169.7183
7106450000		0.15939	165.9721
7206400000		0.16678	161.4825
7306350000		0.17486	158.1993
7406300000		0.18133	153.3409
!
!				Infineon Technologies AG
