! Infineon Technologies  Discrete & RF Semiconductors
! BAT15-04W-E6327
! IAC = 0.8 mA
! One-Port S-Parameters
# Hz  S  MA  R  50
!f									S11
!Hz							Mag  Ang
309850000		0.0601	163.4923
409800000		0.06308	159.1268
509750000		0.06438	155.6073
609700000		0.06696	152.4077
709650000		0.06551	149.6534
809600000		0.06738	147.3378
909550000		0.06833	145.6855
1009500000		0.07297	143.7846
1109450000		0.07391	141.4033
1209400000		0.07914	138.6906
1309350000		0.08005	137.4102
1409300000		0.08227	135.2852
1509250000		0.08633	135.2151
1609200000		0.08947	133.2155
1709150000		0.09335	130.9042
1809100000		0.09577	130.2984
1909050000		0.10119	129.7659
2009000000		0.10501	129.2763
2108950000		0.10631	128.0818
2208900000		0.10792	127.4285
2308850000		0.11255	126.8571
2408800000		0.1152	125.5166
2508750000		0.11584	123.9177
2608700000		0.11783	123.7334
2708650000		0.12158	122.3095
2808600000		0.12482	122.7677
2908550000		0.12755	121.3559
3008500000		0.13375	119.6802
3108450000		0.13687	118.9989
3208400000		0.14148	118.9189
3308350000		0.14366	118.6672
3408300000		0.14937	118.3931
3508250000		0.15213	117.9105
3608200000		0.15932	117.0092
3708150000		0.16187	116.907
3808100000		0.16559	116.1979
3908050000		0.16981	115.5874
4008000000		0.17619	114.9338
4107950000		0.18022	114.483
4207900000		0.18333	113.8535
4307850000		0.18855	113.2091
4407800000		0.1935	113.0525
4507750000		0.19821	112.4122
4607700000		0.20511	111.7033
4707650000		0.21109	111.0978
4807600000		0.21753	110.4185
4907550000		0.22208	109.9712
5007500000		0.22755	109.4788
5107450000		0.23674	108.8349
5207400000		0.23931	108.4545
5307350000		0.24258	108.0222
5407300000		0.24955	107.4405
5507250000		0.25727	106.945
5607200000		0.2644	106.3318
5707150000		0.27267	105.9461
5807100000		0.27708	105.2887
5907050000		0.28527	104.6391
6007000000		0.28884	104.1076
6106950000		0.29597	103.4675
6206900000		0.30242	102.7269
6306850000		0.30748	102.3006
6406800000		0.31398	101.6781
6506750000		0.3202	101.0781
6606700000		0.32657	100.4574
6706650000		0.3331	99.8953
6806600000		0.33889	99.3885
6906550000		0.34712	98.4645
7006500000		0.35292	97.794
7106450000		0.35771	97.2941
7206400000		0.36476	96.3666
7306350000		0.37091	95.5285
7406300000		0.37949	94.205
!
!				Infineon Technologies AG
