! Infineon Technologies  Discrete & RF Semiconductors
! BAT15-04W-E6327
! IAC = 0.06 mA
! One-Port S-Parameters
# Hz  S  MA  R  50
!f									S11
!Hz							Mag  Ang
309850000		0.86257	-3.1944
409800000		0.86315	-4.2253
509750000		0.86278	-5.271
609700000		0.8632	-6.3264
709650000		0.86468	-7.481
809600000		0.86015	-8.593
909550000		0.86049	-9.804
1009500000		0.86121	-10.9014
1109450000		0.86373	-12.0483
1209400000		0.86037	-13.2029
1309350000		0.8584	-14.4286
1409300000		0.85631	-15.595
1509250000		0.85502	-16.79
1609200000		0.85388	-17.9991
1709150000		0.85734	-19.1586
1809100000		0.8553	-20.377
1909050000		0.85252	-21.5816
2009000000		0.84791	-22.8991
2108950000		0.85078	-24.1497
2208900000		0.84714	-25.4698
2308850000		0.84431	-26.7005
2408800000		0.83904	-28.1215
2508750000		0.84335	-29.2899
2608700000		0.84328	-30.713
2708650000		0.84145	-31.9468
2808600000		0.84335	-33.4475
2908550000		0.84188	-34.7973
3008500000		0.84294	-36.0505
3108450000		0.84082	-37.5372
3208400000		0.84508	-39.0543
3308350000		0.84171	-40.6677
3408300000		0.83657	-42.2817
3508250000		0.83508	-43.9383
3608200000		0.83871	-45.3817
3708150000		0.83642	-47.1192
3808100000		0.83055	-48.813
3908050000		0.82409	-50.5147
4008000000		0.822	-52.1704
4107950000		0.82105	-53.8499
4207900000		0.82278	-55.4834
4307850000		0.81984	-57.1865
4407800000		0.81804	-58.9829
4507750000		0.81236	-60.7421
4607700000		0.80912	-62.5107
4707650000		0.80671	-64.3109
4807600000		0.79835	-66.1913
4907550000		0.79435	-68.0889
5007500000		0.79061	-70.0476
5107450000		0.79345	-71.8766
5207400000		0.79042	-73.9477
5307350000		0.78746	-76.0458
5407300000		0.7829	-78.2045
5507250000		0.78502	-80.3447
5607200000		0.78553	-82.4215
5707150000		0.78408	-84.7595
5807100000		0.78023	-87.1086
5907050000		0.77733	-89.5661
6007000000		0.77506	-91.9696
6106950000		0.77198	-94.4947
6206900000		0.7703	-97.0006
6306850000		0.76759	-99.5788
6406800000		0.76282	-102.2781
6506750000		0.76261	-104.8773
6606700000		0.75787	-107.7048
6706650000		0.75309	-110.5039
6806600000		0.74799	-113.4572
6906550000		0.74706	-116.2086
7006500000		0.7467	-119.034
7106450000		0.73914	-122.1779
7206400000		0.73459	-125.2
7306350000		0.73204	-128.2572
7406300000		0.72905	-131.2006
!
!				Infineon Technologies AG
