! Infineon Technologies  Discrete & RF Semiconductors
! BAT15-04W-E6327
! IAC = 0.05 mA
! One-Port S-Parameters
# Hz  S  MA  R  50
!f									S11
!Hz							Mag  Ang
309850000		0.88446	-3.2062
409800000		0.88493	-4.2391
509750000		0.88468	-5.2925
609700000		0.88507	-6.3381
709650000		0.88635	-7.4837
809600000		0.88233	-8.5926
909550000		0.88268	-9.7943
1009500000		0.88321	-10.8836
1109450000		0.88537	-12.0332
1209400000		0.88255	-13.1955
1309350000		0.88077	-14.4126
1409300000		0.87869	-15.5777
1509250000		0.87762	-16.7612
1609200000		0.87648	-17.9718
1709150000		0.87946	-19.1424
1809100000		0.87748	-20.3487
1909050000		0.87503	-21.5499
2009000000		0.87098	-22.8604
2108950000		0.87333	-24.1031
2208900000		0.86975	-25.3787
2308850000		0.86758	-26.637
2408800000		0.86297	-28.0655
2508750000		0.86649	-29.1946
2608700000		0.86664	-30.6364
2708650000		0.86489	-31.8363
2808600000		0.86684	-33.3494
2908550000		0.8656	-34.701
3008500000		0.86662	-35.9732
3108450000		0.86506	-37.4927
3208400000		0.86866	-38.9543
3308350000		0.86556	-40.5219
3408300000		0.86125	-42.165
3508250000		0.86003	-43.8118
3608200000		0.86313	-45.2541
3708150000		0.86103	-46.9703
3808100000		0.85564	-48.6642
3908050000		0.84986	-50.361
4008000000		0.84796	-52.0128
4107950000		0.84684	-53.6724
4207900000		0.84799	-55.2922
4307850000		0.84513	-56.9873
4407800000		0.84337	-58.7501
4507750000		0.83804	-60.5066
4607700000		0.83501	-62.2612
4707650000		0.83262	-64.0534
4807600000		0.82508	-65.9322
4907550000		0.82141	-67.8098
5007500000		0.81801	-69.7478
5107450000		0.82058	-71.5517
5207400000		0.81776	-73.5971
5307350000		0.81508	-75.6679
5407300000		0.811	-77.808
5507250000		0.81296	-79.9263
5607200000		0.81352	-81.9819
5707150000		0.81223	-84.2882
5807100000		0.80885	-86.6303
5907050000		0.80626	-89.0648
6007000000		0.80419	-91.4585
6106950000		0.80128	-93.9749
6206900000		0.79967	-96.4727
6306850000		0.79702	-99.034
6406800000		0.79273	-101.7236
6506750000		0.79233	-104.3023
6606700000		0.7878	-107.1081
6706650000		0.78336	-109.8948
6806600000		0.77848	-112.8304
6906550000		0.77746	-115.5568
7006500000		0.77668	-118.3591
7106450000		0.76952	-121.486
7206400000		0.76509	-124.486
7306350000		0.76224	-127.5248
7406300000		0.75894	-130.4511
!
!				Infineon Technologies AG
