! Infineon Technologies  Discrete & RF Semiconductors
! BAT15-04W-E6327
! IAC = 0.04 mA
! One-Port S-Parameters
# Hz  S  MA  R  50
!f									S11
!Hz							Mag  Ang
309850000		0.90677	-3.217
409800000		0.90723	-4.2754
509750000		0.90692	-5.2975
609700000		0.90723	-6.3434
709650000		0.90828	-7.4793
809600000		0.90497	-8.5807
909550000		0.90523	-9.7721
1009500000		0.90556	-10.8597
1109450000		0.90736	-12.006
1209400000		0.90512	-13.1765
1309350000		0.90352	-14.3814
1409300000		0.90159	-15.5472
1509250000		0.90068	-16.7164
1609200000		0.89969	-17.9314
1709150000		0.90199	-19.1057
1809100000		0.90001	-20.3038
1909050000		0.89806	-21.5005
2009000000		0.89454	-22.8023
2108950000		0.89626	-24.0391
2208900000		0.89324	-25.3373
2308850000		0.89132	-26.553
2408800000		0.8874	-27.9841
2508750000		0.89048	-29.1389
2608700000		0.89019	-30.4984
2708650000		0.88912	-31.7727
2808600000		0.89071	-33.2221
2908550000		0.88982	-34.576
3008500000		0.89078	-35.866
3108450000		0.8896	-37.3885
3208400000		0.89275	-38.8277
3308350000		0.89015	-40.4125
3408300000		0.88651	-42.0174
3508250000		0.8855	-43.6549
3608200000		0.88803	-45.0906
3708150000		0.88603	-46.7862
3808100000		0.88135	-48.4796
3908050000		0.87624	-50.1684
4008000000		0.87443	-51.8184
4107950000		0.87315	-53.4601
4207900000		0.87357	-55.0332
4307850000		0.87092	-56.7509
4407800000		0.86911	-58.4833
4507750000		0.86427	-60.2347
4607700000		0.86153	-61.9764
4707650000		0.85898	-63.7554
4807600000		0.85244	-65.6268
4907550000		0.84909	-67.4928
5007500000		0.84614	-69.4066
5107450000		0.8483	-71.1831
5207400000		0.84572	-73.2044
5307350000		0.84334	-75.2534
5407300000		0.83981	-77.3708
5507250000		0.84144	-79.4664
5607200000		0.84204	-81.4999
5707150000		0.84098	-83.7805
5807100000		0.83813	-86.11
5907050000		0.83573	-88.5236
6007000000		0.83386	-90.9097
6106950000		0.83118	-93.4154
6206900000		0.82964	-95.9022
6306850000		0.8271	-98.4437
6406800000		0.82318	-101.1256
6506750000		0.8226	-103.6833
6606700000		0.81838	-106.4698
6706650000		0.81434	-109.2429
6806600000		0.80964	-112.1579
6906550000		0.80853	-114.8597
7006500000		0.80739	-117.6405
7106450000		0.80065	-120.7523
7206400000		0.79633	-123.7328
7306350000		0.7932	-126.753
7406300000		0.78954	-129.6579
!
!				Infineon Technologies AG
