! Infineon Technologies  Discrete & RF Semiconductors
! BAT15-04W-E6327
! VCA = 1 V
! One-Port S-Parameters
# Hz  S  MA  R  50
!f									S11
!Hz							Mag  Ang
309850000		1.0004	-2.7187
409800000		1.0001	-3.5914
509750000		1.0007	-4.4701
609700000		1.0005	-5.3377
709650000		1.0003	-6.2615
809600000		1.0005	-7.1538
909550000		1.0009	-8.1288
1009500000		0.99999	-9.0309
1109450000		0.99987	-9.9962
1209400000		1.0004	-10.9799
1309350000		0.99997	-11.9714
1409300000		0.99855	-12.9383
1509250000		0.99863	-13.8879
1609200000		0.99845	-14.9227
1709150000		0.9974	-15.9591
1809100000		0.99574	-16.9449
1909050000		0.99548	-17.9078
2009000000		0.99524	-18.9654
2108950000		0.99419	-20.0143
2208900000		0.993	-21.067
2308850000		0.99297	-22.0155
2408800000		0.99283	-23.1472
2508750000		0.99275	-24.1548
2608700000		0.99273	-25.2868
2708650000		0.99256	-26.2402
2808600000		0.99354	-27.445
2908550000		0.99431	-28.5143
3008500000		0.99518	-29.7213
3108450000		0.99591	-30.9283
3208400000		0.99657	-32.1575
3308350000		0.99652	-33.4114
3408300000		0.99694	-34.691
3508250000		0.99742	-36.0048
3608200000		0.99712	-37.2825
3708150000		0.99633	-38.6546
3808100000		0.99509	-40.0133
3908050000		0.99417	-41.3504
4008000000		0.99304	-42.708
4107950000		0.99106	-44.0539
4207900000		0.98887	-45.4165
4307850000		0.98647	-46.7928
4407800000		0.98449	-48.1737
4507750000		0.98225	-49.5526
4607700000		0.98068	-50.9386
4707650000		0.97791	-52.3829
4807600000		0.9761	-53.7938
4907550000		0.97437	-55.2328
5007500000		0.97353	-56.6874
5107450000		0.97269	-58.1555
5207400000		0.9719	-59.6856
5307350000		0.97114	-61.2631
5407300000		0.97052	-62.8559
5507250000		0.97012	-64.593
5607200000		0.97036	-66.2141
5707150000		0.96969	-68.0216
5807100000		0.97028	-69.8449
5907050000		0.96937	-71.7489
6007000000		0.96933	-73.6906
6106950000		0.96809	-75.696
6206900000		0.96747	-77.7526
6306850000		0.96554	-79.8222
6406800000		0.96464	-81.9739
6506750000		0.96305	-84.1237
6606700000		0.96118	-86.3647
6706650000		0.95958	-88.5861
6806600000		0.95713	-90.9245
6906550000		0.9552	-93.2261
7006500000		0.95239	-95.6058
7106450000		0.94917	-98.0873
7206400000		0.9459	-100.5625
7306350000		0.94174	-103.1662
7406300000		0.93577	-105.7265
!
!				Infineon Technologies AG
