! Infineon Technologies  Discrete & RF Semiconductors
! BAT15-04W-E6327
! VCA = 0.9 V
! One-Port S-Parameters
# Hz  S  MA  R  50
!f									S11
!Hz							Mag  Ang
309850000		1.0007	-2.7658
409800000		1.0001	-3.6099
509750000		1.0007	-4.4944
609700000		1.0005	-5.3684
709650000		1.0003	-6.2949
809600000		1.0005	-7.1965
909550000		1.0009	-8.1749
1009500000		1	-9.0821
1109450000		0.99995	-10.0537
1209400000		1.0004	-11.043
1309350000		0.99996	-12.0396
1409300000		0.99854	-13.0138
1509250000		0.9987	-13.9684
1609200000		0.99853	-15.0084
1709150000		0.99737	-16.0506
1809100000		0.99568	-17.0411
1909050000		0.99546	-18.0097
2009000000		0.99501	-19.0425
2108950000		0.99413	-20.1305
2208900000		0.99293	-21.189
2308850000		0.99295	-22.143
2408800000		0.99303	-23.3204
2508750000		0.99251	-24.2592
2608700000		0.99265	-25.433
2708650000		0.99273	-26.4318
2808600000		0.9935	-27.6072
2908550000		0.99447	-28.7168
3008500000		0.99513	-29.8944
3108450000		0.9961	-31.1446
3208400000		0.99649	-32.3459
3308350000		0.99647	-33.6076
3408300000		0.99693	-34.8964
3508250000		0.99758	-36.2541
3608200000		0.99702	-37.5046
3708150000		0.99628	-38.8831
3808100000		0.99505	-40.2499
3908050000		0.99406	-41.5958
4008000000		0.99295	-42.9633
4107950000		0.99095	-44.3184
4207900000		0.98879	-45.6886
4307850000		0.98635	-47.073
4407800000		0.9843	-48.4642
4507750000		0.9821	-49.8524
4607700000		0.98054	-51.2452
4707650000		0.9777	-52.7003
4807600000		0.97585	-54.1213
4907550000		0.97416	-55.5735
5007500000		0.97336	-57.0399
5107450000		0.97246	-58.5151
5207400000		0.97176	-60.0612
5307350000		0.97094	-61.6488
5407300000		0.97039	-63.2557
5507250000		0.96993	-65.0035
5607200000		0.97017	-66.6394
5707150000		0.9695	-68.4616
5807100000		0.97008	-70.2957
5907050000		0.96908	-72.2164
6007000000		0.9691	-74.1716
6106950000		0.9678	-76.1918
6206900000		0.96723	-78.2623
6306850000		0.96532	-80.3462
6406800000		0.9643	-82.5142
6506750000		0.96272	-84.6802
6606700000		0.96083	-86.9315
6706650000		0.95924	-89.1696
6806600000		0.95673	-91.5246
6906550000		0.95479	-93.8398
7006500000		0.95207	-96.234
7106450000		0.94875	-98.7305
7206400000		0.94541	-101.2227
7306350000		0.94128	-103.8405
7406300000		0.93531	-106.413
!
!				Infineon Technologies AG
