! Infineon Technologies  Discrete & RF Semiconductors
! BAT15-04W-E6327
! IAC = 0.02 mA
! One-Port S-Parameters
# Hz  S  MA  R  50
!f									S11
!Hz							Mag  Ang
309850000		0.95238	-3.1941
409800000		0.95256	-4.2449
509750000		0.95268	-5.2917
609700000		0.95281	-6.327
709650000		0.95331	-7.4365
809600000		0.95147	-8.5254
909550000		0.95181	-9.6888
1009500000		0.95163	-10.7647
1109450000		0.95255	-11.9017
1209400000		0.95152	-13.0716
1309350000		0.95045	-14.256
1409300000		0.94873	-15.4094
1509250000		0.94824	-16.559
1609200000		0.94752	-17.7715
1709150000		0.94833	-18.9546
1809100000		0.94642	-20.1337
1909050000		0.94505	-21.2816
2009000000		0.94316	-22.5936
2108950000		0.94364	-23.816
2208900000		0.9414	-25.0939
2308850000		0.94031	-26.2816
2408800000		0.93792	-27.6692
2508750000		0.93969	-28.8492
2608700000		0.93941	-30.1752
2708650000		0.93893	-31.4387
2808600000		0.94009	-32.8417
2908550000		0.94	-34.192
3008500000		0.94069	-35.5192
3108450000		0.94013	-36.9918
3208400000		0.94209	-38.3964
3308350000		0.94077	-39.979
3408300000		0.93881	-41.5639
3508250000		0.93838	-43.1781
3608200000		0.93951	-44.6048
3708150000		0.93795	-46.2575
3808100000		0.93469	-47.9391
3908050000		0.9312	-49.6066
4008000000		0.92956	-51.2388
4107950000		0.92784	-52.8432
4207900000		0.92706	-54.4223
4307850000		0.92426	-56.0857
4407800000		0.92231	-57.7602
4507750000		0.91859	-59.4928
4607700000		0.91628	-61.2021
4707650000		0.91362	-62.9528
4807600000		0.90922	-64.8016
4907550000		0.90657	-66.6247
5007500000		0.90451	-68.4899
5107450000		0.90559	-70.2166
5207400000		0.90368	-72.1847
5307350000		0.90192	-74.183
5407300000		0.89964	-76.2521
5507250000		0.90054	-78.302
5607200000		0.90095	-80.292
5707150000		0.90007	-82.5168
5807100000		0.89849	-84.8153
5907050000		0.8967	-87.1783
6007000000		0.89532	-89.544
6106950000		0.89297	-92.019
6206900000		0.89171	-94.481
6306850000		0.88927	-96.9844
6406800000		0.88642	-99.6312
6506750000		0.88516	-102.15
6606700000		0.88176	-104.8909
6706650000		0.8786	-107.6264
6806600000		0.87456	-110.4909
6906550000		0.87302	-113.1491
7006500000		0.87098	-115.889
7106450000		0.86548	-118.9576
7206400000		0.86145	-121.892
7306350000		0.85774	-124.8795
7406300000		0.85309	-127.7436
!
!				Infineon Technologies AG
