! Infineon Technologies  Discrete & RF Semiconductors
! BAT15-04W-E6327
! IAC = 0.9 mA
! One-Port S-Parameters
# Hz  S  MA  R  50
!f									S11
!Hz							Mag  Ang
309850000		0.11964	169.5224
409800000		0.12205	166.5257
509750000		0.12297	163.9645
609700000		0.12515	161.3989
709650000		0.12374	159.3666
809600000		0.125	157.2958
909550000		0.12609	155.6228
1009500000		0.13044	153.5729
1109450000		0.13156	151.6374
1209400000		0.13576	149.195
1309350000		0.13671	147.6703
1409300000		0.13873	145.7115
1509250000		0.14284	144.698
1609200000		0.14584	142.7462
1709150000		0.14975	140.677
1809100000		0.15241	139.5402
1909050000		0.15748	138.3427
2009000000		0.16107	137.1871
2108950000		0.16307	135.8897
2208900000		0.16473	134.8281
2308850000		0.1692	133.7217
2408800000		0.17143	132.2805
2508750000		0.17264	130.7737
2608700000		0.17504	130.0502
2708650000		0.17854	128.5725
2808600000		0.18252	128.1597
2908550000		0.18518	126.7336
3008500000		0.19118	125.049
3108450000		0.19435	124.0672
3208400000		0.19935	123.4168
3308350000		0.20174	122.7267
3408300000		0.20698	121.9838
3508250000		0.20989	121.1496
3608200000		0.21715	120.0319
3708150000		0.21996	119.457
3808100000		0.22338	118.5313
3908050000		0.22723	117.634
4008000000		0.23347	116.7421
4107950000		0.23768	115.963
4207900000		0.24135	115.0995
4307850000		0.24649	114.2301
4407800000		0.25146	113.6685
4507750000		0.25592	112.8399
4607700000		0.26243	111.9338
4707650000		0.26827	111.1274
4807600000		0.27396	110.2982
4907550000		0.2783	109.6184
5007500000		0.28345	108.8999
5107450000		0.29208	108.1231
5207400000		0.29488	107.4533
5307350000		0.29803	106.8054
5407300000		0.30441	106.0629
5507250000		0.31155	105.4701
5607200000		0.31818	104.6832
5707150000		0.32576	104.1507
5807100000		0.32978	103.3784
5907050000		0.33733	102.662
6007000000		0.34066	101.995
6106950000		0.34722	101.2988
6206900000		0.35302	100.5233
6306850000		0.35767	99.959
6406800000		0.36327	99.3313
6506750000		0.36902	98.6531
6606700000		0.37483	97.9506
6706650000		0.38058	97.3204
6806600000		0.38568	96.7645
6906550000		0.39313	95.8591
7006500000		0.3984	95.1352
7106450000		0.40275	94.5376
7206400000		0.40907	93.6197
7306350000		0.41467	92.7653
7406300000		0.42231	91.5648
!
!				Infineon Technologies AG
