! Infineon Technologies  Discrete & RF Semiconductors
! BAT15-04W-E6327
! VCA = 3 V
! One-Port S-Parameters
# Hz  S  MA  R  50
!f									S11
!Hz							Mag  Ang
309850000		1.0002	-2.5511
409800000		0.99992	-3.3747
509750000		1.0005	-4.2038
609700000		1.0001	-4.9862
709650000		1.0002	-5.8876
809600000		1.0003	-6.7277
909550000		1.0007	-7.6475
1009500000		0.99984	-8.495
1109450000		0.99974	-9.4048
1209400000		1.0003	-10.3336
1309350000		0.99986	-11.2694
1409300000		0.99854	-12.1788
1509250000		0.99859	-13.0725
1609200000		0.99845	-14.0481
1709150000		0.99741	-15.0251
1809100000		0.99573	-15.9562
1909050000		0.99555	-16.8558
2009000000		0.99528	-17.853
2108950000		0.99406	-18.8084
2208900000		0.99304	-19.8312
2308850000		0.99305	-20.7147
2408800000		0.99316	-21.8225
2508750000		0.99281	-22.7232
2608700000		0.99257	-23.7498
2708650000		0.99288	-24.7064
2808600000		0.99367	-25.8055
2908550000		0.99464	-26.8347
3008500000		0.99539	-27.9308
3108450000		0.99647	-29.0969
3208400000		0.99689	-30.2166
3308350000		0.99686	-31.3943
3408300000		0.99738	-32.591
3508250000		0.99823	-33.8603
3608200000		0.99775	-35.0238
3708150000		0.9971	-36.3127
3808100000		0.996	-37.5847
3908050000		0.99512	-38.8405
4008000000		0.9942	-40.1129
4107950000		0.99228	-41.3744
4207900000		0.99014	-42.6461
4307850000		0.9879	-43.931
4407800000		0.986	-45.2207
4507750000		0.98378	-46.5038
4607700000		0.9823	-47.7896
4707650000		0.97948	-49.136
4807600000		0.9777	-50.441
4907550000		0.97599	-51.7763
5007500000		0.97523	-53.116
5107450000		0.97434	-54.4712
5207400000		0.9736	-55.8773
5307350000		0.97285	-57.3381
5407300000		0.9723	-58.7973
5507250000		0.97183	-60.4049
5607200000		0.97209	-61.8893
5707150000		0.97151	-63.554
5807100000		0.97231	-65.2405
5907050000		0.97148	-66.9965
6007000000		0.97162	-68.7999
6106950000		0.9706	-70.6474
6206900000		0.97011	-72.5612
6306850000		0.96834	-74.4765
6406800000		0.96763	-76.4768
6506750000		0.96616	-78.4723
6606700000		0.96457	-80.5563
6706650000		0.9631	-82.6216
6806600000		0.9608	-84.8011
6906550000		0.95902	-86.9512
7006500000		0.95647	-89.1648
7106450000		0.95343	-91.4858
7206400000		0.95032	-93.8075
7306350000		0.94634	-96.2408
7406300000		0.94052	-98.6449
!
!				Infineon Technologies AG
