! Infineon Technologies  Discrete & RF Semiconductors
! BAT15-04W-E6327
! IAC = 10 mA
! One-Port S-Parameters
# Hz  S  MA  R  50
!f									S11
!Hz							Mag  Ang
309850000		0.7529	174.3382
409800000		0.75207	172.6297
509750000		0.75109	170.9814
609700000		0.75096	169.2741
709650000		0.75037	167.6774
809600000		0.75072	166.0677
909550000		0.75058	164.4451
1009500000		0.75086	162.8096
1109450000		0.75118	161.3368
1209400000		0.75218	159.7469
1309350000		0.75261	158.1918
1409300000		0.75345	156.641
1509250000		0.75458	155.1943
1609200000		0.75614	153.6053
1709150000		0.7571	152.0977
1809100000		0.75789	150.6008
1909050000		0.75945	149.1818
2009000000		0.76154	147.6319
2108950000		0.76271	146.1687
2208900000		0.76328	144.7719
2308850000		0.7646	143.2771
2408800000		0.76589	141.8551
2508750000		0.76667	140.3751
2608700000		0.76726	139.0144
2708650000		0.76795	137.5757
2808600000		0.769	136.263
2908550000		0.7697	134.8636
3008500000		0.77066	133.5433
3108450000		0.77148	132.2292
3208400000		0.77228	130.9483
3308350000		0.77362	129.6746
3408300000		0.77486	128.4455
3508250000		0.77612	127.1823
3608200000		0.77788	125.8878
3708150000		0.77949	124.7151
3808100000		0.78161	123.4407
3908050000		0.78359	122.2003
4008000000		0.78577	120.9821
4107950000		0.78825	119.6865
4207900000		0.79056	118.4161
4307850000		0.79301	117.1714
4407800000		0.79551	115.946
4507750000		0.7982	114.7156
4607700000		0.80044	113.4309
4707650000		0.80287	112.1854
4807600000		0.80452	110.9481
4907550000		0.80642	109.7535
5007500000		0.80794	108.5304
5107450000		0.8093	107.294
5207400000		0.81078	106.1275
5307350000		0.81161	104.9681
5407300000		0.81285	103.8089
5507250000		0.81325	102.7745
5607200000		0.81375	101.6675
5707150000		0.81514	100.7109
5807100000		0.81599	99.6306
5907050000		0.81754	98.6471
6007000000		0.81813	97.6351
6106950000		0.81973	96.6738
6206900000		0.82029	95.6981
6306850000		0.82175	94.7188
6406800000		0.82222	93.8266
6506750000		0.82352	92.8924
6606700000		0.82481	91.9869
6706650000		0.82611	91.04
6806600000		0.82798	90.159
6906550000		0.82925	89.1911
7006500000		0.83099	88.1886
7106450000		0.83253	87.26
7206400000		0.83375	86.26
7306350000		0.83491	85.2503
7406300000		0.83538	84.1525
!
!				Infineon Technologies AG
