! Infineon Technologies  Discrete & RF Semiconductors
! BAT15-04W-E6327
! VCA = 0.6 V
! One-Port S-Parameters
# Hz  S  MA  R  50
!f									S11
!Hz							Mag  Ang
309850000		1.0004	-2.7918
409800000		1.0001	-3.6887
509750000		1.0007	-4.5949
609700000		1.0005	-5.4873
709650000		1.0003	-6.4354
809600000		1.0005	-7.3529
909550000		1.0009	-8.3524
1009500000		0.99998	-9.28
1109450000		0.99983	-10.2702
1209400000		1.0004	-11.2817
1309350000		0.99993	-12.3011
1409300000		0.9985	-13.2921
1509250000		0.99855	-14.2687
1609200000		0.99847	-15.3321
1709150000		0.9973	-16.396
1809100000		0.99561	-17.4075
1909050000		0.99543	-18.3975
2009000000		0.99518	-19.486
2108950000		0.99409	-20.5625
2208900000		0.99267	-21.6129
2308850000		0.99284	-22.6245
2408800000		0.99295	-23.8256
2508750000		0.99238	-24.7908
2608700000		0.99258	-25.9889
2708650000		0.99258	-27.0126
2808600000		0.99337	-28.2147
2908550000		0.9943	-29.3512
3008500000		0.9949	-30.5554
3108450000		0.99593	-31.836
3208400000		0.99633	-33.0658
3308350000		0.99622	-34.3552
3408300000		0.99661	-35.6759
3508250000		0.99729	-37.0609
3608200000		0.99664	-38.3408
3708150000		0.99584	-39.7517
3808100000		0.99461	-41.1501
3908050000		0.99358	-42.5268
4008000000		0.99247	-43.9278
4107950000		0.99038	-45.3129
4207900000		0.98812	-46.7174
4307850000		0.98571	-48.1375
4407800000		0.98367	-49.5646
4507750000		0.98144	-50.9841
4607700000		0.97986	-52.4164
4707650000		0.97695	-53.9085
4807600000		0.97517	-55.3658
4907550000		0.97343	-56.8587
5007500000		0.97261	-58.3673
5107450000		0.97176	-59.8849
5207400000		0.97092	-61.4755
5307350000		0.97018	-63.108
5407300000		0.96953	-64.7652
5507250000		0.96913	-66.5616
5607200000		0.96931	-68.2478
5707150000		0.96865	-70.1217
5807100000		0.96915	-72.0079
5907050000		0.96815	-73.9841
6007000000		0.96804	-75.9882
6106950000		0.96673	-78.0687
6206900000		0.96608	-80.1888
6306850000		0.96407	-82.3284
6406800000		0.963	-84.5522
6506750000		0.96136	-86.7745
6606700000		0.95941	-89.0814
6706650000		0.95777	-91.3782
6806600000		0.95521	-93.7891
6906550000		0.95317	-96.1577
7006500000		0.95034	-98.6082
7106450000		0.94703	-101.1626
7206400000		0.94365	-103.7091
7306350000		0.93939	-106.3841
7406300000		0.93337	-109.0101
!
!				Infineon Technologies AG
