! Infineon Technologies  Discrete & RF Semiconductors
! BAT15-04W-E6327
! VCA = 0.8 V
! One-Port S-Parameters
# Hz  S  MA  R  50
!f									S11
!Hz							Mag  Ang
309850000		1.0006	-2.7837
409800000		1	-3.6352
509750000		1.0007	-4.5235
609700000		1.0005	-5.4025
709650000		1.0003	-6.3369
809600000		1.0005	-7.2421
909550000		1.0009	-8.2273
1009500000		0.99997	-9.1391
1109450000		0.99984	-10.1164
1209400000		1.0003	-11.1129
1309350000		0.99989	-12.1154
1409300000		0.99847	-13.0932
1509250000		0.99859	-14.0567
1609200000		0.99839	-15.102
1709150000		0.99729	-16.1518
1809100000		0.99563	-17.1479
1909050000		0.99543	-18.1219
2009000000		0.99515	-19.1955
2108950000		0.99404	-20.2566
2208900000		0.99285	-21.3246
2308850000		0.99291	-22.2833
2408800000		0.993	-23.4704
2508750000		0.99264	-24.4493
2608700000		0.99262	-25.5965
2708650000		0.99245	-26.5674
2808600000		0.99342	-27.7866
2908550000		0.99436	-28.9017
3008500000		0.99502	-30.0868
3108450000		0.99601	-31.347
3208400000		0.99643	-32.5577
3308350000		0.99632	-33.8276
3408300000		0.99678	-35.126
3508250000		0.99724	-36.4564
3608200000		0.99691	-37.7496
3708150000		0.99616	-39.1404
3808100000		0.99493	-40.5143
3908050000		0.99388	-41.8694
4008000000		0.99277	-43.246
4107950000		0.99075	-44.6099
4207900000		0.98855	-45.9905
4307850000		0.98615	-47.3867
4407800000		0.98411	-48.7882
4507750000		0.98185	-50.1874
4607700000		0.98031	-51.5905
4707650000		0.97742	-53.0565
4807600000		0.97566	-54.4866
4907550000		0.97393	-55.9516
5007500000		0.9731	-57.4295
5107450000		0.97225	-58.9171
5207400000		0.97144	-60.4761
5307350000		0.9707	-62.0763
5407300000		0.97009	-63.6997
5507250000		0.9697	-65.46
5607200000		0.96986	-67.1117
5707150000		0.96924	-68.9476
5807100000		0.9698	-70.798
5907050000		0.96884	-72.7355
6007000000		0.96879	-74.7052
6106950000		0.9675	-76.7432
6206900000		0.96691	-78.8304
6306850000		0.96495	-80.9284
6406800000		0.96392	-83.112
6506750000		0.96225	-85.2952
6606700000		0.96038	-87.562
6706650000		0.95875	-89.8184
6806600000		0.95625	-92.1886
6906550000		0.95431	-94.5198
7006500000		0.95149	-96.9306
7106450000		0.94825	-99.4471
7206400000		0.94486	-101.9543
7306350000		0.94069	-104.5886
7406300000		0.93471	-107.1764
!
!				Infineon Technologies AG
