! Infineon Technologies  Discrete & RF Semiconductors
! BAT15-04W-E6327
! VCA = 0.1 V
! One-Port S-Parameters
# Hz  S  MA  R  50
!f									S11
!Hz							Mag  Ang
309850000		1.0004	-2.9891
409800000		1.0002	-3.9537
509750000		1.0008	-4.9228
609700000		1.0005	-5.8784
709650000		1.0004	-6.8905
809600000		1.0005	-7.8756
909550000		1.0009	-8.9441
1009500000		0.99996	-9.9391
1109450000		0.99975	-10.9971
1209400000		1.0003	-12.0767
1309350000		0.99977	-13.1656
1409300000		0.99833	-14.2289
1509250000		0.99838	-15.2739
1609200000		0.99822	-16.408
1709150000		0.99708	-17.5496
1809100000		0.99537	-18.6343
1909050000		0.9951	-19.6984
2009000000		0.99481	-20.8594
2108950000		0.9937	-22.0187
2208900000		0.99246	-23.1759
2308850000		0.99245	-24.2343
2408800000		0.99253	-25.5158
2508750000		0.99221	-26.6002
2608700000		0.99214	-27.8511
2708650000		0.99192	-28.9222
2808600000		0.99284	-30.252
2908550000		0.99374	-31.4806
3008500000		0.99427	-32.7789
3108450000		0.99497	-34.1183
3208400000		0.9953	-35.4506
3308350000		0.99508	-36.8341
3408300000		0.99552	-38.2858
3508250000		0.99612	-39.7716
3608200000		0.99539	-41.1585
3708150000		0.99444	-42.6731
3808100000		0.993	-44.1736
3908050000		0.99178	-45.6519
4008000000		0.99029	-47.1294
4107950000		0.98832	-48.6564
4207900000		0.98597	-50.1766
4307850000		0.98338	-51.7078
4407800000		0.98123	-53.2525
4507750000		0.97887	-54.7956
4607700000		0.97717	-56.3473
4707650000		0.97432	-57.9656
4807600000		0.9725	-59.5552
4907550000		0.97074	-61.1772
5007500000		0.96985	-62.8276
5107450000		0.96908	-64.4914
5207400000		0.96816	-66.2379
5307350000		0.96735	-68.0163
5407300000		0.96663	-69.8392
5507250000		0.96623	-71.8013
5607200000		0.96631	-73.6595
5707150000		0.96546	-75.7051
5807100000		0.96579	-77.7567
5907050000		0.96459	-79.9192
6007000000		0.96422	-82.0905
6106950000		0.96273	-84.359
6206900000		0.96183	-86.6512
6306850000		0.95964	-88.9751
6406800000		0.95827	-91.3751
6506750000		0.95642	-93.7783
6606700000		0.95419	-96.2675
6706650000		0.95239	-98.7411
6806600000		0.94956	-101.3269
6906550000		0.94739	-103.8684
7006500000		0.94437	-106.5089
7106450000		0.94095	-109.2359
7206400000		0.93743	-111.9459
7306350000		0.93301	-114.8013
7406300000		0.92689	-117.5983
!
!				Infineon Technologies AG
