! Infineon Technologies  Discrete & RF Semiconductors
! BAT15-04W-E6327
! VCA = 0.7 V
! One-Port S-Parameters
# Hz  S  MA  R  50
!f									S11
!Hz							Mag  Ang
309850000		1.0003	-2.7707
409800000		1.0001	-3.6628
509750000		1.0007	-4.5577
609700000		1.0004	-5.4428
709650000		1.0003	-6.3816
809600000		1.0005	-7.2946
909550000		1.0009	-8.2881
1009500000		0.99998	-9.2042
1109450000		0.99987	-10.1885
1209400000		1.0004	-11.1918
1309350000		0.99989	-12.203
1409300000		0.99858	-13.1863
1509250000		0.9986	-14.1547
1609200000		0.99842	-15.2086
1709150000		0.99735	-16.2668
1809100000		0.99565	-17.2709
1909050000		0.99546	-18.2525
2009000000		0.99518	-19.3324
2108950000		0.99407	-20.4002
2208900000		0.99288	-21.4741
2308850000		0.99286	-22.4449
2408800000		0.99299	-23.6368
2508750000		0.99268	-24.6262
2608700000		0.99255	-25.7809
2708650000		0.99268	-26.7942
2808600000		0.99336	-27.9849
2908550000		0.99409	-29.0763
3008500000		0.995	-30.3086
3108450000		0.99599	-31.576
3208400000		0.9964	-32.7954
3308350000		0.99629	-34.0766
3408300000		0.99671	-35.3813
3508250000		0.9974	-36.7592
3608200000		0.99681	-38.027
3708150000		0.99604	-39.426
3808100000		0.99479	-40.8109
3908050000		0.99377	-42.1784
4008000000		0.99265	-43.5673
4107950000		0.99062	-44.9396
4207900000		0.98835	-46.3288
4307850000		0.98595	-47.7375
4407800000		0.98393	-49.1518
4507750000		0.98168	-50.5611
4607700000		0.98011	-51.9762
4707650000		0.97724	-53.4575
4807600000		0.97541	-54.8994
4907550000		0.97374	-56.3771
5007500000		0.9729	-57.8682
5107450000		0.972	-59.3707
5207400000		0.97124	-60.9449
5307350000		0.97048	-62.5607
5407300000		0.96988	-64.2003
5507250000		0.96945	-65.9771
5607200000		0.96965	-67.6449
5707150000		0.96898	-69.4974
5807100000		0.96954	-71.3657
5907050000		0.96851	-73.3212
6007000000		0.96844	-75.3066
6106950000		0.96716	-77.365
6206900000		0.96651	-79.4664
6306850000		0.96455	-81.5842
6406800000		0.96349	-83.7885
6506750000		0.96188	-85.9876
6606700000		0.96001	-88.2758
6706650000		0.95828	-90.5486
6806600000		0.95572	-92.938
6906550000		0.95378	-95.2881
7006500000		0.95099	-97.7186
7106450000		0.94769	-100.2522
7206400000		0.94432	-102.7794
7306350000		0.94008	-105.4322
7406300000		0.93406	-108.037
!
!				Infineon Technologies AG
