! Infineon Technologies  Discrete & RF Semiconductors
! BAT15-04W-E6327
! IAC = 0.1 mA
! One-Port S-Parameters
# Hz  S  MA  R  50
!f									S11
!Hz							Mag  Ang
309850000		0.77889	-3.1314
409800000		0.77963	-4.1448
509750000		0.77907	-5.1774
609700000		0.77956	-6.2413
709650000		0.78161	-7.4013
809600000		0.77551	-8.5496
909550000		0.77598	-9.7954
1009500000		0.77688	-10.8967
1109450000		0.78056	-12.0428
1209400000		0.77543	-13.1407
1309350000		0.77301	-14.4133
1409300000		0.77081	-15.5709
1509250000		0.76867	-16.8158
1609200000		0.76722	-18.0063
1709150000		0.77241	-19.1252
1809100000		0.77037	-20.3834
1909050000		0.76623	-21.5898
2009000000		0.75973	-22.9359
2108950000		0.76434	-24.2161
2208900000		0.7597	-25.5704
2308850000		0.75557	-26.7943
2408800000		0.74851	-28.2063
2508750000		0.7544	-29.4004
2608700000		0.75417	-30.8423
2708650000		0.75177	-32.0907
2808600000		0.75407	-33.6954
2908550000		0.75166	-35.0217
3008500000		0.75271	-36.1995
3108450000		0.7499	-37.7075
3208400000		0.7548	-39.2835
3308350000		0.75035	-40.9435
3408300000		0.74268	-42.5366
3508250000		0.74069	-44.2664
3608200000		0.74535	-45.677
3708150000		0.74267	-47.5463
3808100000		0.73511	-49.217
3908050000		0.7266	-50.937
4008000000		0.72409	-52.5985
4107950000		0.72342	-54.3626
4207900000		0.72687	-56.0566
4307850000		0.7237	-57.7882
4407800000		0.7217	-59.7268
4507750000		0.71471	-61.4861
4607700000		0.71055	-63.3034
4707650000		0.70818	-65.1492
4807600000		0.69696	-67.0242
4907550000		0.69202	-68.9818
5007500000		0.68704	-71.0336
5107450000		0.68997	-72.9924
5207400000		0.68658	-75.1608
5307350000		0.68304	-77.3591
5407300000		0.67675	-79.6041
5507250000		0.67891	-81.8496
5607200000		0.67887	-84.0277
5707150000		0.67651	-86.5002
5807100000		0.67121	-88.8965
5907050000		0.66727	-91.454
6007000000		0.66462	-93.8989
6106950000		0.66103	-96.4595
6206900000		0.65877	-99.005
6306850000		0.6557	-101.6617
6406800000		0.64971	-104.4119
6506750000		0.64994	-107.1102
6606700000		0.64441	-110.0279
6706650000		0.63859	-112.8874
6806600000		0.63341	-115.925
6906550000		0.63244	-118.7663
7006500000		0.63315	-121.7038
7106450000		0.62523	-124.9317
7206400000		0.62051	-128.0703
7306350000		0.61883	-131.2075
7406300000		0.61624	-134.2511
!
!				Infineon Technologies AG
