! Infineon Technologies  Discrete & RF Semiconductors
! BAT15-04W-E6327
! VCA = 2 V
! One-Port S-Parameters
# Hz  S  MA  R  50
!f									S11
!Hz							Mag  Ang
309850000		1.0003	-2.6133
409800000		1.0001	-3.4528
509750000		1.0006	-4.2976
609700000		1.0004	-5.1336
709650000		1.0003	-6.0208
809600000		1.0004	-6.8815
909550000		1.0009	-7.8217
1009500000		1	-8.6858
1109450000		0.99989	-9.6177
1209400000		1.0004	-10.5635
1309350000		0.99993	-11.5215
1409300000		0.99855	-12.4528
1509250000		0.99866	-13.3661
1609200000		0.99855	-14.3634
1709150000		0.99748	-15.3613
1809100000		0.99582	-16.3085
1909050000		0.99563	-17.2342
2009000000		0.99537	-18.2533
2108950000		0.99432	-19.2622
2208900000		0.99312	-20.2755
2308850000		0.99292	-21.1483
2408800000		0.99323	-22.3132
2508750000		0.99295	-23.2365
2608700000		0.99289	-24.3243
2708650000		0.99272	-25.2353
2808600000		0.99369	-26.3969
2908550000		0.99472	-27.4518
3008500000		0.99541	-28.5742
3108450000		0.99614	-29.733
3208400000		0.99685	-30.9139
3308350000		0.99678	-32.1166
3408300000		0.99731	-33.3471
3508250000		0.9981	-34.6459
3608200000		0.99761	-35.8338
3708150000		0.99697	-37.155
3808100000		0.99579	-38.458
3908050000		0.99494	-39.7426
4008000000		0.99385	-41.0443
4107950000		0.9919	-42.3369
4207900000		0.98981	-43.6401
4307850000		0.98749	-44.9591
4407800000		0.98552	-46.2814
4507750000		0.9834	-47.5994
4607700000		0.98189	-48.9207
4707650000		0.97904	-50.3015
4807600000		0.97729	-51.6446
4907550000		0.97552	-53.0183
5007500000		0.97472	-54.4001
5107450000		0.97387	-55.7929
5207400000		0.97311	-57.2454
5307350000		0.97231	-58.7478
5407300000		0.97179	-60.256
5507250000		0.97136	-61.9081
5607200000		0.97162	-63.4415
5707150000		0.97099	-65.1579
5807100000		0.97175	-66.8935
5907050000		0.97089	-68.703
6007000000		0.97097	-70.5549
6106950000		0.96984	-72.4606
6206900000		0.96933	-74.4257
6306850000		0.96751	-76.3976
6406800000		0.96673	-78.4533
6506750000		0.96519	-80.5045
6606700000		0.9635	-82.6439
6706650000		0.96205	-84.7677
6806600000		0.95962	-87.0059
6906550000		0.95781	-89.2106
7006500000		0.95522	-91.4824
7106450000		0.95206	-93.8636
7206400000		0.94884	-96.2413
7306350000		0.94486	-98.7384
7406300000		0.93901	-101.1992
!
!				Infineon Technologies AG
