! Infineon Technologies  Discrete & RF Semiconductors
! BAT15-04W-E6327
! IAC = 0.08 mA
! One-Port S-Parameters
# Hz  S  MA  R  50
!f									S11
!Hz							Mag  Ang
309850000		0.82003	-3.1642
409800000		0.82067	-4.1891
509750000		0.82019	-5.2319
609700000		0.82074	-6.2903
709650000		0.82264	-7.4645
809600000		0.81709	-8.5779
909550000		0.81743	-9.8098
1009500000		0.81835	-10.9078
1109450000		0.82148	-12.0566
1209400000		0.81716	-13.1878
1309350000		0.81493	-14.4366
1409300000		0.8128	-15.5989
1509250000		0.81106	-16.8176
1609200000		0.80972	-18.017
1709150000		0.81417	-19.161
1809100000		0.8121	-20.3968
1909050000		0.80867	-21.6039
2009000000		0.80299	-22.9363
2108950000		0.80682	-24.202
2208900000		0.8026	-25.5397
2308850000		0.79917	-26.7833
2408800000		0.79281	-28.1869
2508750000		0.798	-29.3687
2608700000		0.79797	-30.8192
2708650000		0.79582	-32.0444
2808600000		0.79788	-33.5983
2908550000		0.79572	-34.8984
3008500000		0.79701	-36.1484
3108450000		0.79458	-37.6663
3208400000		0.79916	-39.1949
3308350000		0.79522	-40.8345
3408300000		0.78864	-42.4219
3508250000		0.7869	-44.1323
3608200000		0.79121	-45.5742
3708150000		0.78865	-47.361
3808100000		0.78184	-49.045
3908050000		0.77422	-50.7561
4008000000		0.772	-52.4172
4107950000		0.77123	-54.1377
4207900000		0.77386	-55.8006
4307850000		0.77084	-57.5164
4407800000		0.76903	-59.3838
4507750000		0.76257	-61.144
4607700000		0.75885	-62.9358
4707650000		0.7565	-64.7598
4807600000		0.74656	-66.6389
4907550000		0.74209	-68.5655
5007500000		0.73767	-70.5689
5107450000		0.74068	-72.4634
5207400000		0.7374	-74.5807
5307350000		0.73413	-76.7253
5407300000		0.72858	-78.9261
5507250000		0.73082	-81.1188
5607200000		0.73113	-83.2433
5707150000		0.72928	-85.6441
5807100000		0.72458	-88.017
5907050000		0.72113	-90.5205
6007000000		0.71864	-92.9412
6106950000		0.7153	-95.4828
6206900000		0.71331	-98.0063
6306850000		0.71045	-100.6216
6406800000		0.70499	-103.3443
6506750000		0.70508	-105.9881
6606700000		0.69986	-108.856
6706650000		0.69451	-111.6837
6806600000		0.68933	-114.6762
6906550000		0.6884	-117.4719
7006500000		0.68858	-120.3474
7106450000		0.68068	-123.5306
7206400000		0.67608	-126.6042
7306350000		0.67396	-129.6983
7406300000		0.67132	-132.6898
!
!				Infineon Technologies AG
