! Infineon Technologies  Discrete & RF Semiconductors
! BAT15-04W-E6327
! IAC = 0.6 mA
! One-Port S-Parameters
# Hz  S  MA  R  50
!f									S11
!Hz							Mag  Ang
309850000		0.0938	3.395
409800000		0.09245	4.7435
509750000		0.09242	5.1636
609700000		0.09129	5.6074
709650000		0.09389	4.3054
809600000		0.09149	4.3695
909550000		0.09143	3.1511
1009500000		0.08837	3.9041
1109450000		0.08995	3.4642
1209400000		0.08628	6.1396
1309350000		0.08499	4.7188
1409300000		0.08445	5.0142
1509250000		0.07962	4.721
1609200000		0.07864	5.4723
1709150000		0.07941	6.8332
1809100000		0.07687	5.9606
1909050000		0.0717	8.1033
2009000000		0.06673	9.1253
2108950000		0.06739	7.2028
2208900000		0.06454	6.4957
2308850000		0.06005	8.4502
2408800000		0.05808	10.5586
2508750000		0.05964	8.6074
2608700000		0.05649	7.22
2708650000		0.05511	9.8738
2808600000		0.05021	8.207
2908550000		0.04922	10.0874
3008500000		0.04878	15.8696
3108450000		0.04639	17.8715
3208400000		0.04225	19.7532
3308350000		0.03845	20.9284
3408300000		0.03459	31.0936
3508250000		0.03177	34.5374
3608200000		0.03209	44.0018
3708150000		0.0284	49.7764
3808100000		0.02893	59.2224
3908050000		0.03031	70.1302
4008000000		0.03376	79.4925
4107950000		0.03469	86.4591
4207900000		0.03445	90.028
4307850000		0.03841	95.6473
4407800000		0.04181	103.5606
4507750000		0.04695	106.434
4607700000		0.05436	109.007
4707650000		0.06028	111.0263
4807600000		0.06917	111.9006
4907550000		0.07442	113.6639
5007500000		0.08094	115.0949
5107450000		0.0908	115.6711
5207400000		0.0936	117.3087
5307350000		0.09774	118.4492
5407300000		0.10667	118.4897
5507250000		0.11548	118.5613
5607200000		0.12405	118.406
5707150000		0.1345	118.4733
5807100000		0.14056	118.1837
5907050000		0.15055	117.4462
6007000000		0.15543	117.4777
6106950000		0.16406	116.7438
6206900000		0.17219	115.8286
6306850000		0.17922	115.8418
6406800000		0.18801	115.0089
6506750000		0.19583	114.5723
6606700000		0.20434	113.8341
6706650000		0.21354	113.1412
6806600000		0.22143	112.731
6906550000		0.23147	111.2615
7006500000		0.23877	110.8126
7106450000		0.24579	110.3266
7206400000		0.25476	109.1443
7306350000		0.26257	108.1784
7406300000		0.27273	106.3015
!
!				Infineon Technologies AG
