! Infineon Technologies  Discrete & RF Semiconductors
! BAT15-04W-E6327
! IAC = 0.09 mA
! One-Port S-Parameters
# Hz  S  MA  R  50
!f									S11
!Hz							Mag  Ang
309850000		0.79928	-3.149
409800000		0.79999	-4.1684
509750000		0.79943	-5.2086
609700000		0.80002	-6.2665
709650000		0.80204	-7.45
809600000		0.79611	-8.5671
909550000		0.79654	-9.8047
1009500000		0.79744	-10.9056
1109450000		0.80087	-12.0523
1209400000		0.79615	-13.1669
1309350000		0.7938	-14.4292
1409300000		0.7916	-15.5907
1509250000		0.78973	-16.8197
1609200000		0.78832	-18.0162
1709150000		0.7931	-19.1451
1809100000		0.79106	-20.3943
1909050000		0.78728	-21.5989
2009000000		0.78118	-22.9398
2108950000		0.78536	-24.2165
2208900000		0.78095	-25.5587
2308850000		0.77723	-26.8124
2408800000		0.77041	-28.2023
2508750000		0.77599	-29.3921
2608700000		0.77591	-30.8546
2708650000		0.77358	-32.0738
2808600000		0.77576	-33.6503
2908550000		0.77338	-34.9469
3008500000		0.77445	-36.1476
3108450000		0.77197	-37.6924
3208400000		0.7768	-39.2462
3308350000		0.77251	-40.8941
3408300000		0.76554	-42.5195
3508250000		0.76356	-44.2042
3608200000		0.76812	-45.6496
3708150000		0.76544	-47.4593
3808100000		0.75827	-49.1392
3908050000		0.75017	-50.8534
4008000000		0.74773	-52.5158
4107950000		0.74709	-54.2562
4207900000		0.75013	-55.9368
4307850000		0.74703	-57.6602
4407800000		0.74513	-59.561
4507750000		0.73836	-61.3218
4607700000		0.73442	-63.126
4707650000		0.73211	-64.9599
4807600000		0.72151	-66.838
4907550000		0.7168	-68.7804
5007500000		0.71207	-70.8086
5107450000		0.71508	-72.7324
5207400000		0.71172	-74.876
5307350000		0.70828	-77.0488
5407300000		0.7024	-79.2707
5507250000		0.70458	-81.4881
5607200000		0.70474	-83.6378
5707150000		0.70262	-86.0743
5807100000		0.69763	-88.459
5907050000		0.69389	-90.9879
6007000000		0.69135	-93.4198
6106950000		0.68787	-95.9722
6206900000		0.68574	-98.5046
6306850000		0.68277	-101.1418
6406800000		0.67704	-103.8769
6506750000		0.67722	-106.5465
6606700000		0.67182	-109.4394
6706650000		0.66624	-112.2797
6806600000		0.66102	-115.2938
6906550000		0.66008	-118.1114
7006500000		0.66054	-121.0178
7106450000		0.65258	-124.2205
7206400000		0.64793	-127.3255
7306350000		0.64602	-130.4384
7406300000		0.64345	-133.458
!
!				Infineon Technologies AG
