! Infineon Technologies  Discrete & RF Semiconductors
! BAT15-04W-E6327
! IAC = 6 mA
! One-Port S-Parameters
# Hz  S  MA  R  50
!f									S11
!Hz							Mag  Ang
309850000		0.7002	174.2927
409800000		0.69952	172.5711
509750000		0.69889	170.8817
609700000		0.69877	169.2022
709650000		0.69831	167.596
809600000		0.69884	165.982
909550000		0.69884	164.3541
1009500000		0.69944	162.7095
1109450000		0.70002	161.2326
1209400000		0.70114	159.634
1309350000		0.70181	158.0756
1409300000		0.7028	156.5156
1509250000		0.70416	155.0664
1609200000		0.7059	153.4687
1709150000		0.70717	151.9554
1809100000		0.70817	150.4572
1909050000		0.71002	149.0368
2009000000		0.71218	147.4852
2108950000		0.71368	146.0189
2208900000		0.71448	144.6308
2308850000		0.71618	143.1309
2408800000		0.71756	141.7141
2508750000		0.71856	140.2652
2608700000		0.71971	138.8756
2708650000		0.72074	137.4356
2808600000		0.72211	136.1267
2908550000		0.7232	134.7255
3008500000		0.72459	133.4
3108450000		0.7257	132.0863
3208400000		0.72693	130.802
3308350000		0.72858	129.5349
3408300000		0.7302	128.3025
3508250000		0.73169	127.0363
3608200000		0.73385	125.7399
3708150000		0.73587	124.5352
3808100000		0.73805	123.2975
3908050000		0.7403	122.0523
4008000000		0.74287	120.8068
4107950000		0.7454	119.5436
4207900000		0.74804	118.2749
4307850000		0.7508	117.0365
4407800000		0.75348	115.8161
4507750000		0.7564	114.5924
4607700000		0.75899	113.3131
4707650000		0.76165	112.0741
4807600000		0.76371	110.8478
4907550000		0.76589	109.6619
5007500000		0.76776	108.444
5107450000		0.76958	107.2166
5207400000		0.7715	106.0579
5307350000		0.77267	104.909
5407300000		0.77432	103.7507
5507250000		0.77521	102.7267
5607200000		0.77626	101.6266
5707150000		0.77808	100.6768
5807100000		0.77922	99.597
5907050000		0.78123	98.6188
6007000000		0.78228	97.6104
6106950000		0.78422	96.6561
6206900000		0.78511	95.6836
6306850000		0.78697	94.7063
6406800000		0.78779	93.8185
6506750000		0.78943	92.8896
6606700000		0.79106	91.9878
6706650000		0.7927	91.0441
6806600000		0.79486	90.1682
6906550000		0.79641	89.2036
7006500000		0.79844	88.2083
7106450000		0.80031	87.2794
7206400000		0.80178	86.2836
7306350000		0.80321	85.2788
7406300000		0.80413	84.1806
!
!				Infineon Technologies AG
