! Infineon Technologies  Discrete & RF Semiconductors
! BAT15-04W-E6327
! VCA = 0.2 V
! One-Port S-Parameters
# Hz  S  MA  R  50
!f									S11
!Hz							Mag  Ang
309850000		1.0004	-2.9278
409800000		1.0001	-3.8723
509750000		1.0007	-4.8229
609700000		1.0005	-5.7597
709650000		1.0003	-6.7539
809600000		1.0005	-7.7163
909550000		1.0009	-8.7656
1009500000		0.99989	-9.738
1109450000		0.99975	-10.776
1209400000		1.0004	-11.8365
1309350000		0.99984	-12.9024
1409300000		0.99838	-13.9437
1509250000		0.99844	-14.9679
1609200000		0.99826	-16.0827
1709150000		0.99714	-17.2
1809100000		0.99544	-18.2633
1909050000		0.99521	-19.3015
2009000000		0.99489	-20.4434
2108950000		0.99383	-21.5781
2208900000		0.99255	-22.7126
2308850000		0.99262	-23.7447
2408800000		0.99273	-25.0057
2508750000		0.99235	-26.0628
2608700000		0.9923	-27.2847
2708650000		0.99234	-28.369
2808600000		0.99303	-29.6331
2908550000		0.99394	-30.8342
3008500000		0.99451	-32.1053
3108450000		0.99521	-33.4154
3208400000		0.99577	-34.748
3308350000		0.99557	-36.1087
3408300000		0.99575	-37.4617
3508250000		0.99656	-38.9505
3608200000		0.9958	-40.3051
3708150000		0.99491	-41.7876
3808100000		0.99354	-43.2559
3908050000		0.99239	-44.7056
4008000000		0.99116	-46.1805
4107950000		0.98898	-47.6415
4207900000		0.98662	-49.1271
4307850000		0.98413	-50.6249
4407800000		0.98201	-52.1333
4507750000		0.97968	-53.6395
4607700000		0.97802	-55.1546
4707650000		0.97518	-56.7353
4807600000		0.97333	-58.283
4907550000		0.97161	-59.8681
5007500000		0.97075	-61.4745
5107450000		0.96987	-63.0932
5207400000		0.96902	-64.7928
5307350000		0.96823	-66.5274
5407300000		0.96755	-68.2989
5507250000		0.96711	-70.2113
5607200000		0.96722	-72.0175
5707150000		0.96653	-74.0105
5807100000		0.96686	-76.0139
5907050000		0.9657	-78.1204
6007000000		0.96543	-80.2419
6106950000		0.96403	-82.4546
6206900000		0.96318	-84.6939
6306850000		0.96102	-86.9638
6406800000		0.95977	-89.3136
6506750000		0.95797	-91.662
6606700000		0.95583	-94.0953
6706650000		0.95405	-96.5174
6806600000		0.95135	-99.0532
6906550000		0.94922	-101.5447
7006500000		0.94619	-104.1276
7106450000		0.94279	-106.8059
7206400000		0.93935	-109.4694
7306350000		0.93497	-112.2729
7406300000		0.92886	-115.0196
!
!				Infineon Technologies AG
