! Infineon Technologies  Discrete & RF Semiconductors
! BAT15-04W-E6327
! VCA = 0.3 V
! One-Port S-Parameters
# Hz  S  MA  R  50
!f									S11
!Hz							Mag  Ang
309850000		1.0006	-2.9161
409800000		1.0002	-3.8127
509750000		1.0007	-4.7472
609700000		1.0005	-5.6689
709650000		1.0004	-6.6468
809600000		1.0005	-7.5967
909550000		1.001	-8.631
1009500000		0.99994	-9.5883
1109450000		0.99983	-10.6098
1209400000		1.0004	-11.6532
1309350000		0.99991	-12.7055
1409300000		0.99841	-13.7269
1509250000		0.99856	-14.7387
1609200000		0.9983	-15.8322
1709150000		0.99726	-16.9328
1809100000		0.99551	-17.9807
1909050000		0.99528	-19.002
2009000000		0.99498	-20.127
2108950000		0.99391	-21.2438
2208900000		0.99268	-22.361
2308850000		0.99264	-23.3738
2408800000		0.99282	-24.6143
2508750000		0.99241	-25.6537
2608700000		0.99239	-26.859
2708650000		0.99247	-27.9185
2808600000		0.9932	-29.162
2908550000		0.99408	-30.342
3008500000		0.9947	-31.5921
3108450000		0.99564	-32.9149
3208400000		0.99594	-34.19
3308350000		0.99582	-35.5268
3408300000		0.99598	-36.8565
3508250000		0.99677	-38.3248
3608200000		0.99606	-39.6527
3708150000		0.99521	-41.1126
3808100000		0.99386	-42.5586
3908050000		0.99279	-43.9826
4008000000		0.99162	-45.436
4107950000		0.9895	-46.8712
4207900000		0.98719	-48.3288
4307850000		0.98468	-49.8006
4407800000		0.98263	-51.2809
4507750000		0.98027	-52.7592
4607700000		0.97863	-54.2469
4707650000		0.97578	-55.7969
4807600000		0.97397	-57.3178
4907550000		0.97226	-58.8691
5007500000		0.97141	-60.4435
5107450000		0.97053	-62.0292
5207400000		0.9697	-63.693
5307350000		0.96891	-65.3922
5407300000		0.96818	-67.1287
5507250000		0.96784	-69.0035
5607200000		0.96792	-70.7688
5707150000		0.96724	-72.7216
5807100000		0.96765	-74.6868
5907050000		0.96654	-76.7508
6007000000		0.96631	-78.8326
6106950000		0.96497	-81.0013
6206900000		0.96416	-83.2021
6306850000		0.96202	-85.4291
6406800000		0.96088	-87.7369
6506750000		0.95914	-90.0456
6606700000		0.95704	-92.4368
6706650000		0.95529	-94.818
6806600000		0.95263	-97.313
6906550000		0.95054	-99.7652
7006500000		0.94758	-102.3062
7106450000		0.94419	-104.945
7206400000		0.94077	-107.568
7306350000		0.93648	-110.3328
7406300000		0.93037	-113.042
!
!				Infineon Technologies AG
