! Infineon Technologies  Discrete & RF Semiconductors
! BAT15-04W-E6327
! IAC = 0.03 mA
! One-Port S-Parameters
# Hz  S  MA  R  50
!f									S11
!Hz							Mag  Ang
309850000		0.92941	-3.2253
409800000		0.92957	-4.2515
509750000		0.92957	-5.302
609700000		0.92981	-6.3418
709650000		0.93053	-7.4653
809600000		0.92795	-8.5631
909550000		0.92823	-9.7405
1009500000		0.92839	-10.8215
1109450000		0.92971	-11.9639
1209400000		0.92806	-13.1382
1309350000		0.92674	-14.3346
1409300000		0.92487	-15.4924
1509250000		0.92418	-16.6526
1609200000		0.92333	-17.8673
1709150000		0.9249	-19.0484
1809100000		0.92297	-20.2385
1909050000		0.92138	-21.4262
2009000000		0.9186	-22.7193
2108950000		0.91969	-23.9479
2208900000		0.91703	-25.2396
2308850000		0.91554	-26.4416
2408800000		0.91246	-27.8715
2508750000		0.91478	-29.0228
2608700000		0.91474	-30.398
2708650000		0.91371	-31.6348
2808600000		0.9151	-33.061
2908550000		0.9144	-34.3789
3008500000		0.91547	-35.7256
3108450000		0.91469	-37.2417
3208400000		0.91722	-38.6611
3308350000		0.91493	-40.1943
3408300000		0.91236	-41.8273
3508250000		0.91141	-43.4196
3608200000		0.91345	-44.8871
3708150000		0.91167	-46.5607
3808100000		0.90767	-48.2511
3908050000		0.90335	-49.9323
4008000000		0.90167	-51.5724
4107950000		0.90017	-53.1957
4207900000		0.90012	-54.7866
4307850000		0.89727	-56.4647
4407800000		0.89542	-58.1673
4507750000		0.89114	-59.9121
4607700000		0.88863	-61.6377
4707650000		0.88599	-63.4054
4807600000		0.88047	-65.2689
4907550000		0.87746	-67.1143
5007500000		0.87494	-69.0041
5107450000		0.8766	-70.7562
5207400000		0.87437	-72.7523
5307350000		0.87227	-74.7763
5407300000		0.86932	-76.8735
5507250000		0.87067	-78.9451
5607200000		0.87118	-80.9572
5707150000		0.87022	-83.2115
5807100000		0.86797	-85.5271
5907050000		0.86582	-87.9166
6007000000		0.86422	-90.294
6106950000		0.86168	-92.788
6206900000		0.86034	-95.2643
6306850000		0.85782	-97.7882
6406800000		0.85442	-100.4551
6506750000		0.85351	-102.9931
6606700000		0.84967	-105.7577
6706650000		0.84608	-108.5154
6806600000		0.84164	-111.408
6906550000		0.84033	-114.0871
7006500000		0.83877	-116.8466
7106450000		0.83255	-119.9402
7206400000		0.82839	-122.8999
7306350000		0.82498	-125.9033
7406300000		0.82088	-128.7891
!
!				Infineon Technologies AG
