! Infineon Technologies  Discrete & RF Semiconductors
! BAT15-04W-E6327
! IAC = 0.07 mA
! One-Port S-Parameters
# Hz  S  MA  R  50
!f									S11
!Hz							Mag  Ang
309850000		0.84115	-3.1785
409800000		0.84172	-4.2093
509750000		0.84133	-5.2547
609700000		0.8418	-6.3098
709650000		0.84348	-7.4748
809600000		0.83847	-8.5884
909550000		0.83877	-9.8087
1009500000		0.83958	-10.9077
1109450000		0.84244	-12.0568
1209400000		0.83859	-13.1988
1309350000		0.83647	-14.4368
1409300000		0.8343	-15.602
1509250000		0.83283	-16.8088
1609200000		0.83152	-18.013
1709150000		0.83556	-19.1647
1809100000		0.83354	-20.3936
1909050000		0.83043	-21.5968
2009000000		0.82503	-22.8882
2108950000		0.82859	-24.1812
2208900000		0.82458	-25.5098
2308850000		0.82136	-26.7154
2408800000		0.81569	-28.1617
2508750000		0.82047	-29.3385
2608700000		0.8204	-30.7757
2708650000		0.81825	-31.9679
2808600000		0.82044	-33.532
2908550000		0.81862	-34.8755
3008500000		0.81974	-36.1094
3108450000		0.81735	-37.591
3208400000		0.82192	-39.1347
3308350000		0.81806	-40.7253
3408300000		0.81238	-42.3773
3508250000		0.81073	-44.0428
3608200000		0.81474	-45.4886
3708150000		0.81231	-47.2501
3808100000		0.80595	-48.9406
3908050000		0.79888	-50.6482
4008000000		0.79675	-52.3039
4107950000		0.79588	-54.0051
4207900000		0.79807	-55.6535
4307850000		0.79508	-57.362
4407800000		0.7933	-59.1913
4507750000		0.78718	-60.954
4607700000		0.78371	-62.7316
4707650000		0.78135	-64.5454
4807600000		0.77217	-66.4241
4907550000		0.76787	-68.3367
5007500000		0.76382	-70.3185
5107450000		0.76679	-72.1793
5207400000		0.76359	-74.2738
5307350000		0.76045	-76.3929
5407300000		0.7554	-78.5712
5507250000		0.75764	-80.7394
5607200000		0.75801	-82.8393
5707150000		0.75637	-85.2048
5807100000		0.75211	-87.5692
5907050000		0.74894	-90.0491
6007000000		0.74655	-92.4617
6106950000		0.74335	-94.993
6206900000		0.7415	-97.51
6306850000		0.73868	-100.1049
6406800000		0.73358	-102.8161
6506750000		0.73356	-105.4364
6606700000		0.72854	-108.2832
6706650000		0.72345	-111.0955
6806600000		0.71831	-114.0699
6906550000		0.71739	-116.8409
7006500000		0.71728	-119.6905
7106450000		0.70954	-122.8536
7206400000		0.70499	-125.9006
7306350000		0.70263	-128.977
7406300000		0.69984	-131.9419
!
!				Infineon Technologies AG
