! Infineon Technologies  Discrete & RF Semiconductors
! BAT15-04W-E6327
! IAC = 4 mA
! One-Port S-Parameters
# Hz  S  MA  R  50
!f									S11
!Hz							Mag  Ang
309850000		0.63463	174.2183
409800000		0.63425	172.4814
509750000		0.63376	170.7801
609700000		0.63388	169.0825
709650000		0.63344	167.5011
809600000		0.63401	165.8787
909550000		0.63443	164.2118
1009500000		0.6354	162.5549
1109450000		0.63627	161.0699
1209400000		0.63756	159.4624
1309350000		0.63839	157.8883
1409300000		0.6396	156.323
1509250000		0.64128	154.8661
1609200000		0.64321	153.2616
1709150000		0.64493	151.738
1809100000		0.64616	150.2386
1909050000		0.64828	148.8166
2009000000		0.65069	147.2393
2108950000		0.65251	145.7992
2208900000		0.65374	144.3547
2308850000		0.65548	142.9178
2408800000		0.65715	141.5035
2508750000		0.65868	140.0211
2608700000		0.66002	138.6733
2708650000		0.6615	137.2311
2808600000		0.66342	135.9285
2908550000		0.66486	134.5274
3008500000		0.66677	133.1863
3108450000		0.66835	131.8774
3208400000		0.6701	130.5944
3308350000		0.67202	129.3303
3408300000		0.67387	128.1343
3508250000		0.67589	126.8367
3608200000		0.67857	125.5357
3708150000		0.68083	124.3372
3808100000		0.6833	123.102
3908050000		0.68569	121.8583
4008000000		0.68871	120.6169
4107950000		0.69154	119.3567
4207900000		0.69449	118.0964
4307850000		0.69755	116.8637
4407800000		0.70063	115.6514
4507750000		0.70376	114.4386
4607700000		0.70672	113.1674
4707650000		0.70981	111.9433
4807600000		0.71214	110.7289
4907550000		0.71473	109.5559
5007500000		0.71711	108.3517
5107450000		0.71948	107.1354
5207400000		0.72184	105.9892
5307350000		0.7234	104.8527
5407300000		0.72568	103.7076
5507250000		0.72718	102.6965
5607200000		0.72875	101.6052
5707150000		0.73115	100.6663
5807100000		0.73274	99.5922
5907050000		0.73532	98.6236
6007000000		0.73673	97.6215
6106950000		0.7392	96.6736
6206900000		0.74057	95.706
6306850000		0.74278	94.7409
6406800000		0.74409	93.8589
6506750000		0.74615	92.9365
6606700000		0.74819	92.0422
6706650000		0.75016	91.1106
6806600000		0.75266	90.2389
6906550000		0.75462	89.2803
7006500000		0.75703	88.291
7106450000		0.75923	87.3731
7206400000		0.76108	86.3838
7306350000		0.76296	85.3817
7406300000		0.76429	84.2862
!
!				Infineon Technologies AG
