! Infineon Technologies  Discrete & RF Semiconductors
! BAT15-04W-E6327
! IAC = 2 mA
! One-Port S-Parameters
# Hz  S  MA  R  50
!f									S11
!Hz							Mag  Ang
309850000		0.456	173.856
409800000		0.45654	172.0294
509750000		0.45655	170.2722
609700000		0.45745	168.4555
709650000		0.457	166.8537
809600000		0.45763	165.1589
909550000		0.45847	163.5451
1009500000		0.46058	161.8387
1109450000		0.46211	160.3161
1209400000		0.46388	158.6452
1309350000		0.46498	157.0429
1409300000		0.46661	155.4399
1509250000		0.46913	153.9728
1609200000		0.47156	152.3284
1709150000		0.47461	150.7255
1809100000		0.4766	149.2297
1909050000		0.47951	147.7991
2009000000		0.48193	146.2597
2108950000		0.48481	144.7989
2208900000		0.48624	143.404
2308850000		0.48905	141.9495
2408800000		0.49074	140.5458
2508750000		0.49306	139.0696
2608700000		0.49525	137.7636
2708650000		0.49765	136.3183
2808600000		0.50079	135.0998
2908550000		0.50296	133.6991
3008500000		0.50651	132.2971
3108450000		0.50889	131.0093
3208400000		0.51221	129.7544
3308350000		0.51473	128.5309
3408300000		0.51769	127.3276
3508250000		0.52023	126.0814
3608200000		0.5247	124.7853
3708150000		0.52749	123.6544
3808100000		0.53033	122.4111
3908050000		0.5331	121.1814
4008000000		0.53729	119.9714
4107950000		0.54086	118.7525
4207900000		0.54474	117.5226
4307850000		0.5487	116.3254
4407800000		0.55263	115.1655
4507750000		0.55628	114.0049
4607700000		0.5604	112.7732
4707650000		0.56446	111.6096
4807600000		0.5677	110.4471
4907550000		0.57107	109.3373
5007500000		0.57451	108.1896
5107450000		0.57887	107.0282
5207400000		0.58201	105.9402
5307350000		0.58445	104.8641
5407300000		0.58814	103.767
5507250000		0.59152	102.8182
5607200000		0.5949	101.7718
5707150000		0.59887	100.887
5807100000		0.60138	99.8484
5907050000		0.60555	98.918
6007000000		0.60783	97.9563
6106950000		0.61167	97.0515
6206900000		0.61434	96.1223
6306850000		0.61749	95.2032
6406800000		0.62001	94.3579
6506750000		0.62332	93.4755
6606700000		0.62652	92.6119
6706650000		0.62953	91.724
6806600000		0.63281	90.8989
6906550000		0.63614	89.9722
7006500000		0.63956	89.0168
7106450000		0.64241	88.1461
7206400000		0.64546	87.1858
7306350000		0.64854	86.2104
7406300000		0.65154	85.1213
!
!				Infineon Technologies AG
