! Infineon Technologies  Discrete & RF Semiconductors
! BAT62
! VCA = 8 V
! One-Port S-Parameters
# Hz  S  MA  R  50
!f									S11
!Hz							Mag  Ang
309850000		0.99742	-3.9633
409800000		0.99724	-5.2741
509750000		0.9968	-6.5552
609700000		0.99695	-7.8965
709650000		0.99672	-9.1776
809600000		0.99617	-10.4602
909550000		0.99643	-11.8438
1009500000		0.9963	-13.2057
1109450000		0.99572	-14.5186
1209400000		0.99585	-15.8225
1309350000		0.99512	-17.2223
1409300000		0.99419	-18.5505
1509250000		0.99273	-19.8678
1609200000		0.99318	-21.2005
1709150000		0.99086	-22.6074
1809100000		0.9883	-23.9663
1909050000		0.98692	-25.2235
2009000000		0.98695	-26.5768
2108950000		0.98484	-27.9854
2208900000		0.9827	-29.2426
2308850000		0.98169	-30.5398
2408800000		0.98203	-31.8411
2508750000		0.9813	-33.2925
2608700000		0.98047	-34.6371
2708650000		0.97995	-36.0524
2808600000		0.98043	-37.4596
2908550000		0.98076	-38.892
3008500000		0.98049	-40.3497
3108450000		0.98021	-41.9165
3208400000		0.98026	-43.453
3308350000		0.9796	-45.0478
3408300000		0.97893	-46.6136
3508250000		0.97813	-48.2862
3608200000		0.97716	-49.9486
3708150000		0.97545	-51.6776
3808100000		0.97321	-53.3483
3908050000		0.97129	-55.0721
4008000000		0.96917	-56.8049
4107950000		0.96726	-58.6269
4207900000		0.96439	-60.3283
4307850000		0.96151	-62.0899
4407800000		0.95857	-63.9094
4507750000		0.95631	-65.6634
4607700000		0.9533	-67.5345
4707650000		0.95109	-69.3118
4807600000		0.94785	-71.1256
4907550000		0.94595	-73.0016
5007500000		0.94421	-74.8989
5107450000		0.94294	-76.8406
5207400000		0.94156	-78.7429
5307350000		0.93983	-80.7733
5407300000		0.93856	-82.8255
5507250000		0.93717	-84.8313
5607200000		0.93614	-86.964
5707150000		0.9351	-89.0164
5807100000		0.93382	-91.1547
5907050000		0.93281	-93.2997
6007000000		0.93152	-95.563
6106950000		0.9299	-97.7463
6206900000		0.9275	-100.0534
6306850000		0.92613	-102.2347
6406800000		0.92377	-104.5125
6506750000		0.92201	-106.7304
6606700000		0.92028	-108.9584
6706650000		0.91689	-111.1923
6806600000		0.91479	-113.4051
6906550000		0.91222	-115.6079
7006500000		0.91044	-117.7841
7106450000		0.90871	-119.9497
7206400000		0.90583	-122.1342
7306350000		0.90369	-124.3084
7406300000		0.90108	-126.61
7506250000		0.90007	-128.7124
7606200000		0.89665	-130.8842
7706150000		0.89507	-133.0283
7806100000		0.89186	-135.2288
7906050000		0.88876	-137.3535
8006000000		0.88559	-139.5673
8105950000		0.88037	-141.6235
8205900000		0.87531	-143.8175
8305850000		0.87055	-145.8658
8405800000		0.86749	-147.8125
8505750000		0.86455	-149.6701
8605700000		0.86311	-151.5559
8705650000		0.86315	-153.6169
8805600000		0.86307	-155.7362
8905550000		0.86326	-158.0257
9005500000		0.8623	-160.3003
9105450000		0.86095	-162.6397
9205400000		0.85809	-165.127
9305350000		0.85567	-167.4835
9405300000		0.85232	-169.8676
9505250000		0.84935	-172.3046
9605200000		0.84798	-174.7057
9705150000		0.84493	-177.4823
9805100000		0.84248	179.8104
9905050000		0.84024	176.9129
10005000000		0.83537	174.1501
10104950000		0.83313	171.0235
10204900000		0.82826	168.0739
10304850000		0.82614	164.8426
10404800000		0.82095	161.66
10504750000		0.81669	158.4608
10604700000		0.81004	155.0649
10704650000		0.80408	151.7637
10804600000		0.79832	148.4289
!
!				Infineon Technologies AG
