! Infineon Technologies  Discrete & RF Semiconductors
! BAT62
! IAC = 4 mA
! One-Port S-Parameters
# Hz  S  MA  R  50
!f									S11
!Hz							Mag  Ang
309850000		0.63016	-4.7312
409800000		0.62921	-6.1499
509750000		0.62767	-7.5746
609700000		0.62658	-9.0361
709650000		0.62516	-10.4726
809600000		0.62375	-11.8999
909550000		0.62232	-13.4302
1009500000		0.62108	-14.9149
1109450000		0.61919	-16.3625
1209400000		0.61786	-17.8036
1309350000		0.6158	-19.3296
1409300000		0.61351	-20.7626
1509250000		0.61071	-22.2048
1609200000		0.60896	-23.6623
1709150000		0.60546	-25.2049
1809100000		0.60191	-26.6903
1909050000		0.59902	-28.0872
2009000000		0.59665	-29.5685
2108950000		0.59302	-31.1331
2208900000		0.58907	-32.5231
2308850000		0.58591	-34.0069
2408800000		0.58273	-35.3877
2508750000		0.57964	-37.0235
2608700000		0.57584	-38.4774
2708650000		0.57238	-40.0429
2808600000		0.56911	-41.6354
2908550000		0.56638	-43.2165
3008500000		0.5618	-44.798
3108450000		0.55816	-46.4895
3208400000		0.55413	-48.1675
3308350000		0.54994	-49.9169
3408300000		0.54547	-51.6165
3508250000		0.54148	-53.4249
3608200000		0.53674	-55.2431
3708150000		0.53182	-57.0784
3808100000		0.52658	-58.8774
3908050000		0.5218	-60.807
4008000000		0.5166	-62.6469
4107950000		0.51184	-64.6329
4207900000		0.50652	-66.4937
4307850000		0.50112	-68.4495
4407800000		0.49591	-70.4686
4507750000		0.49093	-72.4419
4607700000		0.48527	-74.5389
4707650000		0.48043	-76.6073
4807600000		0.47496	-78.6944
4907550000		0.47033	-80.8593
5007500000		0.46581	-83.0516
5107450000		0.4615	-85.2897
5207400000		0.45699	-87.5193
5307350000		0.45267	-89.8726
5407300000		0.44887	-92.2343
5507250000		0.44481	-94.5458
5607200000		0.44097	-97.0204
5707150000		0.43791	-99.3981
5807100000		0.43418	-101.8578
5907050000		0.43081	-104.3098
6007000000		0.42742	-106.9068
6106950000		0.42429	-109.3804
6206900000		0.42168	-112.047
6306850000		0.41933	-114.4651
6406800000		0.41679	-117.0682
6506750000		0.41495	-119.591
6606700000		0.41306	-122.0703
6706650000		0.41077	-124.5937
6806600000		0.40943	-127.0684
6906550000		0.40766	-129.536
7006500000		0.4061	-132.0188
7106450000		0.40473	-134.4454
7206400000		0.40281	-136.9433
7306350000		0.40152	-139.31
7406300000		0.39982	-141.9093
7506250000		0.3992	-144.1531
7606200000		0.39706	-146.6185
7706150000		0.39559	-148.8562
7806100000		0.39403	-151.2937
7906050000		0.39139	-153.4611
8006000000		0.39008	-155.8701
8105950000		0.38695	-157.9854
8205900000		0.38518	-160.3306
8305850000		0.38298	-162.485
8405800000		0.38222	-164.6145
8505750000		0.38076	-166.6722
8605700000		0.37992	-168.8345
8705650000		0.37969	-171.2039
8805600000		0.37834	-173.6443
8905550000		0.37777	-176.3245
9005500000		0.37633	-178.913
9105450000		0.37429	178.3544
9205400000		0.37235	175.5769
9305350000		0.36936	172.971
9405300000		0.36641	170.3074
9505250000		0.36466	167.6326
9605200000		0.36392	164.9582
9705150000		0.3626	161.6676
9805100000		0.36131	158.5742
9905050000		0.36121	155.2737
10005000000		0.35861	151.9953
10104950000		0.36068	148.3982
10204900000		0.35933	144.9705
10304850000		0.36151	141.4569
10404800000		0.36124	137.745
10504750000		0.36272	134.3187
10604700000		0.36385	130.4661
10704650000		0.36553	127.0965
10804600000		0.3682	123.4791
!
!				Infineon Technologies AG
