! Infineon Technologies  Discrete & RF Semiconductors
! BAT62
! IAC = 0.1 mA
! One-Port S-Parameters
# Hz  S  MA  R  50
!f									S11
!Hz							Mag  Ang
309850000		0.82192	-4.7434
409800000		0.82187	-6.2649
509750000		0.82035	-7.7952
609700000		0.82031	-9.391
709650000		0.82055	-10.9818
809600000		0.81656	-12.5059
909550000		0.81565	-14.1849
1009500000		0.81569	-15.8048
1109450000		0.81573	-17.399
1209400000		0.81271	-18.9227
1309350000		0.80983	-20.5719
1409300000		0.80708	-22.1328
1509250000		0.80365	-23.6858
1609200000		0.80183	-25.2676
1709150000		0.80128	-26.9746
1809100000		0.79691	-28.5873
1909050000		0.79284	-30.0719
2009000000		0.78853	-31.6366
2108950000		0.78672	-33.3853
2208900000		0.78133	-34.873
2308850000		0.77705	-36.4098
2408800000		0.77249	-37.9218
2508750000		0.7718	-39.7144
2608700000		0.76836	-41.3555
2708650000		0.76454	-43.0196
2808600000		0.76197	-44.7273
2908550000		0.75893	-46.4338
3008500000		0.75565	-48.0931
3108450000		0.75164	-49.9466
3208400000		0.74955	-51.8428
3308350000		0.74428	-53.6952
3408300000		0.73817	-55.4575
3508250000		0.73356	-57.3691
3608200000		0.73057	-59.4104
3708150000		0.72505	-61.3717
3808100000		0.71823	-63.2477
3908050000		0.71163	-65.1659
4008000000		0.70608	-67.1701
4107950000		0.70127	-69.2789
4207900000		0.69655	-71.3419
4307850000		0.69062	-73.3878
4407800000		0.6848	-75.5004
4507750000		0.67867	-77.5002
4607700000		0.67222	-79.6548
4707650000		0.66727	-81.7688
4807600000		0.66002	-83.8058
4907550000		0.65477	-85.979
5007500000		0.64947	-88.1715
5107450000		0.64584	-90.5051
5207400000		0.64086	-92.7474
5307350000		0.63575	-95.0804
5407300000		0.63109	-97.4078
5507250000		0.62726	-99.7763
5607200000		0.6233	-102.2578
5707150000		0.61959	-104.6096
5807100000		0.61479	-107.0128
5907050000		0.61079	-109.4286
6007000000		0.60666	-111.9663
6106950000		0.60263	-114.3943
6206900000		0.59899	-116.9523
6306850000		0.59567	-119.3577
6406800000		0.59174	-121.8376
6506750000		0.58891	-124.287
6606700000		0.58559	-126.6909
6706650000		0.58173	-129.0942
6806600000		0.57876	-131.466
6906550000		0.57595	-133.8682
7006500000		0.57365	-136.2769
7106450000		0.57072	-138.5883
7206400000		0.56731	-140.9588
7306350000		0.56488	-143.2937
7406300000		0.56223	-145.8085
7506250000		0.56023	-148.0218
7606200000		0.5567	-150.3703
7706150000		0.55371	-152.5988
7806100000		0.55084	-154.9803
7906050000		0.5465	-157.1733
8006000000		0.54382	-159.5212
8105950000		0.53898	-161.6606
8205900000		0.53531	-163.9189
8305850000		0.53128	-166.0243
8405800000		0.52907	-168.0724
8505750000		0.52638	-170.0568
8605700000		0.5247	-172.1308
8705650000		0.52395	-174.381
8805600000		0.52242	-176.7647
8905550000		0.52151	-179.3119
9005500000		0.51931	178.2154
9105450000		0.5167	175.607
9205400000		0.51366	172.9533
9305350000		0.51001	170.3653
9405300000		0.50574	167.819
9505250000		0.50303	165.2044
9605200000		0.50095	162.6824
9705150000		0.49864	159.6365
9805100000		0.49651	156.6822
9905050000		0.49552	153.5843
10005000000		0.49181	150.5027
10104950000		0.49239	147.2532
10204900000		0.48972	144.0431
10304850000		0.49058	140.7277
10404800000		0.48894	137.3042
10504750000		0.48861	134.0551
10604700000		0.48795	130.5078
10704650000		0.48724	127.2972
10804600000		0.48789	123.9444
!
!				Infineon Technologies AG
