! Infineon Technologies  Discrete & RF Semiconductors
! BAT62
! VCA = 0.5 V
! One-Port S-Parameters
# Hz  S  MA  R  50
!f									S11
!Hz							Mag  Ang
309850000		0.99727	-4.5824
409800000		0.99704	-6.0684
509750000		0.99634	-7.5334
609700000		0.99604	-9.0724
709650000		0.99555	-10.5501
809600000		0.99483	-12.0257
909550000		0.99475	-13.6002
1009500000		0.99405	-15.1535
1109450000		0.99291	-16.6659
1209400000		0.99267	-18.1715
1309350000		0.99133	-19.7657
1409300000		0.98971	-21.287
1509250000		0.98758	-22.8028
1609200000		0.98722	-24.3401
1709150000		0.98418	-25.9524
1809100000		0.98098	-27.511
1909050000		0.97879	-28.9676
2009000000		0.97784	-30.5251
2108950000		0.97493	-32.1426
2208900000		0.97181	-33.6141
2308850000		0.96989	-35.1207
2408800000		0.96918	-36.6408
2508750000		0.96737	-38.3109
2608700000		0.96543	-39.8805
2708650000		0.96371	-41.5207
2808600000		0.96266	-43.1316
2908550000		0.96165	-44.7871
3008500000		0.96002	-46.5286
3108450000		0.9584	-48.3313
3208400000		0.95656	-50.0849
3308350000		0.95453	-51.9516
3408300000		0.95194	-53.7646
3508250000		0.94941	-55.6768
3608200000		0.94662	-57.6268
3708150000		0.94293	-59.5671
3808100000		0.9387	-61.4852
3908050000		0.93486	-63.453
4008000000		0.9307	-65.4331
4107950000		0.92683	-67.5027
4207900000		0.92202	-69.4556
4307850000		0.91715	-71.4672
4407800000		0.91226	-73.5346
4507750000		0.90803	-75.5411
4607700000		0.90293	-77.6754
4707650000		0.89892	-79.7164
4807600000		0.89394	-81.7909
4907550000		0.89011	-83.9281
5007500000		0.8864	-86.0904
5107450000		0.88304	-88.3066
5207400000		0.87958	-90.4919
5307350000		0.87576	-92.7862
5407300000		0.87238	-95.0938
5507250000		0.86886	-97.3676
5607200000		0.86548	-99.7677
5707150000		0.86238	-102.0668
5807100000		0.85869	-104.4655
5907050000		0.85539	-106.8536
6007000000		0.85164	-109.3606
6106950000		0.84767	-111.7663
6206900000		0.84347	-114.2753
6306850000		0.8398	-116.6588
6406800000		0.83549	-119.1269
6506750000		0.83179	-121.527
6606700000		0.82813	-123.925
6706650000		0.82313	-126.3139
6806600000		0.8194	-128.6818
6906550000		0.8152	-131.0354
7006500000		0.81183	-133.3798
7106450000		0.80849	-135.6936
7206400000		0.80419	-138.0404
7306350000		0.8004	-140.3433
7406300000		0.79638	-142.8043
7506250000		0.79356	-145.0263
7606200000		0.78893	-147.3517
7706150000		0.78517	-149.6222
7806100000		0.78062	-151.9608
7906050000		0.77533	-154.2192
8006000000		0.77067	-156.5399
8105950000		0.76381	-158.7037
8205900000		0.75779	-160.9655
8305850000		0.75175	-163.0925
8405800000		0.74784	-165.1192
8505750000		0.74395	-167.0882
8605700000		0.74142	-169.107
8705650000		0.74016	-171.3057
8805600000		0.73821	-173.6123
8905550000		0.73693	-176.0743
9005500000		0.73445	-178.5104
9105450000		0.73145	178.9543
9205400000		0.72741	176.3335
9305350000		0.72283	173.7958
9405300000		0.71773	171.2522
9505250000		0.71352	168.688
9605200000		0.71081	166.1629
9705150000		0.70693	163.2311
9805100000		0.70337	160.3732
9905050000		0.70035	157.3775
10005000000		0.69499	154.4318
10104950000		0.69329	151.2803
10204900000		0.68834	148.1943
10304850000		0.6865	144.9727
10404800000		0.68203	141.6951
10504750000		0.67871	138.5227
10604700000		0.67408	135.1301
10704650000		0.6696	131.9454
10804600000		0.66628	128.6926
!
!				Infineon Technologies AG
