! Infineon Technologies  Discrete & RF Semiconductors
! BAT62
! VCA = 7 V
! One-Port S-Parameters
# Hz  S  MA  R  50
!f									S11
!Hz							Mag  Ang
309850000		0.9974	-3.991
409800000		0.99727	-5.3048
509750000		0.99686	-6.5908
609700000		0.99669	-7.9102
709650000		0.9967	-9.2297
809600000		0.99624	-10.517
909550000		0.99651	-11.9075
1009500000		0.99627	-13.2763
1109450000		0.99566	-14.5985
1209400000		0.99586	-15.911
1309350000		0.99509	-17.3155
1409300000		0.99417	-18.6478
1509250000		0.99271	-19.9761
1609200000		0.99283	-21.2838
1709150000		0.99073	-22.732
1809100000		0.98824	-24.0991
1909050000		0.98681	-25.359
2009000000		0.9868	-26.7175
2108950000		0.98469	-28.1394
2208900000		0.98253	-29.4013
2308850000		0.98133	-30.6734
2408800000		0.9818	-32.0168
2508750000		0.98099	-33.4789
2608700000		0.98002	-34.7953
2708650000		0.97977	-36.2545
2808600000		0.97996	-37.6367
2908550000		0.98042	-39.1133
3008500000		0.98013	-40.5783
3108450000		0.97999	-42.1547
3208400000		0.97968	-43.6706
3308350000		0.97916	-45.306
3408300000		0.97844	-46.8794
3508250000		0.97768	-48.5622
3608200000		0.97664	-50.2352
3708150000		0.97484	-51.9744
3808100000		0.97258	-53.6538
3908050000		0.97056	-55.389
4008000000		0.96848	-57.1319
4107950000		0.96652	-58.9613
4207900000		0.96355	-60.6732
4307850000		0.96046	-62.4151
4407800000		0.95771	-64.2787
4507750000		0.95532	-66.0409
4607700000		0.95226	-67.9221
4707650000		0.95004	-69.7123
4807600000		0.94673	-71.5362
4907550000		0.94492	-73.4202
5007500000		0.94315	-75.3315
5107450000		0.94177	-77.2845
5207400000		0.94041	-79.2023
5307350000		0.93864	-81.2389
5407300000		0.93733	-83.3033
5507250000		0.93584	-85.3248
5607200000		0.93478	-87.4674
5707150000		0.93373	-89.5302
5807100000		0.93233	-91.6831
5907050000		0.93126	-93.8391
6007000000		0.92993	-96.1154
6106950000		0.9283	-98.3087
6206900000		0.9258	-100.6258
6306850000		0.92439	-102.8169
6406800000		0.92203	-105.1068
6506750000		0.92021	-107.3357
6606700000		0.91836	-109.5687
6706650000		0.91497	-111.8115
6806600000		0.91284	-114.0387
6906550000		0.91018	-116.25
7006500000		0.90833	-118.432
7106450000		0.90654	-120.6047
7206400000		0.90368	-122.8037
7306350000		0.90146	-124.9846
7406300000		0.89881	-127.2948
7506250000		0.89775	-129.407
7606200000		0.89436	-131.5846
7706150000		0.8926	-133.7365
7806100000		0.88934	-135.946
7906050000		0.88626	-138.0816
8006000000		0.88301	-140.3041
8105950000		0.87765	-142.3664
8205900000		0.87258	-144.5659
8305850000		0.8678	-146.6225
8405800000		0.8647	-148.5756
8505750000		0.86167	-150.4416
8605700000		0.86024	-152.3355
8705650000		0.86026	-154.407
8805600000		0.86009	-156.5373
8905550000		0.86021	-158.8369
9005500000		0.8592	-161.1224
9105450000		0.85782	-163.4709
9205400000		0.85488	-165.9715
9305350000		0.85239	-168.3393
9405300000		0.84899	-170.733
9505250000		0.84598	-173.1797
9605200000		0.84449	-175.5917
9705150000		0.84143	-178.38
9805100000		0.83892	178.9024
9905050000		0.83663	175.9948
10005000000		0.83173	173.2201
10104950000		0.82944	170.0897
10204900000		0.82451	167.1264
10304850000		0.82236	163.8912
10404800000		0.81725	160.7002
10504750000		0.81297	157.4975
10604700000		0.80634	154.0978
10704650000		0.80046	150.7959
10804600000		0.79471	147.462
!
!				Infineon Technologies AG
