! Infineon Technologies  Discrete & RF Semiconductors
! BAT62
! IAC = 0.5 mA
! One-Port S-Parameters
# Hz  S  MA  R  50
!f									S11
!Hz							Mag  Ang
309850000		0.63236	-4.1604
409800000		0.63205	-5.4995
509750000		0.63112	-6.8342
609700000		0.63075	-8.2052
709650000		0.63016	-9.5681
809600000		0.62898	-10.9031
909550000		0.62814	-12.3608
1009500000		0.62763	-13.7695
1109450000		0.62658	-15.1401
1209400000		0.62572	-16.4974
1309350000		0.62424	-17.9446
1409300000		0.62257	-19.3017
1509250000		0.62046	-20.6622
1609200000		0.61946	-22.0454
1709150000		0.61708	-23.5224
1809100000		0.61428	-24.9378
1909050000		0.61209	-26.2664
2009000000		0.61034	-27.6761
2108950000		0.60776	-29.1917
2208900000		0.60449	-30.5121
2308850000		0.60194	-31.8913
2408800000		0.59976	-33.2665
2508750000		0.59772	-34.8236
2608700000		0.595	-36.2625
2708650000		0.59236	-37.7629
2808600000		0.58982	-39.2404
2908550000		0.58806	-40.802
3008500000		0.58475	-42.2992
3108450000		0.5821	-43.9691
3208400000		0.57915	-45.5791
3308350000		0.57581	-47.2778
3408300000		0.57199	-48.9107
3508250000		0.56892	-50.6656
3608200000		0.56534	-52.4312
3708150000		0.56148	-54.2432
3808100000		0.55699	-55.9917
3908050000		0.55282	-57.8259
4008000000		0.54869	-59.6587
4107950000		0.54495	-61.6353
4207900000		0.54049	-63.4537
4307850000		0.53587	-65.3621
4407800000		0.53147	-67.3443
4507750000		0.5273	-69.2646
4607700000		0.52248	-71.3341
4707650000		0.5183	-73.3205
4807600000		0.51341	-75.3346
4907550000		0.50946	-77.4442
5007500000		0.5056	-79.5809
5107450000		0.50213	-81.7858
5207400000		0.4983	-83.9656
5307350000		0.49453	-86.2571
5407300000		0.49128	-88.5646
5507250000		0.48801	-90.8422
5607200000		0.48479	-93.2674
5707150000		0.48215	-95.6032
5807100000		0.4789	-98.005
5907050000		0.47612	-100.4063
6007000000		0.47319	-102.9433
6106950000		0.47051	-105.37
6206900000		0.46822	-107.9854
6306850000		0.46632	-110.3938
6406800000		0.46403	-112.9396
6506750000		0.46246	-115.4194
6606700000		0.46086	-117.8947
6706650000		0.45881	-120.382
6806600000		0.45756	-122.8387
6906550000		0.45612	-125.2918
7006500000		0.45493	-127.7495
7106450000		0.45376	-130.1476
7206400000		0.45194	-132.6105
7306350000		0.45093	-134.9854
7406300000		0.44942	-137.5654
7506250000		0.44905	-139.8282
7606200000		0.44706	-142.261
7706150000		0.44587	-144.5218
7806100000		0.44432	-146.9442
7906050000		0.4419	-149.1612
8006000000		0.4406	-151.5556
8105950000		0.43768	-153.7223
8205900000		0.43581	-156.0751
8305850000		0.43358	-158.2432
8405800000		0.4328	-160.3818
8505750000		0.43147	-162.4381
8605700000		0.43076	-164.5905
8705650000		0.43079	-166.9329
8805600000		0.42973	-169.3512
8905550000		0.42932	-171.9945
9005500000		0.42805	-174.5486
9105450000		0.42608	-177.2278
9205400000		0.42411	-179.9798
9305350000		0.42132	177.4275
9405300000		0.41827	174.8232
9505250000		0.41652	172.1311
9605200000		0.41564	169.4813
9705150000		0.41411	166.2682
9805100000		0.41261	163.2152
9905050000		0.41234	159.9602
10005000000		0.4093	156.7604
10104950000		0.41085	153.2328
10204900000		0.40887	149.8915
10304850000		0.41061	146.3617
10404800000		0.40971	142.746
10504750000		0.41061	139.2876
10604700000		0.41096	135.4813
10704650000		0.4118	132.0824
10804600000		0.41363	128.4981
!
!				Infineon Technologies AG
