! Infineon Technologies  Discrete & RF Semiconductors
! BAT62
! IAC = 1 mA
! One-Port S-Parameters
# Hz  S  MA  R  50
!f									S11
!Hz							Mag  Ang
309850000		0.59015	-4.0976
409800000		0.58977	-5.4095
509750000		0.58886	-6.7204
609700000		0.5884	-8.0679
709650000		0.58762	-9.3998
809600000		0.58673	-10.711
909550000		0.58586	-12.1384
1009500000		0.58524	-13.5199
1109450000		0.58399	-14.8636
1209400000		0.58335	-16.1979
1309350000		0.58193	-17.6168
1409300000		0.58037	-18.946
1509250000		0.57831	-20.289
1609200000		0.57728	-21.6431
1709150000		0.57464	-23.0945
1809100000		0.57192	-24.4858
1909050000		0.56984	-25.7928
2009000000		0.5682	-27.1763
2108950000		0.5654	-28.6625
2208900000		0.56243	-29.9939
2308850000		0.55987	-31.3211
2408800000		0.55791	-32.707
2508750000		0.5554	-34.1967
2608700000		0.55255	-35.6032
2708650000		0.54994	-37.0862
2808600000		0.54732	-38.5655
2908550000		0.54549	-40.0718
3008500000		0.54191	-41.5564
3108450000		0.53927	-43.2054
3208400000		0.53596	-44.7793
3308350000		0.5327	-46.45
3408300000		0.52904	-48.0641
3508250000		0.52584	-49.7651
3608200000		0.52209	-51.5258
3708150000		0.51834	-53.3463
3808100000		0.51386	-55.0436
3908050000		0.50998	-56.9003
4008000000		0.5057	-58.6736
4107950000		0.50174	-60.6044
4207900000		0.49723	-62.4184
4307850000		0.49268	-64.3156
4407800000		0.48829	-66.2805
4507750000		0.48419	-68.1907
4607700000		0.47927	-70.2294
4707650000		0.47523	-72.2429
4807600000		0.47051	-74.2664
4907550000		0.46657	-76.3796
5007500000		0.46273	-78.523
5107450000		0.45906	-80.7234
5207400000		0.45518	-82.9051
5307350000		0.45146	-85.2113
5407300000		0.44827	-87.5352
5507250000		0.44494	-89.8424
5607200000		0.44152	-92.2542
5707150000		0.43896	-94.6077
5807100000		0.43574	-97.0375
5907050000		0.43312	-99.4833
6007000000		0.43022	-102.0486
6106950000		0.42755	-104.4706
6206900000		0.42535	-107.1279
6306850000		0.4235	-109.5489
6406800000		0.42142	-112.1413
6506750000		0.41991	-114.642
6606700000		0.41853	-117.1557
6706650000		0.41671	-119.6787
6806600000		0.41574	-122.1739
6906550000		0.41444	-124.6528
7006500000		0.41334	-127.1386
7106450000		0.41244	-129.5739
7206400000		0.4109	-132.077
7306350000		0.41005	-134.469
7406300000		0.40868	-137.0862
7506250000		0.40856	-139.3573
7606200000		0.4068	-141.8291
7706150000		0.40586	-144.0929
7806100000		0.40457	-146.5676
7906050000		0.40249	-148.7538
8006000000		0.40147	-151.1981
8105950000		0.39881	-153.3401
8205900000		0.39741	-155.7496
8305850000		0.3955	-157.9042
8405800000		0.39503	-160.0695
8505750000		0.39392	-162.1526
8605700000		0.39339	-164.3329
8705650000		0.39356	-166.7365
8805600000		0.39243	-169.1535
8905550000		0.39208	-171.8432
9005500000		0.39092	-174.4289
9105450000		0.3891	-177.1514
9205400000		0.38736	-179.941
9305350000		0.38465	177.4517
9405300000		0.38191	174.8216
9505250000		0.38038	172.0952
9605200000		0.37986	169.4024
9705150000		0.37846	166.1164
9805100000		0.37723	163.0148
9905050000		0.37711	159.6963
10005000000		0.37441	156.428
10104950000		0.37634	152.8069
10204900000		0.37481	149.3662
10304850000		0.37682	145.8021
10404800000		0.37639	142.0837
10504750000		0.37767	138.5943
10604700000		0.37845	134.7027
10704650000		0.37999	131.2661
10804600000		0.38243	127.5858
!
!				Infineon Technologies AG
