! Infineon Technologies  Discrete & RF Semiconductors
! BAT62
! IAC = 0.6 mA
! One-Port S-Parameters
# Hz  S  MA  R  50
!f									S11
!Hz							Mag  Ang
309850000		0.61838	-4.1289
409800000		0.61803	-5.4606
509750000		0.61712	-6.7836
609700000		0.61672	-8.1418
709650000		0.6161	-9.493
809600000		0.61503	-10.8184
909550000		0.61414	-12.2639
1009500000		0.61366	-13.6601
1109450000		0.6125	-15.0191
1209400000		0.61171	-16.3641
1309350000		0.61031	-17.7997
1409300000		0.60868	-19.1448
1509250000		0.6066	-20.496
1609200000		0.60561	-21.8672
1709150000		0.60308	-23.3332
1809100000		0.60035	-24.7371
1909050000		0.59823	-26.056
2009000000		0.59654	-27.4561
2108950000		0.59389	-28.959
2208900000		0.5907	-30.2715
2308850000		0.58821	-31.6414
2408800000		0.58626	-33.0407
2508750000		0.58399	-34.5458
2608700000		0.58121	-35.9724
2708650000		0.57859	-37.4632
2808600000		0.57615	-38.9626
2908550000		0.57433	-40.479
3008500000		0.5709	-41.9669
3108450000		0.56828	-43.6298
3208400000		0.56518	-45.2256
3308350000		0.5619	-46.908
3408300000		0.5582	-48.535
3508250000		0.55515	-50.2805
3608200000		0.55148	-52.0279
3708150000		0.54764	-53.8297
3808100000		0.54327	-55.5673
3908050000		0.53916	-57.3971
4008000000		0.53503	-59.2186
4107950000		0.53119	-61.1551
4207900000		0.52681	-62.9864
4307850000		0.52227	-64.8895
4407800000		0.51789	-66.861
4507750000		0.51376	-68.7738
4607700000		0.50886	-70.8126
4707650000		0.50479	-72.8208
4807600000		0.49996	-74.8367
4907550000		0.49607	-76.9437
5007500000		0.49221	-79.0791
5107450000		0.48871	-81.2743
5207400000		0.48487	-83.4507
5307350000		0.48115	-85.7446
5407300000		0.47794	-88.0531
5507250000		0.47464	-90.3251
5607200000		0.47137	-92.7531
5707150000		0.4688	-95.0879
5807100000		0.46556	-97.4958
5907050000		0.46283	-99.8957
6007000000		0.45994	-102.4371
6106950000		0.45731	-104.8682
6206900000		0.45516	-107.52
6306850000		0.4532	-109.9019
6406800000		0.45096	-112.4587
6506750000		0.44944	-114.9391
6606700000		0.44794	-117.4243
6706650000		0.44601	-119.9208
6806600000		0.44484	-122.3885
6906550000		0.44346	-124.8454
7006500000		0.44231	-127.306
7106450000		0.44125	-129.7172
7206400000		0.4395	-132.1888
7306350000		0.43858	-134.5654
7406300000		0.43713	-137.153
7506250000		0.43686	-139.4199
7606200000		0.43494	-141.8606
7706150000		0.43385	-144.1206
7806100000		0.43245	-146.577
7906050000		0.43013	-148.7672
8006000000		0.42887	-151.1654
8105950000		0.42608	-153.3301
8205900000		0.42436	-155.6894
8305850000		0.42227	-157.8616
8405800000		0.42158	-160.008
8505750000		0.42033	-162.0705
8605700000		0.41972	-164.2307
8705650000		0.41976	-166.5833
8805600000		0.41871	-169.0081
8905550000		0.41829	-171.6579
9005500000		0.41711	-174.2202
9105450000		0.41518	-176.9094
9205400000		0.41328	-179.6694
9305350000		0.41052	177.7368
9405300000		0.4076	175.1252
9505250000		0.40591	172.4239
9605200000		0.40515	169.7608
9705150000		0.40365	166.5293
9805100000		0.40227	163.4661
9905050000		0.40201	160.1931
10005000000		0.39905	156.9729
10104950000		0.40071	153.4194
10204900000		0.39881	150.0621
10304850000		0.40065	146.5079
10404800000		0.39997	142.8479
10504750000		0.40085	139.394
10604700000		0.40134	135.5627
10704650000		0.40237	132.1483
10804600000		0.4044	128.5148
!
!				Infineon Technologies AG
