! Infineon Technologies  Discrete & RF Semiconductors
! BAT62
! VCA = 2 V
! One-Port S-Parameters
# Hz  S  MA  R  50
!f									S11
!Hz							Mag  Ang
309850000		0.99746	-4.2515
409800000		0.99729	-5.6316
509750000		0.99677	-6.9862
609700000		0.99666	-8.4185
709650000		0.99633	-9.7912
809600000		0.99586	-11.1598
909550000		0.99602	-12.6258
1009500000		0.99563	-14.0703
1109450000		0.99485	-15.4728
1209400000		0.99491	-16.8715
1309350000		0.99403	-18.3543
1409300000		0.99293	-19.7674
1509250000		0.99119	-21.1743
1609200000		0.99131	-22.5982
1709150000		0.98876	-24.1
1809100000		0.98607	-25.5496
1909050000		0.98445	-26.8908
2009000000		0.98419	-28.3396
2108950000		0.98172	-29.8431
2208900000		0.97931	-31.1988
2308850000		0.9781	-32.5902
2408800000		0.97792	-33.9533
2508750000		0.97699	-35.5416
2608700000		0.9759	-36.9903
2708650000		0.97503	-38.5089
2808600000		0.97509	-40.0251
2908550000		0.97492	-41.5603
3008500000		0.97415	-43.1313
3108450000		0.97357	-44.8109
3208400000		0.97299	-46.4634
3308350000		0.97181	-48.1695
3408300000		0.97052	-49.8512
3508250000		0.96912	-51.6381
3608200000		0.96758	-53.4531
3708150000		0.96489	-55.2376
3808100000		0.96222	-57.055
3908050000		0.95963	-58.9021
4008000000		0.95682	-60.7522
4107950000		0.95425	-62.6924
4207900000		0.9507	-64.5174
4307850000		0.9471	-66.4003
4407800000		0.9435	-68.3422
4507750000		0.94054	-70.2193
4607700000		0.93683	-72.2195
4707650000		0.93402	-74.1306
4807600000		0.9302	-76.0719
4907550000		0.92773	-78.0781
5007500000		0.92532	-80.1077
5107450000		0.92328	-82.1865
5207400000		0.92121	-84.2341
5307350000		0.91876	-86.3983
5407300000		0.91679	-88.5834
5507250000		0.91462	-90.7263
5607200000		0.91271	-92.9993
5707150000		0.91097	-95.1841
5807100000		0.90874	-97.4601
5907050000		0.90688	-99.7358
6007000000		0.90462	-102.1323
6106950000		0.90212	-104.4383
6206900000		0.89899	-106.8595
6306850000		0.89666	-109.1544
6406800000		0.89359	-111.5429
6506750000		0.89097	-113.8666
6606700000		0.88844	-116.1928
6706650000		0.88432	-118.5207
6806600000		0.88154	-120.8319
6906550000		0.87831	-123.1266
7006500000		0.87586	-125.3973
7106450000		0.87343	-127.6548
7206400000		0.86994	-129.9414
7306350000		0.86707	-132.1974
7406300000		0.86385	-134.5953
7506250000		0.86207	-136.7791
7606200000		0.85807	-139.044
7706150000		0.85546	-141.2721
7806100000		0.8516	-143.5634
7906050000		0.84753	-145.7789
8006000000		0.84364	-148.0715
8105950000		0.83748	-150.2004
8205900000		0.83187	-152.4535
8305850000		0.82638	-154.566
8405800000		0.82287	-156.5733
8505750000		0.81942	-158.5017
8605700000		0.81752	-160.4757
8705650000		0.81697	-162.6262
8805600000		0.81604	-164.8609
8905550000		0.8155	-167.2605
9005500000		0.8138	-169.6386
9105450000		0.81167	-172.0994
9205400000		0.80807	-174.676
9305350000		0.80455	-177.1519
9405300000		0.80031	-179.6455
9505250000		0.7966	177.828
9605200000		0.79444	175.3407
9705150000		0.79083	172.4558
9805100000		0.78774	169.6432
9905050000		0.78488	166.6684
10005000000		0.77956	163.7877
10104950000		0.77733	160.6222
10204900000		0.77214	157.5798
10304850000		0.76992	154.3221
10404800000		0.76483	151.0659
10504750000		0.76073	147.86
10604700000		0.75469	144.441
10704650000		0.74915	141.1756
10804600000		0.74428	137.8615
!
!				Infineon Technologies AG
