! Infineon Technologies  Discrete & RF Semiconductors
! BAT62
! VCA = 0.3 V
! One-Port S-Parameters
# Hz  S  MA  R  50
!f									S11
!Hz							Mag  Ang
309850000		0.99722	-4.7005
409800000		0.99698	-6.2237
509750000		0.99616	-7.7248
609700000		0.99581	-9.3016
709650000		0.99518	-10.8199
809600000		0.9944	-12.3288
909550000		0.99419	-13.9452
1009500000		0.99332	-15.5347
1109450000		0.99198	-17.0843
1209400000		0.9916	-18.6279
1309350000		0.99008	-20.2615
1409300000		0.98831	-21.8194
1509250000		0.98593	-23.3732
1609200000		0.98531	-24.9507
1709150000		0.98203	-26.5998
1809100000		0.97851	-28.1952
1909050000		0.97607	-29.6871
2009000000		0.97486	-31.2845
2108950000		0.97162	-32.9415
2208900000		0.96825	-34.4488
2308850000		0.96591	-35.9963
2408800000		0.96477	-37.5162
2508750000		0.96271	-39.2639
2608700000		0.96042	-40.8731
2708650000		0.95837	-42.5517
2808600000		0.9571	-44.2388
2908550000		0.95569	-45.932
3008500000		0.95337	-47.6776
3108450000		0.95133	-49.5203
3208400000		0.94912	-51.3477
3308350000		0.94636	-53.2228
3408300000		0.94315	-55.0407
3508250000		0.94025	-57.0261
3608200000		0.93686	-59.0119
3708150000		0.93266	-60.9925
3808100000		0.92791	-62.9465
3908050000		0.92356	-64.9526
4008000000		0.91886	-66.9684
4107950000		0.91437	-69.0699
4207900000		0.90899	-71.0619
4307850000		0.90362	-73.1093
4407800000		0.89826	-75.2106
4507750000		0.89348	-77.2501
4607700000		0.88794	-79.4211
4707650000		0.88338	-81.5003
4807600000		0.87786	-83.6069
4907550000		0.87354	-85.7803
5007500000		0.86929	-87.9775
5107450000		0.86539	-90.2268
5207400000		0.86146	-92.4467
5307350000		0.85716	-94.7731
5407300000		0.85324	-97.1117
5507250000		0.84915	-99.4148
5607200000		0.84521	-101.8453
5707150000		0.84164	-104.1708
5807100000		0.83748	-106.5946
5907050000		0.83365	-109.0074
6007000000		0.82938	-111.5377
6106950000		0.82496	-113.9607
6206900000		0.8204	-116.4874
6306850000		0.8163	-118.8837
6406800000		0.81168	-121.3631
6506750000		0.80761	-123.7741
6606700000		0.80365	-126.182
6706650000		0.79848	-128.5815
6806600000		0.79448	-130.9537
6906550000		0.79003	-133.313
7006500000		0.78644	-135.6672
7106450000		0.78278	-137.9856
7206400000		0.77833	-140.3415
7306350000		0.77433	-142.6465
7406300000		0.77009	-145.1118
7506250000		0.76699	-147.3355
7606200000		0.76225	-149.6661
7706150000		0.75821	-151.9382
7806100000		0.75345	-154.2771
7906050000		0.74791	-156.5331
8006000000		0.74314	-158.8546
8105950000		0.7362	-161.0128
8205900000		0.73018	-163.2666
8305850000		0.72406	-165.3872
8405800000		0.72013	-167.4092
8505750000		0.71617	-169.3783
8605700000		0.71351	-171.4006
8705650000		0.71213	-173.6024
8805600000		0.70992	-175.9185
8905550000		0.70847	-178.388
9005500000		0.70584	179.1689
9105450000		0.70268	176.6229
9205400000		0.69859	173.9991
9305350000		0.69385	171.4539
9405300000		0.68867	168.9054
9505250000		0.68441	166.3437
9605200000		0.68164	163.821
9705150000		0.6779	160.8855
9805100000		0.6743	158.0253
9905050000		0.67136	155.0324
10005000000		0.6661	152.0762
10104950000		0.66469	148.9347
10204900000		0.65999	145.8444
10304850000		0.65842	142.641
10404800000		0.65426	139.3633
10504750000		0.6513	136.2116
10604700000		0.64721	132.8248
10704650000		0.64323	129.6714
10804600000		0.64045	126.4343
!
!				Infineon Technologies AG
