! Infineon Technologies  Discrete & RF Semiconductors
! BAT62
! VCA = 4 V
! One-Port S-Parameters
# Hz  S  MA  R  50
!f									S11
!Hz							Mag  Ang
309850000		0.99746	-4.1056
409800000		0.99734	-5.441
509750000		0.99684	-6.7519
609700000		0.99683	-8.1374
709650000		0.99654	-9.4617
809600000		0.99614	-10.7817
909550000		0.99633	-12.2009
1009500000		0.99601	-13.6
1109450000		0.99536	-14.9548
1209400000		0.99552	-16.3041
1309350000		0.9947	-17.7402
1409300000		0.9937	-19.1044
1509250000		0.99218	-20.4632
1609200000		0.99243	-21.8381
1709150000		0.99008	-23.2907
1809100000		0.98754	-24.6911
1909050000		0.98589	-25.955
2009000000		0.98594	-27.3806
2108950000		0.98369	-28.8364
2208900000		0.98146	-30.1352
2308850000		0.98023	-31.4425
2408800000		0.98065	-32.8223
2508750000		0.97967	-34.3194
2608700000		0.97877	-35.7131
2708650000		0.97817	-37.1758
2808600000		0.9785	-38.6339
2908550000		0.97855	-40.1128
3008500000		0.97792	-41.5901
3108450000		0.97783	-43.2408
3208400000		0.97757	-44.8331
3308350000		0.97669	-46.4774
3408300000		0.97558	-48.0621
3508250000		0.97478	-49.8227
3608200000		0.97349	-51.542
3708150000		0.97157	-53.3278
3808100000		0.96899	-55.051
3908050000		0.96678	-56.8316
4008000000		0.9645	-58.6175
4107950000		0.96229	-60.4941
4207900000		0.95906	-62.2537
4307850000		0.956	-64.0729
4407800000		0.95283	-65.9493
4507750000		0.9502	-67.7618
4607700000		0.94701	-69.6919
4707650000		0.9445	-71.5337
4807600000		0.94104	-73.4054
4907550000		0.93907	-75.3414
5007500000		0.93703	-77.3012
5107450000		0.93541	-79.3098
5207400000		0.93377	-81.2818
5307350000		0.93184	-83.3747
5407300000		0.93028	-85.4882
5507250000		0.92856	-87.5605
5607200000		0.92724	-89.7612
5707150000		0.92594	-91.8758
5807100000		0.92426	-94.0818
5907050000		0.92292	-96.2902
6007000000		0.92122	-98.6169
6106950000		0.91931	-100.8604
6206900000		0.91655	-103.2224
6306850000		0.91475	-105.462
6406800000		0.91213	-107.7958
6506750000		0.91007	-110.0679
6606700000		0.90795	-112.3412
6706650000		0.90427	-114.6223
6806600000		0.90192	-116.8862
6906550000		0.89903	-119.1356
7006500000		0.89699	-121.3594
7106450000		0.89497	-123.57
7206400000		0.89185	-125.8081
7306350000		0.88937	-128.0234
7406300000		0.88651	-130.3756
7506250000		0.88521	-132.5195
7606200000		0.88159	-134.7374
7706150000		0.87948	-136.9247
7806100000		0.87603	-139.1715
7906050000		0.87252	-141.3458
8006000000		0.86901	-143.6018
8105950000		0.86338	-145.6946
8205900000		0.85807	-147.921
8305850000		0.85295	-150.0033
8405800000		0.8497	-151.986
8505750000		0.84652	-153.8808
8605700000		0.84491	-155.8129
8705650000		0.84469	-157.9203
8805600000		0.84427	-160.0985
8905550000		0.84417	-162.4448
9005500000		0.84293	-164.7735
9105450000		0.84121	-167.1735
9205400000		0.83796	-169.7131
9305350000		0.83504	-172.1321
9405300000		0.83132	-174.5732
9505250000		0.82798	-177.0569
9605200000		0.82623	-179.5081
9705150000		0.8229	177.6583
9805100000		0.82015	174.8957
9905050000		0.81759	171.953
10005000000		0.81256	169.1235
10104950000		0.81023	165.9752
10204900000		0.8052	162.9726
10304850000		0.80297	159.7187
10404800000		0.79784	156.4937
10504750000		0.79357	153.2852
10604700000		0.78712	149.8713
10704650000		0.78133	146.5788
10804600000		0.77593	143.2476
!
!				Infineon Technologies AG
