! Infineon Technologies  Discrete & RF Semiconductors
! BAT62
! VCA = 0.7 V
! One-Port S-Parameters
# Hz  S  MA  R  50
!f									S11
!Hz							Mag  Ang
309850000		0.99738	-4.5023
409800000		0.99718	-5.9612
509750000		0.99649	-7.3974
609700000		0.99625	-8.9114
709650000		0.99578	-10.3636
809600000		0.99498	-11.7795
909550000		0.99513	-13.3628
1009500000		0.99456	-14.8878
1109450000		0.9935	-16.3735
1209400000		0.99315	-17.8216
1309350000		0.99217	-19.419
1409300000		0.9907	-20.9158
1509250000		0.9887	-22.4038
1609200000		0.98856	-23.9153
1709150000		0.98563	-25.5007
1809100000		0.98255	-27.0311
1909050000		0.98046	-28.461
2009000000		0.97972	-29.9932
2108950000		0.97695	-31.5834
2208900000		0.97406	-33.0244
2308850000		0.97209	-34.4721
2408800000		0.97179	-35.9973
2508750000		0.97018	-37.6396
2608700000		0.96856	-39.1805
2708650000		0.96709	-40.7923
2808600000		0.96646	-42.4067
2908550000		0.96572	-44.0335
3008500000		0.9642	-45.7086
3108450000		0.96287	-47.4832
3208400000		0.96149	-49.2369
3308350000		0.95954	-51.0436
3408300000		0.95737	-52.8276
3508250000		0.95516	-54.7108
3608200000		0.95253	-56.5966
3708150000		0.94936	-58.5437
3808100000		0.94553	-60.4296
3908050000		0.942	-62.3731
4008000000		0.93829	-64.3241
4107950000		0.93446	-66.332
4207900000		0.93024	-68.2901
4307850000		0.92571	-70.273
4407800000		0.92117	-72.3131
4507750000		0.91728	-74.2901
4607700000		0.91261	-76.397
4707650000		0.90888	-78.4104
4807600000		0.90418	-80.4551
4907550000		0.90074	-82.5666
5007500000		0.89738	-84.6994
5107450000		0.89437	-86.8859
5207400000		0.89134	-89.0426
5307350000		0.88784	-91.3096
5407300000		0.88483	-93.5948
5507250000		0.88165	-95.8397
5607200000		0.87867	-98.2155
5707150000		0.87589	-100.4931
5807100000		0.87261	-102.8675
5907050000		0.86961	-105.2343
6007000000		0.86625	-107.7207
6106950000		0.86265	-110.1073
6206900000		0.85866	-112.6026
6306850000		0.85533	-114.9685
6406800000		0.85132	-117.4246
6506750000		0.84784	-119.8097
6606700000		0.8445	-122.1958
6706650000		0.83973	-124.5778
6806600000		0.83613	-126.9351
6906550000		0.83218	-129.2806
7006500000		0.82907	-131.6134
7106450000		0.82586	-133.9191
7206400000		0.82174	-136.2573
7306350000		0.81813	-138.5558
7406300000		0.81426	-141.0052
7506250000		0.81169	-143.226
7606200000		0.80719	-145.542
7706150000		0.80368	-147.8085
7806100000		0.79928	-150.1396
7906050000		0.7942	-152.396
8006000000		0.78969	-154.7179
8105950000		0.78296	-156.879
8205900000		0.77699	-159.144
8305850000		0.77101	-161.2709
8405800000		0.76715	-163.3002
8505750000		0.76333	-165.2627
8605700000		0.76092	-167.2766
8705650000		0.75982	-169.4696
8805600000		0.75806	-171.7645
8905550000		0.75693	-174.2194
9005500000		0.75461	-176.6471
9105450000		0.75176	-179.171
9205400000		0.74775	178.2131
9305350000		0.74338	175.6829
9405300000		0.73844	173.1438
9505250000		0.73429	170.5826
9605200000		0.73163	168.0632
9705150000		0.72778	165.1356
9805100000		0.72429	162.2828
9905050000		0.72124	159.2877
10005000000		0.71581	156.3502
10104950000		0.71395	153.1925
10204900000		0.70888	150.1132
10304850000		0.70687	146.8801
10404800000		0.70221	143.6022
10504750000		0.69864	140.4211
10604700000		0.69362	137.0224
10704650000		0.68888	133.8169
10804600000		0.68511	130.5473
!
!				Infineon Technologies AG
