! Infineon Technologies  Discrete & RF Semiconductors
! BAT62
! VCA = 6 V
! One-Port S-Parameters
# Hz  S  MA  R  50
!f									S11
!Hz							Mag  Ang
309850000		0.99744	-4.0219
409800000		0.99734	-5.3429
509750000		0.99693	-6.6341
609700000		0.99688	-7.9911
709650000		0.99673	-9.2901
809600000		0.99624	-10.5867
909550000		0.9965	-11.9853
1009500000		0.99621	-13.3606
1109450000		0.99562	-14.6907
1209400000		0.99577	-16.0131
1309350000		0.99506	-17.4279
1409300000		0.99411	-18.7688
1509250000		0.99258	-20.1022
1609200000		0.9929	-21.4532
1709150000		0.99061	-22.8766
1809100000		0.98807	-24.2515
1909050000		0.98668	-25.5224
2009000000		0.98663	-26.8927
2108950000		0.98447	-28.3191
2208900000		0.98214	-29.5594
2308850000		0.98125	-30.909
2408800000		0.98156	-32.2261
2508750000		0.98077	-33.6972
2608700000		0.97994	-35.0598
2708650000		0.97945	-36.4941
2808600000		0.97975	-37.9205
2908550000		0.98001	-39.3714
3008500000		0.9797	-40.848
3108450000		0.97944	-42.4385
3208400000		0.97933	-43.9931
3308350000		0.97843	-45.5767
3408300000		0.97782	-47.197
3508250000		0.97702	-48.892
3608200000		0.97607	-50.606
3708150000		0.97409	-52.3262
3808100000		0.97176	-54.0179
3908050000		0.96969	-55.7638
4008000000		0.96754	-57.5189
4107950000		0.96553	-59.3601
4207900000		0.96254	-61.0842
4307850000		0.95956	-62.8681
4407800000		0.95653	-64.713
4507750000		0.95416	-66.4887
4607700000		0.95105	-68.3843
4707650000		0.94874	-70.1888
4807600000		0.94546	-72.024
4907550000		0.94356	-73.9235
5007500000		0.94175	-75.8459
5107450000		0.94032	-77.8138
5207400000		0.93888	-79.7432
5307350000		0.93705	-81.7977
5407300000		0.93568	-83.8737
5507250000		0.93413	-85.9072
5607200000		0.93301	-88.0653
5707150000		0.9319	-90.1434
5807100000		0.9304	-92.3088
5907050000		0.92931	-94.4793
6007000000		0.92787	-96.7684
6106950000		0.92617	-98.9778
6206900000		0.92364	-101.3051
6306850000		0.9221	-103.5102
6406800000		0.91966	-105.8115
6506750000		0.9178	-108.0509
6606700000		0.91595	-110.2958
6706650000		0.91245	-112.5502
6806600000		0.91023	-114.7871
6906550000		0.90754	-117.0062
7006500000		0.90571	-119.2011
7106450000		0.90382	-121.3853
7206400000		0.90086	-123.5932
7306350000		0.89861	-125.7853
7406300000		0.89594	-128.104
7506250000		0.89482	-130.2259
7606200000		0.89128	-132.4176
7706150000		0.88954	-134.5796
7806100000		0.88621	-136.7974
7906050000		0.88303	-138.9445
8006000000		0.87971	-141.1772
8105950000		0.87431	-143.2468
8205900000		0.86914	-145.4562
8305850000		0.86427	-147.5179
8405800000		0.86114	-149.4808
8505750000		0.85808	-151.3525
8605700000		0.85661	-153.2587
8705650000		0.85653	-155.3403
8805600000		0.85634	-157.484
8905550000		0.85644	-159.7955
9005500000		0.85532	-162.0924
9105450000		0.85391	-164.4563
9205400000		0.85088	-166.9649
9305350000		0.84823	-169.3481
9405300000		0.84476	-171.7571
9505250000		0.84163	-174.2161
9605200000		0.8401	-176.6363
9705150000		0.83701	-179.439
9805100000		0.83445	177.829
9905050000		0.83205	174.9138
10005000000		0.82707	172.1233
10104950000		0.82482	168.9864
10204900000		0.81984	166.0131
10304850000		0.81769	162.7725
10404800000		0.81254	159.5684
10504750000		0.80829	156.3664
10604700000		0.8017	152.9616
10704650000		0.79578	149.6609
10804600000		0.79016	146.3265
!
!				Infineon Technologies AG
