! Infineon Technologies  Discrete & RF Semiconductors
! BAT62
! IAC = 2 mA
! One-Port S-Parameters
# Hz  S  MA  R  50
!f									S11
!Hz							Mag  Ang
309850000		0.58036	-4.2629
409800000		0.58002	-5.6522
509750000		0.57894	-7.0101
609700000		0.5783	-8.4054
709650000		0.57729	-9.7781
809600000		0.57612	-11.1048
909550000		0.57521	-12.6078
1009500000		0.57443	-14.0319
1109450000		0.573	-15.4217
1209400000		0.57208	-16.7982
1309350000		0.57045	-18.2645
1409300000		0.56866	-19.6391
1509250000		0.56637	-21.0243
1609200000		0.56506	-22.4257
1709150000		0.56211	-23.9169
1809100000		0.55911	-25.3516
1909050000		0.55673	-26.7036
2009000000		0.55468	-28.0993
2108950000		0.5516	-29.6281
2208900000		0.54827	-31.0014
2308850000		0.54566	-32.4429
2408800000		0.54325	-33.8434
2508750000		0.54047	-35.4039
2608700000		0.53715	-36.8176
2708650000		0.53413	-38.345
2808600000		0.53113	-39.8719
2908550000		0.52886	-41.4181
3008500000		0.52475	-42.9576
3108450000		0.5217	-44.6585
3208400000		0.51792	-46.2646
3308350000		0.51412	-47.9466
3408300000		0.51019	-49.6486
3508250000		0.50671	-51.4299
3608200000		0.50239	-53.2263
3708150000		0.49816	-55.0646
3808100000		0.49329	-56.8099
3908050000		0.48898	-58.7246
4008000000		0.48425	-60.543
4107950000		0.48001	-62.5538
4207900000		0.47503	-64.3772
4307850000		0.47007	-66.3266
4407800000		0.46526	-68.3429
4507750000		0.46088	-70.3428
4607700000		0.45553	-72.4115
4707650000		0.45112	-74.4834
4807600000		0.44607	-76.5757
4907550000		0.44177	-78.7571
5007500000		0.4376	-80.9673
5107450000		0.43358	-83.2257
5207400000		0.42937	-85.4764
5307350000		0.42535	-87.8582
5407300000		0.4219	-90.2428
5507250000		0.41826	-92.6173
5607200000		0.41459	-95.1054
5707150000		0.41178	-97.525
5807100000		0.40832	-100.0285
5907050000		0.40546	-102.5403
6007000000		0.40226	-105.1526
6106950000		0.39957	-107.7026
6206900000		0.39724	-110.3932
6306850000		0.39528	-112.8984
6406800000		0.39307	-115.558
6506750000		0.39146	-118.1089
6606700000		0.38993	-120.6479
6706650000		0.38812	-123.2563
6806600000		0.38697	-125.7715
6906550000		0.38564	-128.3238
7006500000		0.3844	-130.8277
7106450000		0.38342	-133.3091
7206400000		0.38184	-135.8682
7306350000		0.38091	-138.2883
7406300000		0.37952	-140.9577
7506250000		0.37928	-143.2437
7606200000		0.3776	-145.7894
7706150000		0.37642	-148.0401
7806100000		0.37511	-150.541
7906050000		0.37284	-152.7531
8006000000		0.37188	-155.2138
8105950000		0.36916	-157.3725
8205900000		0.36784	-159.8043
8305850000		0.36593	-161.9737
8405800000		0.36551	-164.1545
8505750000		0.36446	-166.291
8605700000		0.36382	-168.4756
8705650000		0.36388	-170.8955
8805600000		0.36269	-173.3889
8905550000		0.36235	-176.1296
9005500000		0.36125	-178.7999
9105450000		0.35945	178.4078
9205400000		0.35776	175.5609
9305350000		0.35492	172.9418
9405300000		0.35222	170.2172
9505250000		0.35077	167.4889
9605200000		0.35033	164.7577
9705150000		0.34927	161.3997
9805100000		0.3483	158.2426
9905050000		0.34848	154.8827
10005000000		0.34616	151.5338
10104950000		0.34864	147.877
10204900000		0.34743	144.4091
10304850000		0.35009	140.808
10404800000		0.35021	137.0423
10504750000		0.35203	133.5625
10604700000		0.35353	129.6844
10704650000		0.35568	126.2533
10804600000		0.35882	122.608
!
!				Infineon Technologies AG
