! Infineon Technologies  Discrete & RF Semiconductors
! BAT62
! VCA = 10 V
! One-Port S-Parameters
# Hz  S  MA  R  50
!f									S11
!Hz							Mag  Ang
309850000		0.99736	-3.914
409800000		0.99715	-5.2252
509750000		0.99686	-6.4978
609700000		0.99701	-7.828
709650000		0.99676	-9.091
809600000		0.99624	-10.3646
909550000		0.99647	-11.7398
1009500000		0.99631	-13.0934
1109450000		0.99563	-14.3643
1209400000		0.99602	-15.6855
1309350000		0.99519	-17.0736
1409300000		0.99429	-18.3902
1509250000		0.99287	-19.7001
1609200000		0.99331	-21.0182
1709150000		0.99102	-22.4135
1809100000		0.98855	-23.7627
1909050000		0.98714	-25.006
2009000000		0.98718	-26.3471
2108950000		0.98515	-27.744
2208900000		0.98308	-28.9879
2308850000		0.98188	-30.2382
2408800000		0.9824	-31.5634
2508750000		0.98146	-32.9686
2608700000		0.98092	-34.3331
2708650000		0.98047	-35.7342
2808600000		0.98092	-37.129
2908550000		0.98122	-38.5462
3008500000		0.98103	-39.9864
3108450000		0.98089	-41.5397
3208400000		0.98084	-43.0614
3308350000		0.98032	-44.6432
3408300000		0.97969	-46.1911
3508250000		0.97901	-47.8469
3608200000		0.9782	-49.5257
3708150000		0.97638	-51.2075
3808100000		0.97416	-52.8628
3908050000		0.97231	-54.5739
4008000000		0.97038	-56.2883
4107950000		0.96853	-58.0911
4207900000		0.9656	-59.7784
4307850000		0.96277	-61.5235
4407800000		0.95996	-63.3279
4507750000		0.95771	-65.0662
4607700000		0.95476	-66.9167
4707650000		0.95262	-68.6771
4807600000		0.94934	-70.4731
4907550000		0.9476	-72.3304
5007500000		0.94596	-74.2121
5107450000		0.94469	-76.1355
5207400000		0.94345	-78.0184
5307350000		0.94171	-80.0254
5407300000		0.94052	-82.0621
5507250000		0.93918	-84.052
5607200000		0.93827	-86.1632
5707150000		0.93727	-88.195
5807100000		0.93595	-90.3122
5907050000		0.93504	-92.4417
6007000000		0.93382	-94.686
6106950000		0.93242	-96.85
6206900000		0.93005	-99.1394
6306850000		0.92876	-101.302
6406800000		0.9265	-103.5636
6506750000		0.92483	-105.7697
6606700000		0.92312	-107.9792
6706650000		0.9198	-110.1956
6806600000		0.91785	-112.3989
6906550000		0.91528	-114.5842
7006500000		0.91354	-116.7447
7106450000		0.91188	-118.8973
7206400000		0.90913	-121.0673
7306350000		0.90702	-123.2244
7406300000		0.90443	-125.5105
7506250000		0.90354	-127.6023
7606200000		0.9002	-129.7579
7706150000		0.89869	-131.8864
7806100000		0.89554	-134.0719
7906050000		0.8926	-136.1818
8006000000		0.88949	-138.3854
8105950000		0.88432	-140.4262
8205900000		0.87939	-142.6095
8305850000		0.87476	-144.6439
8405800000		0.87173	-146.5803
8505750000		0.86875	-148.4276
8605700000		0.86743	-150.3018
8705650000		0.8676	-152.3472
8805600000		0.86755	-154.4466
8905550000		0.86776	-156.7189
9005500000		0.8669	-158.9754
9105450000		0.86571	-161.2959
9205400000		0.8629	-163.768
9305350000		0.86057	-166.1036
9405300000		0.85739	-168.4675
9505250000		0.8545	-170.8869
9605200000		0.85321	-173.2782
9705150000		0.85025	-176.0315
9805100000		0.84786	-178.7188
9905050000		0.84568	178.3961
10005000000		0.84091	175.6598
10104950000		0.83867	172.5408
10204900000		0.83383	169.6067
10304850000		0.83179	166.3846
10404800000		0.82661	163.2156
10504750000		0.82233	160.0247
10604700000		0.81562	156.6337
10704650000		0.80971	153.3331
10804600000		0.80381	150.0001
!
!				Infineon Technologies AG
