! Infineon Technologies  Discrete & RF Semiconductors
! BAT62
! VCA = 0.6 V
! One-Port S-Parameters
# Hz  S  MA  R  50
!f									S11
!Hz							Mag  Ang
309850000		0.99735	-4.5374
409800000		0.99712	-6.0117
509750000		0.99642	-7.461
609700000		0.99594	-8.9543
709650000		0.99573	-10.4517
809600000		0.99508	-11.9111
909550000		0.99503	-13.4725
1009500000		0.9943	-15.01
1109450000		0.99331	-16.5068
1209400000		0.99309	-18.001
1309350000		0.99187	-19.5779
1409300000		0.99036	-21.0847
1509250000		0.98823	-22.5872
1609200000		0.98791	-24.1095
1709150000		0.98506	-25.7096
1809100000		0.98188	-27.2549
1909050000		0.97974	-28.6923
2009000000		0.97893	-30.2377
2108950000		0.97606	-31.8428
2208900000		0.97306	-33.2957
2308850000		0.97108	-34.7545
2408800000		0.97065	-36.2948
2508750000		0.96891	-37.9509
2608700000		0.96718	-39.5059
2708650000		0.96565	-41.1297
2808600000		0.96493	-42.7578
2908550000		0.96399	-44.3969
3008500000		0.96237	-46.0856
3108450000		0.96095	-47.8739
3208400000		0.95938	-49.6419
3308350000		0.9573	-51.4637
3408300000		0.955	-53.2609
3508250000		0.95262	-55.1565
3608200000		0.94996	-57.0901
3708150000		0.94645	-59.0168
3808100000		0.94248	-60.917
3908050000		0.9388	-62.8748
4008000000		0.93492	-64.8365
4107950000		0.93118	-66.8897
4207900000		0.92654	-68.8294
4307850000		0.92191	-70.8272
4407800000		0.91725	-72.8787
4507750000		0.91314	-74.8723
4607700000		0.90825	-76.99
4707650000		0.90444	-79.0179
4807600000		0.89957	-81.0756
4907550000		0.89602	-83.1991
5007500000		0.89249	-85.3463
5107450000		0.88932	-87.5468
5207400000		0.8861	-89.7175
5307350000		0.8825	-91.9982
5407300000		0.87931	-94.2939
5507250000		0.87589	-96.5544
5607200000		0.87276	-98.9403
5707150000		0.86985	-101.2294
5807100000		0.86634	-103.6147
5907050000		0.86318	-105.9942
6007000000		0.85965	-108.487
6106950000		0.8559	-110.8844
6206900000		0.85182	-113.3867
6306850000		0.84828	-115.7603
6406800000		0.8442	-118.2218
6506750000		0.84058	-120.616
6606700000		0.83704	-123.0066
6706650000		0.83218	-125.392
6806600000		0.82853	-127.7559
6906550000		0.8245	-130.1069
7006500000		0.82122	-132.4427
7106450000		0.81797	-134.7541
7206400000		0.8138	-137.0979
7306350000		0.81005	-139.3991
7406300000		0.80607	-141.8531
7506250000		0.80343	-144.0753
7606200000		0.7989	-146.3962
7706150000		0.79522	-148.6653
7806100000		0.79073	-150.9995
7906050000		0.78558	-153.2557
8006000000		0.78099	-155.5785
8105950000		0.77417	-157.7413
8205900000		0.76818	-160.0046
8305850000		0.76221	-162.1353
8405800000		0.75829	-164.1624
8505750000		0.7544	-166.1282
8605700000		0.75195	-168.1454
8705650000		0.7508	-170.3389
8805600000		0.74894	-172.6399
8905550000		0.74771	-175.0996
9005500000		0.74533	-177.5309
9105450000		0.74241	179.9407
9205400000		0.73839	177.3211
9305350000		0.73389	174.7859
9405300000		0.7289	172.2435
9505250000		0.72469	169.6811
9605200000		0.72202	167.1583
9705150000		0.71817	164.2287
9805100000		0.71465	161.3756
9905050000		0.71154	158.3799
10005000000		0.70618	155.4336
10104950000		0.70436	152.2811
10204900000		0.69932	149.1972
10304850000		0.69745	145.9694
10404800000		0.69285	142.6927
10504750000		0.68941	139.5173
10604700000		0.68454	136.117
10704650000		0.67995	132.9229
10804600000		0.67638	129.6609
!
!				Infineon Technologies AG
