! Infineon Technologies  Discrete & RF Semiconductors
! BAT62
! VCA = 0.9 V
! One-Port S-Parameters
# Hz  S  MA  R  50
!f									S11
!Hz							Mag  Ang
309850000		0.9974	-4.4407
409800000		0.99725	-5.8826
509750000		0.99661	-7.2972
609700000		0.99635	-8.7881
709650000		0.996	-10.2228
809600000		0.99542	-11.6512
909550000		0.99538	-13.1801
1009500000		0.99489	-14.6868
1109450000		0.99393	-16.1506
1209400000		0.99381	-17.6108
1309350000		0.99273	-19.1566
1409300000		0.99136	-20.6331
1509250000		0.98944	-22.1019
1609200000		0.98937	-23.5906
1709150000		0.98657	-25.1541
1809100000		0.98355	-26.6675
1909050000		0.9816	-28.0758
2009000000		0.98108	-29.5873
2108950000		0.97836	-31.1575
2208900000		0.97563	-32.5778
2308850000		0.9738	-34.0037
2408800000		0.97364	-35.5077
2508750000		0.97219	-37.1277
2608700000		0.97064	-38.6452
2708650000		0.96937	-40.2364
2808600000		0.96893	-41.8254
2908550000		0.9684	-43.4305
3008500000		0.96707	-45.0801
3108450000		0.9657	-46.7994
3208400000		0.96475	-48.5622
3308350000		0.96304	-50.3436
3408300000		0.96109	-52.1024
3508250000		0.95915	-53.9652
3608200000		0.95689	-55.8597
3708150000		0.95359	-57.7194
3808100000		0.95019	-59.6158
3908050000		0.94692	-61.5335
4008000000		0.94343	-63.4637
4107950000		0.94015	-65.4802
4207900000		0.93592	-67.3815
4307850000		0.93172	-69.3439
4407800000		0.92741	-71.3605
4507750000		0.92379	-73.3172
4607700000		0.91936	-75.3988
4707650000		0.9159	-77.3889
4807600000		0.91142	-79.4103
4907550000		0.90825	-81.4975
5007500000		0.90518	-83.6098
5107450000		0.90237	-85.7717
5207400000		0.89959	-87.9039
5307350000		0.89642	-90.1487
5407300000		0.89366	-92.4112
5507250000		0.8907	-94.6356
5607200000		0.88802	-96.99
5707150000		0.88553	-99.2461
5807100000		0.88253	-101.6004
5907050000		0.87982	-103.9469
6007000000		0.87672	-106.415
6106950000		0.87334	-108.7857
6206900000		0.86962	-111.265
6306850000		0.86653	-113.6181
6406800000		0.86278	-116.0597
6506750000		0.85947	-118.4354
6606700000		0.85633	-120.8117
6706650000		0.8517	-123.1814
6806600000		0.84831	-125.5314
6906550000		0.84449	-127.8701
7006500000		0.84157	-130.1913
7106450000		0.83857	-132.4862
7206400000		0.83457	-134.8141
7306350000		0.83112	-137.1071
7406300000		0.82742	-139.5483
7506250000		0.825	-141.7636
7606200000		0.82062	-144.0693
7706150000		0.8173	-146.3294
7806100000		0.813	-148.6552
7906050000		0.80811	-150.9063
8006000000		0.80376	-153.224
8105950000		0.79715	-155.3793
8205900000		0.79122	-157.6434
8305850000		0.78536	-159.7734
8405800000		0.78156	-161.8009
8505750000		0.77781	-163.7571
8605700000		0.7755	-165.7644
8705650000		0.77452	-167.9506
8805600000		0.77292	-170.2345
8905550000		0.77194	-172.6773
9005500000		0.76978	-175.0975
9105450000		0.76707	-177.6118
9205400000		0.76317	179.7799
9305350000		0.75893	177.2581
9405300000		0.75411	174.7266
9505250000		0.75003	172.1701
9605200000		0.74748	169.6558
9705150000		0.74365	166.7348
9805100000		0.74024	163.8859
9905050000		0.73717	160.8939
10005000000		0.73175	157.9658
10104950000		0.72978	154.8034
10204900000		0.72464	151.7289
10304850000		0.72254	148.4879
10404800000		0.7177	145.2131
10504750000		0.71399	142.0251
10604700000		0.70871	138.6202
10704650000		0.7037	135.3967
10804600000		0.69968	132.1174
!
!				Infineon Technologies AG
