! Infineon Technologies  Discrete & RF Semiconductors
! BAT62
! IAC = 0.7 mA
! One-Port S-Parameters
# Hz  S  MA  R  50
!f									S11
!Hz							Mag  Ang
309850000		0.60819	-4.1161
409800000		0.6078	-5.4337
509750000		0.60692	-6.7536
609700000		0.60665	-8.1358
709650000		0.60577	-9.4434
809600000		0.60477	-10.7647
909550000		0.60394	-12.2003
1009500000		0.60337	-13.5909
1109450000		0.60221	-14.943
1209400000		0.60151	-16.2842
1309350000		0.60009	-17.7095
1409300000		0.59847	-19.0466
1509250000		0.59639	-20.3911
1609200000		0.59535	-21.7569
1709150000		0.59283	-23.2166
1809100000		0.59014	-24.6151
1909050000		0.588	-25.9262
2009000000		0.58637	-27.3173
2108950000		0.58369	-28.8139
2208900000		0.58054	-30.1189
2308850000		0.57808	-31.4822
2408800000		0.57616	-32.8776
2508750000		0.5739	-34.4063
2608700000		0.57102	-35.7922
2708650000		0.56833	-37.2397
2808600000		0.56576	-38.7347
2908550000		0.56407	-40.2785
3008500000		0.56063	-41.7625
3108450000		0.55805	-43.4168
3208400000		0.55487	-45.0009
3308350000		0.55161	-46.6843
3408300000		0.54792	-48.3002
3508250000		0.5448	-50.0044
3608200000		0.54114	-51.7794
3708150000		0.53731	-53.5762
3808100000		0.53293	-55.306
3908050000		0.52904	-57.1618
4008000000		0.5248	-58.9449
4107950000		0.5209	-60.8758
4207900000		0.51648	-62.7007
4307850000		0.51205	-64.6258
4407800000		0.50759	-66.5614
4507750000		0.50346	-68.4745
4607700000		0.49857	-70.5088
4707650000		0.49455	-72.5182
4807600000		0.48977	-74.5343
4907550000		0.48588	-76.6383
5007500000		0.48204	-78.7738
5107450000		0.47849	-80.9672
5207400000		0.47463	-83.144
5307350000		0.47095	-85.4387
5407300000		0.46775	-87.7482
5507250000		0.46453	-90.0482
5607200000		0.46114	-92.4478
5707150000		0.45857	-94.7884
5807100000		0.45537	-97.2018
5907050000		0.45265	-99.605
6007000000		0.44975	-102.1531
6106950000		0.44716	-104.5869
6206900000		0.44491	-107.2204
6306850000		0.44307	-109.6324
6406800000		0.44092	-112.1983
6506750000		0.43941	-114.6823
6606700000		0.43797	-117.175
6706650000		0.43604	-119.6813
6806600000		0.43497	-122.1547
6906550000		0.43363	-124.6169
7006500000		0.43248	-127.0879
7106450000		0.43149	-129.5039
7206400000		0.42984	-131.9842
7306350000		0.42894	-134.3624
7406300000		0.42751	-136.9612
7506250000		0.42732	-139.2267
7606200000		0.42546	-141.6784
7706150000		0.42446	-143.9402
7806100000		0.42308	-146.3993
7906050000		0.42087	-148.5864
8006000000		0.41977	-151.0162
8105950000		0.41696	-153.1566
8205900000		0.41531	-155.523
8305850000		0.41331	-157.6965
8405800000		0.41273	-159.8514
8505750000		0.41152	-161.9187
8605700000		0.41095	-164.086
8705650000		0.41104	-166.4403
8805600000		0.40999	-168.8698
8905550000		0.40959	-171.5336
9005500000		0.40839	-174.1028
9105450000		0.40653	-176.8017
9205400000		0.40476	-179.5979
9305350000		0.40194	177.8338
9405300000		0.39908	175.2182
9505250000		0.39745	172.5098
9605200000		0.3968	169.8368
9705150000		0.39534	166.588
9805100000		0.39394	163.5137
9905050000		0.39376	160.2288
10005000000		0.3909	156.9916
10104950000		0.39255	153.4506
10204900000		0.3908	150.0414
10304850000		0.39272	146.4754
10404800000		0.39212	142.7971
10504750000		0.39315	139.3257
10604700000		0.39368	135.4744
10704650000		0.3949	132.0514
10804600000		0.39701	128.4293
!
!				Infineon Technologies AG
