! Infineon Technologies  Discrete & RF Semiconductors
! BAT62
! VCA = 3 V
! One-Port S-Parameters
# Hz  S  MA  R  50
!f									S11
!Hz							Mag  Ang
309850000		0.99736	-4.1629
409800000		0.9973	-5.5177
509750000		0.99677	-6.8453
609700000		0.9967	-8.2477
709650000		0.99642	-9.5918
809600000		0.9958	-10.8977
909550000		0.9962	-12.3699
1009500000		0.99585	-13.7867
1109450000		0.9951	-15.1615
1209400000		0.99525	-16.529
1309350000		0.99438	-17.9846
1409300000		0.99337	-19.3657
1509250000		0.99177	-20.7453
1609200000		0.99196	-22.141
1709150000		0.98963	-23.6124
1809100000		0.98696	-25.0321
1909050000		0.98541	-26.3465
2009000000		0.98504	-27.7255
2108950000		0.98298	-29.2353
2208900000		0.98063	-30.5581
2308850000		0.97934	-31.8838
2408800000		0.97968	-33.2884
2508750000		0.97872	-34.8068
2608700000		0.9777	-36.2206
2708650000		0.97703	-37.7049
2808600000		0.97702	-39.1515
2908550000		0.97721	-40.6895
3008500000		0.97672	-42.2222
3108450000		0.97603	-43.8308
3208400000		0.97585	-45.4806
3308350000		0.97489	-47.1523
3408300000		0.97383	-48.7957
3508250000		0.97271	-50.5468
3608200000		0.97144	-52.3226
3708150000		0.96917	-54.1013
3808100000		0.96652	-55.8498
3908050000		0.96415	-57.6564
4008000000		0.96167	-59.4703
4107950000		0.95938	-61.3705
4207900000		0.95602	-63.1577
4307850000		0.95278	-65.0017
4407800000		0.94947	-66.9055
4507750000		0.94673	-68.7445
4607700000		0.94322	-70.7022
4707650000		0.94071	-72.5723
4807600000		0.93713	-74.4725
4907550000		0.93494	-76.4365
5007500000		0.93277	-78.4237
5107450000		0.93101	-80.4617
5207400000		0.92924	-82.4638
5307350000		0.92709	-84.5857
5407300000		0.92539	-86.7306
5507250000		0.9235	-88.8325
5607200000		0.92194	-91.0602
5707150000		0.92045	-93.2043
5807100000		0.9186	-95.4396
5907050000		0.91708	-97.678
6007000000		0.91516	-100.0319
6106950000		0.913	-102.3023
6206900000		0.91011	-104.6891
6306850000		0.90813	-106.9515
6406800000		0.90536	-109.3087
6506750000		0.90308	-111.6007
6606700000		0.90078	-113.8962
6706650000		0.89689	-116.1988
6806600000		0.89442	-118.4809
6906550000		0.8914	-120.7509
7006500000		0.88924	-122.9955
7106450000		0.88702	-125.2265
7206400000		0.88383	-127.4849
7306350000		0.88115	-129.7183
7406300000		0.87814	-132.0892
7506250000		0.87671	-134.2494
7606200000		0.8729	-136.4866
7706150000		0.87063	-138.695
7806100000		0.867	-140.9614
7906050000		0.86324	-143.1517
8006000000		0.85962	-145.424
8105950000		0.85371	-147.5363
8205900000		0.84829	-149.7733
8305850000		0.84306	-151.8694
8405800000		0.83966	-153.8625
8505750000		0.83639	-155.7727
8605700000		0.83466	-157.7204
8705650000		0.83434	-159.8482
8805600000		0.83366	-162.0532
8905550000		0.83342	-164.4224
9005500000		0.83198	-166.7709
9105450000		0.83013	-169.1987
9205400000		0.82677	-171.7535
9305350000		0.82359	-174.1984
9405300000		0.81962	-176.6597
9505250000		0.81614	-179.1641
9605200000		0.81424	178.3662
9705150000		0.81078	175.5122
9805100000		0.80787	172.7253
9905050000		0.80514	169.7675
10005000000		0.80006	166.9183
10104950000		0.79775	163.7574
10204900000		0.79263	160.7358
10304850000		0.79042	157.4834
10404800000		0.78526	154.2412
10504750000		0.78107	151.0297
10604700000		0.77478	147.6143
10704650000		0.76901	144.3322
10804600000		0.76382	141.0062
!
!				Infineon Technologies AG
