! Infineon Technologies  Discrete & RF Semiconductors
! BAT62
! VCA = 0.8 V
! One-Port S-Parameters
# Hz  S  MA  R  50
!f									S11
!Hz							Mag  Ang
309850000		0.99742	-4.47
409800000		0.99718	-5.9191
509750000		0.99654	-7.3434
609700000		0.99609	-8.8153
709650000		0.9959	-10.2901
809600000		0.99527	-11.7278
909550000		0.99529	-13.2673
1009500000		0.99467	-14.7813
1109450000		0.99374	-16.2557
1209400000		0.9936	-17.7256
1309350000		0.99243	-19.2799
1409300000		0.99112	-20.7635
1509250000		0.98905	-22.2438
1609200000		0.98887	-23.7439
1709150000		0.98608	-25.317
1809100000		0.98307	-26.8406
1909050000		0.98109	-28.2543
2009000000		0.98041	-29.7747
2108950000		0.97769	-31.3579
2208900000		0.97486	-32.7882
2308850000		0.97302	-34.2217
2408800000		0.97279	-35.7377
2508750000		0.97122	-37.3665
2608700000		0.96963	-38.8978
2708650000		0.96831	-40.4964
2808600000		0.96759	-42.0647
2908550000		0.96712	-43.7143
3008500000		0.96577	-45.3746
3108450000		0.96453	-47.1368
3208400000		0.96323	-48.8779
3308350000		0.96139	-50.6756
3408300000		0.95937	-52.4427
3508250000		0.95733	-54.3137
3608200000		0.9548	-56.1909
3708150000		0.95175	-58.1243
3808100000		0.94803	-59.9996
3908050000		0.94465	-61.9284
4008000000		0.94106	-63.8711
4107950000		0.93769	-65.8974
4207900000		0.93326	-67.8083
4307850000		0.92896	-69.7812
4407800000		0.9246	-71.8102
4507750000		0.92079	-73.7754
4607700000		0.91623	-75.8678
4707650000		0.91267	-77.871
4807600000		0.90808	-79.9048
4907550000		0.90486	-82.002
5007500000		0.90161	-84.1237
5107450000		0.89872	-86.2997
5207400000		0.89578	-88.444
5307350000		0.8925	-90.6977
5407300000		0.88954	-92.9686
5507250000		0.88653	-95.2066
5607200000		0.88371	-97.5694
5707150000		0.88112	-99.8354
5807100000		0.87792	-102.1997
5907050000		0.87512	-104.5587
6007000000		0.8719	-107.0345
6106950000		0.86841	-109.4134
6206900000		0.86454	-111.8977
6306850000		0.86131	-114.2596
6406800000		0.85746	-116.7082
6506750000		0.85412	-119.0883
6606700000		0.85082	-121.4683
6706650000		0.84614	-123.8443
6806600000		0.84269	-126.1994
6906550000		0.8388	-128.5407
7006500000		0.83575	-130.8673
7106450000		0.83262	-133.1695
7206400000		0.82865	-135.5018
7306350000		0.82508	-137.7956
7406300000		0.82128	-140.2427
7506250000		0.81882	-142.4593
7606200000		0.81442	-144.7714
7706150000		0.81096	-147.0346
7806100000		0.80655	-149.3641
7906050000		0.80165	-151.6169
8006000000		0.79723	-153.9366
8105950000		0.79053	-156.0952
8205900000		0.78457	-158.3602
8305850000		0.77867	-160.4886
8405800000		0.77485	-162.5161
8505750000		0.77103	-164.4787
8605700000		0.76869	-166.4872
8705650000		0.76768	-168.6761
8805600000		0.76598	-170.9665
8905550000		0.7649	-173.4153
9005500000		0.7627	-175.8376
9105450000		0.75992	-178.3562
9205400000		0.75593	179.0291
9305350000		0.75165	176.5026
9405300000		0.74677	173.971
9505250000		0.74262	171.4092
9605200000		0.74005	168.8905
9705150000		0.73621	165.9677
9805100000		0.73277	163.1184
9905050000		0.72965	160.1224
10005000000		0.72429	157.1881
10104950000		0.72228	154.0315
10204900000		0.71718	150.9524
10304850000		0.7152	147.7136
10404800000		0.71044	144.4371
10504750000		0.70672	141.2533
10604700000		0.70157	137.8487
10704650000		0.69675	134.6364
10804600000		0.69282	131.362
!
!				Infineon Technologies AG
